Frequency,S11_Magnitude,S11_Phase,S11_VSWR,S12_Magnitude,S12_Phase,S12_VSWR,S21_Magnitude,S21_Phase,S21_VSWR,S22_Magnitude,S22_Phase,S22_VSWR,
20000000,-4.697064446,-2.100179135,3.788125258,-53.46652229,25.57437266,1.004252323,-54.93997172,-28.68507466,1.003587647,-0.1056477466,-3.584559946,164.4331659,
20106666,-4.701118445,-1.876102842,3.785012586,-60.62597113,-105.8254647,1.001862669,-68.37295565,13.68124612,1.000763041,-0.1219548316,-4.11863828,142.4467111,
20213333,-4.691683778,-2.211308192,3.79226506,-66.58271395,-28.41082673,1.000937773,-66.35541059,-54.3774774,1.00096265,-0.1140987126,-4.780237982,152.254383,
20320000,-4.69196807,-2.313010105,3.792046086,-62.03574367,68.88026102,1.001583385,-72.84631505,-178.8854613,1.000455841,-0.1165605478,-5.324304546,149.038764,
20426666,-4.677170152,-2.393579524,3.803480263,-65.57590884,119.7706864,1.001053084,-66.03207027,-67.62993593,1.000999179,-0.1201696892,-5.895563943,144.5627137,
20533333,-4.677654165,-2.532986507,3.803105101,-68.41813052,-96.11538798,1.000759081,-62.87721781,50.26595781,1.00143708,-0.1123112413,-6.499532417,154.6774937,
20640000,-4.686166047,-2.867367545,3.796520428,-67.44917074,-78.80442517,1.000848703,-63.14493366,-80.93751052,1.001393432,-0.1113710503,-7.02849206,155.9832401,
20746666,-4.684676068,-2.910819705,3.797671286,-85.30933452,70.84883641,1.000108539,-60.43050457,56.0370911,1.001905102,-0.1286224031,-7.619467833,135.0627597,
20853333,-4.66231614,-3.035694461,3.815032541,-81.40949866,171.4627072,1.000170056,-58.87031834,-51.63614315,1.002280389,-0.124099385,-8.225418331,139.9851804,
20960000,-4.683113677,-3.211682734,3.79887888,-53.66640503,-70.15676755,1.004155384,-64.47917111,72.49960447,1.001194898,-0.1208149029,-8.814295788,143.7906991,
21066666,-4.668668415,-3.242830762,3.810083031,-63.99681335,-27.46050552,1.001263175,-58.41804479,53.72598039,1.002402421,-0.1220338174,-9.311320127,142.3545162,
21173333,-4.664160829,-3.541515348,3.81359379,-56.75207035,-142.4697841,1.002911107,-63.95471022,-36.76472248,1.001269317,-0.1138010613,-9.959398249,152.652599,
21280000,-4.669269188,-3.708480656,3.80961564,-66.81089836,-1.244076315,1.000913447,-74.81278259,-112.6918551,1.000363471,-0.1273135256,-10.51128783,136.4512546,
21386666,-4.652770824,-3.859278118,3.822495996,-58.36031071,10.45400128,1.002418462,-70.64437273,-159.9726856,1.000587407,-0.1197311643,-11.07133135,145.0921692,
21493333,-4.654338681,-4.002913899,3.821267942,-68.54799466,135.926367,1.000747812,-63.80894018,141.3032392,1.001290813,-0.1275463106,-11.58718774,136.2022261,
21600000,-4.645824961,-4.099380427,3.827946685,-56.73123197,161.58518,1.00291811,-57.21275028,152.9342227,1.002760524,-0.1315166212,-12.13491446,132.0906134,
21706666,-4.656402622,-4.324638054,3.819652612,-59.93079331,69.3879157,1.002018033,-58.0799851,151.5933104,1.002497887,-0.1411435893,-12.76621714,123.0814776,
21813333,-4.647369062,-4.452386136,3.826733527,-59.73111931,-134.1218283,1.00206501,-67.01815087,8.574373379,1.0008919,-0.1366292328,-13.34371377,127.1480276,
21920000,-4.627269287,-4.615182592,3.8425902,-59.98719086,-60.14144661,1.00200496,-65.96768744,141.8773332,1.001006617,-0.1288256687,-13.80252708,134.8496608,
22026666,-4.629361354,-4.772124788,3.840933201,-58.87087248,-14.83590601,1.002280244,-58.10192622,-87.39569273,1.002491577,-0.135677379,-14.27954218,128.0400066,
22133333,-4.647709698,-4.972731791,3.82646601,-63.76939796,-106.4540334,1.001296706,-54.33007276,87.040006,1.003849119,-0.1401569632,-14.87269821,123.9478639,
22240000,-4.636827569,-5.031271988,3.835032142,-65.12187076,171.5903179,1.001109628,-58.6258817,-144.0007591,1.002345551,-0.1462177194,-15.4513413,118.8104259,
22346666,-4.634428949,-5.202048223,3.836925813,-54.43561337,-139.5313615,1.003802544,-58.24478337,110.843121,1.002450884,-0.1469249465,-15.9996219,118.2385558,
22453333,-4.625208987,-5.546208581,3.844223539,-69.41200319,-72.74344002,1.000676982,-65.54104486,172.258461,1.001057322,-0.1522697983,-16.37394087,114.0884428,
22560000,-4.617730026,-5.516858552,3.850165149,-57.57700838,0.7068556627,1.002647,-64.37938365,59.98648812,1.001208713,-0.1554435249,-17.1244643,111.7591931,
22666666,-4.601580723,-5.573046443,3.863062281,-58.43920813,90.79382678,1.002396568,-61.6389766,80.98533416,1.001657452,-0.1591676357,-17.52209657,109.1444584,
22773333,-4.61413052,-5.811797602,3.85303178,-63.48965174,34.81965909,1.001339177,-55.24601804,-148.8205793,1.003463223,-0.1699203856,-18.19585956,102.238076,
22880000,-4.622571846,-5.976863097,3.846316351,-63.3180848,-161.6773831,1.001365911,-60.71089516,-102.7672209,1.001844529,-0.1644097067,-18.68700789,105.6646732,
22986666,-4.601278738,-6.122874545,3.863304334,-61.75061903,160.7289048,1.001636267,-61.84544433,112.4916967,1.001618487,-0.1643981801,-19.20215214,105.6720814,
23093333,-4.605512242,-6.243045372,3.859913973,-68.27261003,-71.82088498,1.000771911,-61.21547446,-123.6104499,1.00174034,-0.1678126439,-19.70468453,103.5221139,
23200000,-4.604974074,-6.363013488,3.860344606,-63.64177236,-144.8543689,1.001315913,-67.68609617,100.0024855,1.000825856,-0.1750446672,-20.2542944,99.24533829,
23306666,-4.600768461,-6.490258099,3.863713415,-61.64674804,86.08173401,1.001655968,-61.24655002,-53.12297121,1.001734119,-0.1928372284,-20.86360567,90.08889491,
23413333,-4.589178807,-6.651960041,3.873029739,-57.13307049,65.49264226,1.002785999,-57.43129628,92.28430021,1.00269184,-0.1846511911,-21.36468151,94.0824341,
23520000,-4.580902811,-6.78267982,3.879711904,-57.79407668,-70.228019,1.002581585,-59.32590583,-106.0949804,1.002163736,-0.1913615574,-21.84887652,90.78355216,
23626666,-4.596803622,-6.896424077,3.866895135,-56.99195871,53.32007228,1.002831695,-65.33879392,48.17948398,1.001082244,-0.1924974049,-22.40512142,90.24791946,
23733333,-4.567757208,-6.902402516,3.890376791,-44.46256929,160.902795,1.0120367,-65.98899347,-94.16297233,1.001004149,-0.1880795427,-22.93124661,92.36761096,
23840000,-4.533887908,-7.091327861,3.918146083,-68.52266175,-85.43925133,1.000749997,-59.7776897,-139.1601047,1.002053957,-0.1967841273,-23.35496081,88.28213208,
23946666,-4.565121383,-7.571252684,3.89252277,-61.20996703,153.9863322,1.001741444,-59.25340249,-126.9094945,1.002181893,-0.200123418,-24.05912241,86.80916967,
24053333,-4.572615975,-7.598440932,3.886427617,-61.2013089,-86.7964898,1.001743183,-62.87754538,-64.91652264,1.001437026,-0.2099423443,-24.53669667,82.74950467,
24160000,-4.577336404,-7.684941599,3.882599097,-57.67822238,171.8099809,1.002616294,-62.31523197,0.4697587839,1.001533208,-0.2084173854,-24.98167304,83.35491174,
24266666,-4.571620349,-7.931904212,3.887236156,-62.37851391,42.55363364,1.00152207,-60.50199045,-153.2745733,1.001889472,-0.2129696774,-25.50819252,81.57334781,
24373333,-4.565350043,-7.999596404,3.892336504,-54.64762973,-43.7364185,1.00371068,-62.47473023,-116.3130032,1.00150529,-0.22463073,-26.20337346,77.33914004,
24480000,-4.560010238,-8.157472261,3.896691283,-62.918801,105.6610297,1.001430212,-60.42142191,53.17494813,1.001907097,-0.2127279341,-26.66368726,81.66603822,
24586666,-4.560191466,-8.187403342,3.896543315,-59.66723998,-79.59527325,1.002080269,-60.86211903,93.91394239,1.001812665,-0.2101461704,-27.13774244,82.66925168,
24693333,-4.547506113,-8.360955245,3.906929721,-62.36782378,71.06388511,1.001523946,-55.77780719,-34.41312761,1.003257214,-0.2196704367,-27.68237125,79.08531276,
24800000,-4.539987712,-8.501306899,3.913113593,-62.91790237,-32.43193433,1.00143036,-68.13403581,-178.0583939,1.000784329,-0.2243220877,-28.18233185,77.44553824,
24906666,-4.552181645,-8.63512462,3.903094639,-57.31503225,-84.55416294,1.002728163,-62.95170484,88.66350779,1.0014248,-0.2191434976,-28.72093041,79.27545624,
25013333,-4.541406538,-8.766508159,3.911945008,-67.4431918,-83.8054953,1.000849288,-65.06964635,-120.7079471,1.001116323,-0.2414467909,-29.33606071,71.9533186,
25120000,-4.535932046,-8.833849218,3.916458076,-55.1102637,133.5839966,1.003517872,-66.04699028,93.18274248,1.000997464,-0.2343338145,-29.81024404,74.1371149,
25226666,-4.540721583,-9.053266605,3.912509063,-66.52709143,49.60265885,1.000943801,-60.06735739,12.18866392,1.001986522,-0.2335056464,-30.34913495,74.40002316,
25333333,-4.523816605,-9.040768508,3.926485533,-66.22221516,-79.72244605,1.000977533,-61.89887199,-78.25480792,1.001608554,-0.2312932861,-30.94947346,75.11158694,
25440000,-4.523044502,-9.335233903,3.927126434,-65.8037042,-4.80435445,1.001025811,-57.16002531,-102.6984924,1.002777355,-0.245535527,-31.31770799,70.75528454,
25546666,-4.520601677,-9.409250236,3.929155625,-56.9093554,-170.6941277,1.002858792,-67.22115441,107.2369055,1.000871287,-0.2479698511,-31.9503387,70.0607717,
25653333,-4.50830527,-9.567079539,3.93940408,-65.41628941,-51.80814792,1.001072626,-58.77895353,-100.5532759,1.00230453,-0.2553296192,-32.57529694,68.041578,
25760000,-4.507618511,-9.811666505,3.939978145,-64.81698659,53.30925666,1.001149291,-59.5705099,102.776239,1.00210359,-0.2449726622,-32.96433396,70.91783475,
25866666,-4.498576039,-9.784404216,3.94755351,-69.9632522,-154.9462879,1.000635339,-67.21537551,-44.02944171,1.000871868,-0.2641580214,-33.56195937,65.76789948,
25973333,-4.512324791,-9.946355586,3.936047723,-70.37993004,60.37567623,1.000605571,-60.88631104,-28.45100435,1.001807619,-0.2480397371,-34.06104811,70.04103453,
26080000,-4.507490887,-10.05725425,3.940084847,-66.05161183,-139.6020402,1.000996933,-76.59828929,166.1292314,1.000295924,-0.261012352,-34.65746115,66.56039979,
26186666,-4.481488246,-10.17239973,3.961954203,-65.47954944,94.70091843,1.001064838,-61.56898287,43.15244047,1.001670873,-0.2419162055,-35.0563314,71.81371825,
26293333,-4.48813938,-10.4581383,3.956335654,-58.31334722,27.33078877,1.00243159,-71.82226887,-60.42234682,1.000512894,-0.2619291583,-35.66329232,66.32745972,
26400000,-4.470727056,-10.41180995,3.971080913,-63.12473489,-59.46322502,1.001396678,-71.37911577,-36.67360896,1.000539748,-0.2532033444,-36.21013757,68.61287513,
26506666,-4.46592949,-10.61447355,3.97516428,-61.75995914,145.9639644,1.001634507,-56.60683604,-28.46277298,1.002960265,-0.2577679642,-36.74571462,67.39803474,
26613333,-4.479076553,-10.77065455,3.963995695,-63.16493168,-34.95388435,1.001390225,-71.20169971,-17.54330287,1.00055089,-0.2445502683,-37.19265812,71.04030976,
26720000,-4.45901271,-10.88368817,3.981067187,-65.74156439,-5.768106936,1.00103318,-71.27954968,59.15614532,1.000545973,-0.2605278347,-37.78235723,66.68416707,
26826666,-4.478062157,-11.00911266,3.96485505,-62.6825241,-120.1134847,1.00146968,-61.12799648,-98.05940669,1.001757971,-0.262183714,-38.35215256,66.26307177,
26933333,-4.465630644,-11.10454262,3.975418935,-60.69394676,84.57345333,1.001848135,-62.84751114,-103.7784939,1.001442007,-0.2585690309,-38.85846338,67.18926116,
27040000,-4.448701935,-11.22996541,3.989901414,-57.10580305,-36.88832194,1.002794771,-56.00886487,-116.3501533,1.003171574,-0.25779498,-39.3283441,67.39097274,
27146666,-4.457966274,-11.37414457,3.981961865,-62.1183441,142.2298081,1.001568387,-80.79554282,115.4117689,1.000182512,-0.2680300084,-39.9318462,64.81795765,
27253333,-4.463653179,-11.56733172,3.977104862,-62.46263996,-15.29185413,1.001507389,-63.63567659,-105.5869645,1.001316837,-0.2604380084,-40.428547,66.70716329,
27360000,-4.446070161,-11.57591971,3.992163014,-58.638095,1.038546578,1.002342252,-67.67275222,-10.40865297,1.000827127,-0.2518783941,-41.10694487,68.97374693,
27466666,-4.424259959,-11.69826982,4.011011279,-66.13529603,-52.71429201,1.000987369,-76.1265758,103.7754772,1.000312442,-0.2496424115,-41.51588588,69.59144076,
27573333,-4.44290517,-11.92830786,3.994886455,-78.05440513,-88.97855675,1.000250244,-63.81178814,118.4448354,1.001290389,-0.2589395631,-42.12060859,67.0931302,
27680000,-4.43667252,-12.07288613,4.000261194,-66.24962669,52.34999009,1.000974451,-64.66597725,114.9617337,1.001169459,-0.2520273468,-42.64114796,68.93298793,
27786666,-4.430319108,-12.21674836,4.005755974,-58.6411228,99.16769295,1.002341434,-75.91018541,-5.48132113,1.000320325,-0.2607750632,-43.15409784,66.62095643,
27893333,-4.426823427,-12.31195958,4.008786103,-61.69922687,168.0963703,1.001645985,-79.72622025,-79.73055715,1.000206426,-0.2587213036,-43.70706757,67.14972216,
28000000,-4.416299901,-12.39596494,4.017937695,-68.37016941,-78.97858808,1.000763286,-62.61221908,-43.70380077,1.001481633,-0.2782073751,-44.25120497,62.44717415,
28106666,-4.420722007,-12.59741023,4.014086669,-63.071877,-91.70327472,1.00140521,-65.69109887,-63.61861441,1.001039204,-0.2575887084,-44.83107806,67.4449301,
28213333,-4.418671992,-12.63317475,4.015870962,-57.51108988,74.36971982,1.002667192,-67.15841466,103.7865862,1.000877606,-0.258864072,-45.34134587,67.11269329,
28320000,-4.414455955,-12.70572937,4.019545838,-62.52575995,10.37404322,1.001496466,-60.55329929,-1.633019434,1.001878334,-0.2483656484,-45.91338897,69.94913751,
28426666,-4.409259234,-12.84740544,4.024085397,-57.6894111,-145.6013069,1.002612922,-62.88016301,3.973847708,1.001436593,-0.2499382478,-46.51669204,69.50908107,
28533333,-4.396512198,-13.07980326,4.0352669,-66.65457782,-22.98134491,1.000930043,-64.16326736,-96.13149497,1.001239184,-0.2625933184,-46.97388385,66.15972747,
28640000,-4.391446416,-13.14551924,4.039728934,-56.75239411,101.9407481,1.002910998,-62.26772985,62.92436285,1.001541623,-0.2609954258,-47.62085455,66.56471576,
28746666,-4.398931875,-13.30688818,4.033139307,-66.88107605,140.2189457,1.000906093,-62.40943716,-63.00107518,1.001516657,-0.2600938611,-48.18870383,66.7954147,
28853333,-4.39866489,-13.45905999,4.033373946,-61.17348685,135.2264502,1.00174878,-65.40319691,31.80855802,1.001074245,-0.2605043658,-48.78156856,66.69017375,
28960000,-4.390959683,-13.51405502,4.040158211,-61.52114577,-90.78164872,1.001680109,-61.3879331,43.05041944,1.001706097,-0.2544943302,-49.3336504,68.26486866,
29066666,-4.397989605,-13.68312517,4.033967549,-78.46788093,66.53378876,1.00023861,-66.40767894,14.95306124,1.000956872,-0.265548176,-49.86325567,65.42365529,
29173333,-4.385935866,-13.76684631,4.044594681,-60.59193178,-95.86400079,1.00186999,-72.51290106,-139.7507015,1.000473683,-0.2625154623,-50.57850676,66.17934597,
29280000,-4.376403091,-13.93428257,4.053041549,-77.57344036,136.6854833,1.000264494,-67.08819505,91.56384579,1.000884733,-0.2710580029,-51.00857689,64.09399048,
29386666,-4.385127129,-13.92020981,4.045309837,-66.49993269,-55.2719125,1.000946758,-66.58507004,-144.4235002,1.000937519,-0.2582308581,-51.65347803,67.27723756,
29493333,-4.370343357,-14.10363163,4.058430564,-80.50663404,-117.7004158,1.000188686,-62.05968582,26.52301148,1.001579023,-0.276721007,-52.29743257,62.7825432,
29600000,-4.373604163,-14.31777905,4.055528785,-65.96269773,139.5093677,1.001007195,-61.113674,-17.94897712,1.001760875,-0.3002761791,-52.81604125,57.85843356,
29706666,-4.353744374,-14.38081057,4.073270733,-75.17949924,14.95074838,1.000348442,-64.4964939,33.02085603,1.001192516,-0.2864490522,-53.48598026,60.65076343,
29813333,-4.365363874,-14.46256574,4.062870327,-67.07352454,81.87658773,1.000886229,-70.62394853,83.42179263,1.00058879,-0.3043509948,-54.18931693,57.0839489,
29920000,-4.3507941,-14.54206286,4.075920499,-60.9247677,121.6572085,1.001799626,-63.53948906,30.79060685,1.00133151,-0.3219456738,-54.89178116,53.96490614,
30026666,-4.353334353,-14.70161949,4.073638771,-59.6170602,81.01471923,1.002092334,-66.0564222,-89.09863612,1.00099638,-0.3394287319,-55.65475347,51.18597307,
30133333,-4.36595793,-14.72332357,4.062340117,-61.43435166,-157.8756154,1.001696996,-67.16995742,139.2296271,1.00087644,-0.3690138657,-56.73250208,47.08330416,
30240000,-4.37483929,-14.81997415,4.054430803,-72.440006,-86.84624752,1.000477676,-65.17297205,-47.84006389,1.001103115,-0.4041609801,-57.51038525,42.99008152,
30346666,-4.365929719,-14.90553745,4.062365292,-61.62200295,-68.38023864,1.001660697,-72.72239122,-68.76253822,1.000462393,-0.4580504702,-58.5867988,37.93425857,
30453333,-4.363494773,-15.05550664,4.064539509,-65.82583199,2.519755397,1.0010232,-63.61631863,-29.72430822,1.001319777,-0.5648711316,-59.93689792,30.76436453,
30560000,-4.362825539,-15.19239472,4.065137517,-66.85275407,-59.39315393,1.000909054,-67.68792456,-102.7903167,1.000825682,-0.757880748,-61.66415339,22.93606126,
30666666,-4.48112822,-14.47529221,3.962258822,-44.74430448,-20.54510438,1.011650304,-42.16301805,-95.77731072,1.015713681,-1.337148084,-59.69946213,13.01731183,
30773333,-4.370475749,-15.45152742,4.058312662,-61.33907401,-139.3009318,1.001715729,-68.1237968,-62.82130145,1.000785255,-1.865080458,-62.80622161,9.349985214,
30880000,-4.356609071,-15.53060384,4.070701334,-81.06386009,-42.60076189,1.00017696,-58.10224622,-94.88040163,1.002491486,-2.323310803,-56.80796435,7.521692561,
30986666,-4.351224081,-15.75324313,4.075534087,-66.63982941,-47.31252204,1.000931624,-71.42416096,-18.02362467,1.000536956,-1.745116065,-52.14075691,9.987975412,
31093333,-4.342261912,-15.81256092,4.083604303,-62.50198804,-174.2262651,1.00150057,-66.36120721,-154.9705618,1.000962008,-1.160556251,-51.96503276,14.99075637,
31200000,-4.556515043,-15.34444013,3.899547378,-50.37467408,169.5746936,1.006075943,-55.28833735,12.97371639,1.003446362,-0.8200252536,-51.09628637,21.20017674,
31306666,-4.328386599,-16.08751355,4.09616598,-67.87599129,-103.4260936,1.00080799,-69.31675211,-124.8675464,1.000684449,-0.664866221,-54.59874562,26.14098895,
31413333,-4.314594426,-16.20194026,4.108734113,-64.6615907,-3.153901613,1.00117005,-61.83998244,-77.4913718,1.001619505,-0.5536392363,-55.81218026,31.38805785,
31520000,-4.306329337,-16.38915916,4.116305055,-59.26858609,-157.8097724,1.002178078,-62.53647204,-52.94862849,1.00149462,-0.4998655421,-56.79126802,34.76249515,
31626666,-4.309992769,-16.48668826,4.112945642,-66.65145235,-13.20593876,1.000930378,-63.76782127,-114.5806653,1.001296942,-0.4698460486,-57.61931735,36.98235842,
31733333,-4.308888505,-16.591069,4.113957652,-61.63661795,-174.4102862,1.001657902,-61.33688222,179.8534133,1.001716162,-0.421382552,-58.481354,41.23375821,
31840000,-4.300587792,-16.6777424,4.121581872,-67.38936715,20.5550968,1.000854569,-65.45358494,64.24032855,1.001068028,-0.3902165532,-59.41847956,44.52579165,
31946666,-4.297522676,-16.87109751,4.124404785,-62.70022497,-29.3812205,1.001466686,-71.41196789,-167.071859,1.00053771,-0.3628255132,-59.88670109,47.88611758,
32053333,-4.304033996,-16.90184448,4.118412885,-56.78208113,-38.63738834,1.002901051,-83.49880083,-59.67080307,1.000133696,-0.3730206658,-60.80114998,46.57771196,
32160000,-4.289020977,-17.05889805,4.13225623,-60.45361003,56.9042143,1.001900036,-62.86075911,129.5536465,1.001439808,-0.3362163917,-61.33930883,51.6748996,
32266666,-4.305034766,-17.11474314,4.117493588,-61.49892544,139.754489,1.001684416,-76.32503569,110.8348332,1.000305383,-0.3460424389,-61.97075348,50.20793683,
32373333,-4.287761947,-17.29691007,4.133421663,-57.21376652,-109.0657753,1.0027602,-61.71914636,39.94716945,1.001642212,-0.3331062027,-62.75622976,52.15726457,
32480000,-4.290562055,-17.33935647,4.130830666,-65.40341239,113.3893577,1.001074218,-64.02358084,-63.34324464,1.001259286,-0.3331648249,-63.17202152,52.14808945,
32586666,-4.29371056,-17.45723274,4.127921408,-59.31522776,-121.2911092,1.002166401,-66.46109896,169.9920518,1.000951002,-0.3379468748,-63.789141,51.41036052,
32693333,-4.291828063,-17.67069367,4.129660335,-64.94972911,-58.70883717,1.001131851,-61.9367934,-5.115711306,1.001601541,-0.3221241557,-64.35156293,53.93501223,
32800000,-4.284621673,-17.65079378,4.136331534,-61.71077669,-85.3418233,1.001643796,-73.77934043,-95.49102316,1.000409404,-0.3399756059,-64.8259347,51.10365791,
32906666,-4.28237587,-17.70071433,4.138415231,-67.80857302,-118.5617368,1.000814288,-61.79333408,-111.2541458,1.001628234,-0.3250971637,-65.42115629,53.44189102,
