Frequency,S11_Magnitude,S11_Phase,S11_VSWR,S12_Magnitude,S12_Phase,S12_VSWR,S21_Magnitude,S21_Phase,S21_VSWR,S22_Magnitude,S22_Phase,S22_VSWR,
20000000,-4.695049228,-1.985385031,3.789674597,-60.76320161,169.7842916,1.001833445,-64.36563803,-12.21043726,1.001210629,-0.1048179216,-4.644059295,165.7349223,
20106666,-4.687198355,-1.895451629,3.795723514,-61.20745429,-94.44556133,1.001741949,-61.62254569,-17.60798879,1.001660593,-0.1134021966,-5.302636582,153.1895021,
20213333,-4.677694884,-2.093737905,3.803073542,-56.75152378,-63.39848189,1.00291129,-57.41200746,-74.51303545,1.002697833,-0.109090808,-5.764231315,159.2435509,
20320000,-4.672439463,-2.256047078,3.807151257,-57.06025057,131.275736,1.002809488,-58.18703061,110.1312429,1.002467254,-0.1038363507,-6.404315214,167.301586,
20426666,-4.660847987,-2.499295394,3.816178449,-61.53534248,-159.8895956,1.001677363,-60.91946348,-66.56676765,1.001800726,-0.1133587343,-7.053399605,153.2482341,
20533333,-4.665488327,-2.476127806,3.812559139,-57.19193708,-138.9409724,1.002767156,-83.54474204,0.3619709567,1.000132991,-0.1133016728,-7.647767368,153.3254114,
20640000,-4.687885878,-2.744595925,3.795192964,-57.33182948,-91.54672309,1.002722886,-65.11636561,-71.5165928,1.001110332,-0.1086516825,-8.196385152,159.887131,
20746666,-4.675762568,-2.947324743,3.804571748,-61.46518151,73.84401353,1.001690978,-63.94459494,72.30573995,1.001270797,-0.1136541026,-8.822603738,152.8499784,
20853333,-4.670496806,-2.950160226,3.808660956,-61.89073176,-147.7107026,1.001610063,-60.10639697,-46.59792957,1.001977604,-0.1103490712,-9.41852945,157.4278128,
20960000,-4.6581452,-3.171518617,3.818289934,-58.52273534,-33.05584398,1.002373604,-61.28575054,21.03693104,1.001726304,-0.1133762534,-9.992620465,153.2245546,
21066666,-4.647338003,-3.408537107,3.826757921,-57.94570066,-63.28928271,1.002536854,-67.94491602,55.6804368,1.000801601,-0.1135977492,-10.56040655,152.9258019,
21173333,-4.666243162,-3.559675537,3.81197109,-58.22475205,-147.0620383,1.002456549,-58.91524348,-11.72741992,1.002268612,-0.1187773606,-11.23100816,146.2572488,
21280000,-4.645588607,-3.672482282,3.828132455,-61.66052751,126.9316803,1.001653341,-58.06427354,-132.3127834,1.002502415,-0.1205629609,-11.7551123,144.0911707,
21386666,-4.638440944,-3.851622052,3.833759537,-64.83593032,-5.293271925,1.001146786,-68.11739673,-80.05907377,1.000785834,-0.1207027138,-12.37524884,143.9243434,
21493333,-4.651618227,-3.986770878,3.823399331,-81.41046053,-46.46734689,1.000170037,-66.47972423,8.250721129,1.000948964,-0.119147492,-12.94948852,145.8029152,
21600000,-4.6529432,-4.060824723,3.822360938,-64.30314539,-123.0278199,1.001219375,-54.1652197,174.1309953,1.003923016,-0.1271671692,-13.53357411,136.6082904,
21706666,-4.642667965,-4.297989637,3.830429622,-59.93288519,7.790224646,1.002017547,-60.48251984,-130.177949,1.001893717,-0.1219627868,-14.14544808,142.4374201,
21813333,-4.630012131,-4.455087986,3.840418073,-56.32619715,-133.5264532,1.003057621,-63.1960484,35.71870344,1.00138525,-0.1334565528,-14.69546371,130.1706111,
21920000,-4.626503745,-4.493981783,3.843196923,-56.96431468,-120.2134225,1.002840735,-64.54495757,-86.58029478,1.001185877,-0.1175265994,-15.29140938,147.8137238,
22026666,-4.630756008,-4.605925836,3.839829431,-61.45707206,-47.84903013,1.001692559,-62.91962388,137.0627557,1.001430076,-0.1327002882,-15.82671686,130.9124298,
22133333,-4.631078655,-4.834844001,3.839574176,-58.90149646,150.4102749,1.002272209,-65.22776233,-4.262539468,1.001096175,-0.1381725904,-16.3413372,125.7278709,
22240000,-4.621144759,-5.053702404,3.847449895,-62.85945363,-77.84449653,1.001440025,-56.21591725,157.6438115,1.003096749,-0.1383566896,-16.98753683,125.5605829,
22346666,-4.629187527,-5.162290874,3.84107082,-55.81098519,-117.9219042,1.003244776,-61.68043634,-96.73847442,1.001649553,-0.1343764268,-17.45588862,129.2795632,
22453333,-4.627149771,-5.306190447,3.842684908,-69.89829242,-110.0854851,1.00064011,-58.49839215,-157.1038055,1.002380274,-0.1424835107,-17.98555894,121.924065,
22560000,-4.615056155,-5.372377603,3.852294171,-59.00117449,-74.01549316,1.002246253,-58.31458015,-16.44452997,1.002431244,-0.1531324445,-18.69049067,113.4457775,
22666666,-4.607446078,-5.567909091,3.858367401,-63.85581806,14.85473336,1.00128386,-61.57400385,156.2225244,1.001669907,-0.1520672161,-19.19689205,114.2404223,
22773333,-4.600774675,-5.745409908,3.863708433,-59.4804619,91.47041746,1.002125535,-60.46581532,-90.40769134,1.001897366,-0.1654050203,-19.76856217,105.0288813,
22880000,-4.614915686,-5.91390767,3.852406087,-64.3838153,-144.2355827,1.001208096,-52.89155578,-108.1729477,1.004543995,-0.1577226539,-20.39208275,110.1443336,
22986666,-4.596919477,-6.020669064,3.866802084,-59.92867417,-106.658311,1.002018526,-57.15660264,77.61028706,1.002778451,-0.1685737767,-21.01722591,103.0547271,
23093333,-4.614689968,-6.120964913,3.852585937,-57.23598987,-121.8019357,1.002753138,-63.97431554,162.8368815,1.001266453,-0.1700688866,-21.58855089,102.1488093,
23200000,-4.606354392,-6.312045981,3.859240306,-64.3231924,-113.8321579,1.001216563,-67.59390823,-26.45649238,1.000834672,-0.1729628879,-22.18002025,100.4397736,
23306666,-4.592506998,-6.475042682,3.870349454,-65.62041886,22.64981212,1.001047699,-62.00593323,-156.1669578,1.001588833,-0.1791048515,-22.77443716,96.99566847,
23413333,-4.59256621,-6.580335021,3.870301805,-63.91778978,24.72000693,1.001274727,-56.92059268,136.3347343,1.002855091,-0.185272306,-23.30018562,93.76705187,
23520000,-4.580927703,-6.772354253,3.879691769,-67.90460644,-167.9210618,1.000805331,-59.67667383,-127.2167572,1.002078008,-0.1743099371,-23.81296712,99.66363695,
23626666,-4.585628977,-7.049347557,3.875892903,-61.98831412,11.59138341,1.001592062,-58.62032484,14.66447517,1.002347054,-0.1957055227,-24.45912725,88.76864561,
23733333,-4.556436298,-6.598382212,3.899611777,-50.95558685,-173.989172,1.005681757,-65.78200314,-99.20768384,1.001028379,-0.1946332102,-25.01953018,89.25766646,
23840000,-4.528998569,-7.06186137,3.922189918,-60.89465121,-152.821794,1.001805882,-55.78994448,-100.8774326,1.003252659,-0.2016081883,-25.61946616,86.16990878,
23946666,-4.560953029,-7.511103005,3.89592165,-58.9727897,40.95461533,1.002253614,-57.73575145,-113.082836,1.002599001,-0.1886876339,-26.34285909,92.06995748,
24053333,-4.559556055,-7.58674876,3.897062165,-57.30756068,-56.99921642,1.002730514,-59.55918122,-60.66351699,1.002106338,-0.2074193346,-26.85559522,83.75595667,
24160000,-4.558990656,-7.782428101,3.897523971,-58.24011273,-157.8613711,1.002452204,-63.84917056,-109.6769366,1.001284844,-0.2106258203,-27.43852551,82.48101059,
24266666,-4.552197882,-7.758169054,3.903081335,-60.5234963,-147.8660667,1.001884796,-60.46986291,-151.6262903,1.001896481,-0.2149002657,-28.03995116,80.84059534,
24373333,-4.565467396,-8.078193409,3.892240916,-54.41577087,-28.03641991,1.003811257,-59.10124393,-102.5940681,1.002220495,-0.2178486092,-28.75018771,79.74661837,
24480000,-4.547995745,-8.15423431,3.906527724,-61.09555443,-149.3883609,1.001764555,-74.52289805,57.65747477,1.000375809,-0.2210880051,-29.35904858,78.57828913,
24586666,-4.544790342,-8.252261414,3.909161024,-80.51134707,-52.22823422,1.000188583,-57.90255784,-117.145153,1.002549502,-0.2193135672,-29.84555162,79.21398759,
24693333,-4.548265824,-8.447262817,3.906306024,-67.45289169,-83.12982202,1.000848339,-50.11173688,-58.42442248,1.006263269,-0.230252545,-30.54965436,75.45105114,
24800000,-4.532144241,-8.374722865,3.919587197,-65.09240085,7.140151372,1.001113401,-58.78333507,-69.11440678,1.002303367,-0.2335174422,-31.15752836,74.3962654,
24906666,-4.542281727,-8.578695226,3.91122455,-53.40174157,-101.1832507,1.004284225,-64.9204303,-44.6382778,1.001135677,-0.2251458042,-31.73476162,77.16222823,
25013333,-4.523815098,-8.695530564,3.926486784,-80.99299669,-128.4908308,1.00017841,-56.74949312,-80.35747383,1.002911972,-0.2475744468,-32.44759164,70.17265146,
25120000,-4.546440086,-8.791149826,3.907805254,-66.10732523,173.5599307,1.000990555,-60.61741112,-79.10091144,1.001864507,-0.2192853645,-33.1771026,79.22417435,
25226666,-4.536715034,-9.073359106,3.915811913,-58.6056697,60.59205872,1.002351022,-61.90080916,-177.8434564,1.001608195,-0.2353301449,-33.76915181,73.82327462,
25333333,-4.518202288,-9.095547515,3.93115092,-65.03847642,-113.1414391,1.001120339,-55.45332326,-128.0158284,1.003381407,-0.2413197295,-34.51318471,71.9911991,
25440000,-4.50972299,-9.300827965,3.938219565,-62.03422062,-69.35525779,1.001583663,-56.99033804,-86.37965657,1.002832224,-0.2499617802,-35.07881527,69.50253811,
25546666,-4.511683381,-9.432357195,3.936582899,-60.5404707,-155.3494515,1.001881112,-69.02038829,-170.4933707,1.000708214,-0.2713671513,-35.92829509,64.02098483,
25653333,-4.506405097,-9.56465229,3.940992882,-57.3184076,-124.8203573,1.002727102,-57.15906173,-99.9304473,1.002777664,-0.2699423837,-36.6845465,64.35883554,
25760000,-4.502574849,-9.712065213,3.944199656,-69.50982625,60.1233484,1.000669397,-64.52028964,155.466209,1.001189251,-0.2663636991,-37.36885127,65.22337958,
25866666,-4.492378882,-9.870388896,3.952763207,-59.21571296,-53.76104235,1.002191391,-64.74524516,-11.72835349,1.001158829,-0.2839968769,-38.20182423,61.17435884,
25973333,-4.492921276,-9.912470841,3.952306651,-57.53284575,-143.3419991,1.002660511,-62.42503173,-75.77688514,1.001513934,-0.2785963163,-38.95759623,62.36000817,
26080000,-4.493452222,-10.10753156,3.951859842,-61.2940262,-112.7879139,1.001724658,-60.25909279,-73.2083856,1.001943109,-0.2872470292,-39.8233736,60.48230519,
26186666,-4.475845208,-10.25372686,3.966734546,-60.05116948,-144.9353004,1.001990231,-69.04614057,151.3489083,1.000706116,-0.2712370069,-40.62626017,64.05169826,
26293333,-4.480124618,-10.41801854,3.963108235,-61.96296702,-9.084658442,1.001596718,-59.65975133,-85.14144763,1.002082065,-0.310307665,-41.62573426,55.98839102,
26400000,-4.464574607,-10.62524858,3.97631909,-58.47558438,-88.11453262,1.00238654,-56.1705449,-66.74565964,1.003112993,-0.2868468949,-42.65476001,60.56665903,
26506666,-4.467442633,-10.62783332,3.973875426,-59.15362015,-105.593343,1.00220713,-52.6074403,-87.7136962,1.004695441,-0.3272036327,-43.77948825,53.09792381,
26613333,-4.468109189,-10.80595628,3.973307955,-56.17940331,-75.32818443,1.003109815,-58.42617726,-99.69967597,1.00240017,-0.323065717,-44.84035011,53.777857,
26720000,-4.463907734,-10.91795695,3.976887751,-56.41938678,-87.2751395,1.003024942,-72.34412458,-51.72909256,1.000482979,-0.3620158715,-46.35788808,47.99318287,
26826666,-4.475784143,-10.99562697,3.966786343,-56.70573922,-91.51589844,1.002926699,-56.0705715,-113.8527295,1.003149087,-0.388794706,-47.85670634,44.68857066,
26933333,-4.463293903,-11.19138739,3.977411334,-67.21783289,-103.83604,1.000871621,-52.33436944,-130.0868939,1.004845767,-0.433250088,-49.63281435,40.10473706,
27040000,-4.445526654,-11.28590239,3.992630414,-56.25361567,-89.07304669,1.003083317,-50.83323687,-132.5866663,1.005762589,-0.508549784,-51.7212701,34.16920437,
27146666,-4.454478191,-11.30447258,3.984947195,-59.05327854,-107.5242301,1.002232804,-56.63088843,-121.5459917,1.002952066,-0.6206147776,-54.55285703,28.00315084,
27253333,-4.445444644,-11.55702007,3.99270095,-57.01072883,-91.17869212,1.002825574,-51.05691485,-131.124238,1.005615675,-0.8177416057,-58.24122946,21.2592932,
27360000,-4.442866968,-11.63016895,3.994919353,-52.58855551,-106.0243022,1.004705685,-51.42436269,-133.6295612,1.005382438,-1.172458426,-63.49292206,14.83903234,
27466666,-4.446351781,-11.76186151,3.991920874,-46.97752777,-138.8633889,1.008997108,-47.53177588,-151.0647744,1.008438588,-2.05524372,-71.47873627,8.491817825,
27573333,-4.445072104,-11.95332541,3.993021403,-46.68265112,-163.549355,1.00930924,-46.76237369,-160.6126271,1.009223795,-4.568608881,-83.32333311,3.889683936,
27680000,-4.436587982,-12.08890602,4.000334201,-45.97245074,172.246668,1.010106401,-44.30326888,164.8626006,1.012260857,-13.60030652,-70.57843784,1.52819647,
27786666,-4.42912745,-12.20823377,4.006788378,-46.00084356,132.8507613,1.010073252,-46.83098649,139.4132555,1.009150888,-6.900260415,0.3764613663,2.648585717,
27893333,-4.429660949,-12.29442637,4.006326106,-50.82952671,113.1585095,1.005765059,-48.63697861,119.5987517,1.007426612,-2.851836675,-10.62986941,6.146059112,
28000000,-4.418596544,-12.33428213,4.015936663,-51.06522794,107.8575715,1.005610288,-57.15781041,100.9720756,1.002778064,-1.575420983,-19.60151506,11.05696672,
28106666,-4.419515419,-12.59552084,4.015136655,-54.13809985,105.2857218,1.003935308,-57.85298615,120.1022237,1.002564113,-1.022902062,-25.62144148,17.00246041,
28213333,-4.420603006,-12.66576402,4.0141902,-52.33926728,95.52214435,1.004843028,-53.86997571,111.7604389,1.004058931,-0.7697236477,-29.6922917,22.58361993,
28320000,-4.412866233,-12.78755966,4.020933369,-56.7782591,98.79942623,1.00290233,-61.52115121,50.26764067,1.001680108,-0.6158044983,-32.69708405,28.22170864,
28426666,-4.403564833,-12.81789227,4.029072267,-56.35993199,103.1221945,1.00304575,-56.35338989,70.43045472,1.003048048,-0.5212490496,-35.00095841,33.33721649,
28533333,-4.407692621,-13.0642978,4.025456046,-58.01281453,58.53129559,1.002517303,-56.48874568,68.42353399,1.003000847,-0.4694775186,-36.91595042,37.01137464,
28640000,-4.383485738,-13.09901671,4.046762126,-54.755023,81.2535902,1.003665,-57.40548823,72.08667388,1.002699861,-0.4232564302,-38.44222513,41.05127622,
28746666,-4.394670522,-13.28466438,4.036887866,-56.38292632,100.8251919,1.003037685,-66.19997807,96.29279925,1.00098004,-0.3959086281,-39.92047852,43.88585034,
28853333,-4.396768435,-13.44042171,4.03504148,-55.02638559,117.0260159,1.003552069,-58.28183444,71.7812638,1.002440439,-0.369159994,-41.13025002,47.06467231,
28960000,-4.385363936,-13.52774497,4.045100404,-64.26949512,113.4750135,1.001224111,-67.13174041,169.9071524,1.000880307,-0.3522741457,-42.27006421,49.31999871,
29066666,-4.390702853,-13.70162067,4.040384763,-61.90465268,90.44126483,1.001607483,-70.24861281,-11.21871382,1.000614799,-0.3432102401,-43.22998444,50.62214768,
29173333,-4.384254572,-13.71497076,4.04608173,-73.90341156,134.0387818,1.000403596,-59.50215134,88.28258936,1.002120228,-0.3260400172,-44.1548077,53.2873821,
29280000,-4.37043805,-13.85446383,4.058346234,-62.98091823,-166.1121551,1.001420013,-64.76572132,27.91267764,1.001156099,-0.3221080402,-45.03297625,53.93771005,
29386666,-4.381178714,-13.92270419,4.04880524,-61.60280143,102.094821,1.001664375,-68.19434451,-70.08856974,1.0007789,-0.3061214002,-45.84991192,56.75388051,
29493333,-4.368062282,-14.10843291,4.060463113,-71.51959965,60.04001725,1.000531087,-62.65804724,70.97615718,1.001473831,-0.313426707,-46.63571558,55.43134591,
29600000,-4.363842285,-14.22290258,4.064229056,-67.33354968,99.28410187,1.000860081,-68.75790663,27.36873026,1.00072995,-0.3195761986,-47.46527599,54.36493387,
29706666,-4.364454029,-14.34413593,4.063682673,-63.62008215,116.343172,1.001319205,-60.60079345,55.15339435,1.001868081,-0.3106844317,-48.06364255,55.9205084,
29813333,-4.366097095,-14.53456183,4.06221593,-59.73498467,48.74330464,1.002064091,-68.36803408,170.8221477,1.000763474,-0.3094358213,-48.80758023,56.14610631,
29920000,-4.353487792,-14.61259179,4.073501035,-54.29339305,117.1529274,1.00386544,-71.04647517,-33.65001723,1.000560826,-0.3150798,-49.4235942,55.14058391,
30026666,-4.35775018,-14.67927123,4.069678813,-56.33980645,97.46370531,1.003052826,-69.15202783,-63.538921,1.000697558,-0.3097231514,-50.0089949,56.0940306,
30133333,-4.350922122,-14.73656749,4.075805441,-73.85552751,-149.8496018,1.000405828,-69.26318538,-30.40720553,1.000688684,-0.3179679196,-50.87922774,54.63984936,
30240000,-4.376191208,-14.78464708,4.053229724,-70.77559076,102.841218,1.000578597,-70.09226297,17.69160113,1.000625969,-0.3216650346,-51.36926097,54.01197747,
30346666,-4.364855311,-14.96635664,4.063324349,-70.60621811,-77.69596574,1.000589993,-62.18689008,-140.6150382,1.001556049,-0.3226469568,-51.93899508,53.84763865,
30453333,-4.363776308,-15.09106111,4.064287994,-93.80467606,-129.0887344,1.000040814,-79.63233628,14.7175981,1.000208669,-0.3213699101,-52.59742909,54.06156712,
30560000,-4.368983614,-15.18338216,4.0596419,-63.16152155,-19.52345328,1.001390772,-70.16751632,-161.5281842,1.000620567,-0.3210886839,-53.31192965,54.10890626,
30666666,-4.36454131,-14.75578679,4.06360473,-41.17372714,-159.283193,1.017626022,-39.21322178,114.1538373,1.022138583,-0.4185546813,-51.85372989,41.51223595,
30773333,-4.362846253,-15.38246483,4.065119005,-86.53232014,112.7568222,1.000094283,-64.7014293,-70.06551434,1.001164693,-0.324686483,-54.47121456,53.5094714,
30880000,-4.354021744,-15.51797989,4.073021804,-69.71062631,65.19072458,1.000654095,-63.5170535,-71.28777993,1.001334956,-0.3238270821,-55.0783983,53.65144653,
30986666,-4.349816975,-15.7379339,4.076798905,-67.85617166,10.99725947,1.000809836,-82.36591782,115.5840317,1.000152324,-0.3096070584,-55.7596684,56.11505966,
31093333,-4.337976253,-15.83870489,4.087475465,-65.56228042,164.8670235,1.001054739,-66.17915178,-22.14978356,1.000982394,-0.3136210967,-56.25201027,55.39699572,
31200000,-4.681329687,-15.69160148,3.80025876,-50.53182968,75.02694839,1.005966673,-50.28154012,148.9915257,1.006141643,-0.3881627174,-53.39095214,44.76130626,
31306666,-4.322359348,-16.11273358,4.10164825,-68.68153421,-7.914331681,1.000736399,-72.07403686,-156.9061206,1.000498237,-0.3056241403,-57.5274392,56.84620173,
31413333,-4.323112675,-16.21840101,4.100962186,-66.13749439,123.5293567,1.000987119,-81.43010143,17.5805399,1.000169653,-0.2960537021,-58.19011686,58.68347846,
31520000,-4.310314385,-16.3910608,4.112650994,-55.36805648,-59.58178233,1.003414822,-64.68217594,-59.72592626,1.001167279,-0.2921138307,-58.69058905,59.47481687,
31626666,-4.309888397,-16.54386643,4.113041272,-65.33328226,-50.94372947,1.001082931,-58.20321562,-164.6616474,1.002462655,-0.303348164,-59.29832065,57.27262269,
31733333,-4.307759993,-16.56317688,4.114992431,-65.42520118,-152.2348747,1.001071526,-61.05508489,164.464078,1.001772803,-0.2960699238,-59.87893341,58.68026381,
31840000,-4.300439068,-16.65363866,4.12171875,-61.37739613,-86.43452514,1.001708169,-57.54477016,76.77606395,1.002656856,-0.2803943711,-60.59713367,61.96018763,
31946666,-4.300369051,-16.7929771,4.121783193,-65.15110929,121.2939837,1.001105897,-75.06488959,154.1583513,1.000353071,-0.2762559056,-60.98178749,62.88822535,
32053333,-4.305991837,-16.91385436,4.11661484,-57.32318302,-14.26989662,1.002725601,-66.01241077,-49.02942489,1.001001444,-0.2893380945,-61.67307472,60.04527558,
32160000,-4.291780309,-17.02823272,4.129704467,-62.01965125,41.31289655,1.001586324,-74.37991393,-78.59895404,1.000382047,-0.2721475617,-62.20619922,63.83742815,
32266666,-4.299711547,-17.14374861,4.122388458,-60.99608238,123.5072562,1.001784898,-60.24148795,113.4824791,1.001947055,-0.2848963085,-62.71906033,60.98126286,
32373333,-4.290411564,-17.22795912,4.130969831,-62.2269733,-109.4936331,1.001548879,-71.67187149,-52.24902715,1.000521855,-0.2683786072,-63.38927265,64.73377855,
32480000,-4.295808758,-17.27384975,4.125985062,-68.21638077,37.88562158,1.000776926,-71.7786455,-1.646826279,1.000515477,-0.2735979757,-63.80593336,63.49906485,
32586666,-4.280202414,-17.42139218,4.140433929,-62.54493402,38.52387471,1.001493164,-64.97139538,152.7921195,1.00112903,-0.2719172227,-64.3011159,63.89149551,
32693333,-4.274253152,-17.58990711,4.14597029,-64.27686818,-85.77734702,1.001223072,-60.35645256,-8.177910681,1.001921429,-0.2837053539,-64.89203533,61.23720771,
32800000,-4.290718358,-17.65550867,4.130686137,-58.90912484,-0.02661562043,1.002270212,-57.4341287,-31.97845381,1.002690962,-0.296816253,-65.32724779,58.53274389,
32906666,-4.28203732,-17.76707375,4.138729538,-66.26219898,-8.140852013,1.000973041,-59.51859852,-127.4284301,1.002116213,-0.2819779063,-65.94631726,61.61229141,
