Frequency,S11_Magnitude,S11_Phase,S11_VSWR,S12_Magnitude,S12_Phase,S12_VSWR,S21_Magnitude,S21_Phase,S21_VSWR,S22_Magnitude,S22_Phase,S22_VSWR,
20000000,-4.691926756,-1.934688605,3.792077907,-56.44614526,10.61350877,1.003015623,-56.75319157,-24.80877202,1.002910731,-0.09753095176,-3.895327956,178.1174231,
20106666,-4.674374457,-1.740694671,3.805648791,-64.08012692,2.696927645,1.001251109,-66.23549278,-37.53626971,1.000976039,-0.1022722846,-4.497525685,169.860095,
20213333,-4.668037198,-2.051365796,3.81057424,-57.99930651,-89.89635035,1.002521226,-98.75494984,62.22013654,1.000023083,-0.09649895348,-5.090254944,180.022242,
20320000,-4.664646613,-2.115253265,3.8132151,-59.80529205,117.4121515,1.002047433,-58.68091365,69.92137694,1.00233072,-0.09427114867,-5.691587459,184.2764202,
20426666,-4.669288283,-2.387966556,3.809600786,-57.41550743,146.778182,1.002696745,-72.78671032,-61.30040292,1.00045898,-0.1047746446,-6.31405639,165.8033772,
20533333,-4.659691201,-2.485020592,3.817081852,-63.32716422,-84.9061806,1.001364483,-62.60074067,50.29153307,1.001483594,-0.09573376954,-6.837771844,181.4611001,
20640000,-4.66859671,-2.720113741,3.810138825,-59.87670921,-39.09224248,1.002030651,-63.01088643,-62.06593633,1.001415119,-0.08899509146,-7.42152265,195.2010045,
20746666,-4.67118078,-2.828203161,3.808129272,-61.14840271,122.800454,1.001753842,-55.27157564,68.95400157,1.00345303,-0.09985256896,-8.024314338,173.9762009,
20853333,-4.659920647,-2.895260159,3.816902627,-63.62891475,-110.8326205,1.001317863,-62.38276103,-18.18056781,1.001521326,-0.09796023468,-8.652386596,177.3368905,
20960000,-4.65913771,-3.119514839,3.817514269,-53.85006551,-15.56831576,1.004068265,-64.53029098,-33.35387331,1.001187882,-0.1037917446,-9.214564976,167.3734849,
21066666,-4.64905505,-3.154505493,3.825409835,-61.99363304,-40.50684188,1.001591086,-55.54517442,44.50863754,1.003345779,-0.1049877871,-9.768347885,165.4667772,
21173333,-4.657931005,-3.504526034,3.818457376,-60.7396779,-174.3521049,1.001838422,-57.66442115,-55.26909003,1.00262046,-0.09643690851,-10.37394376,180.1380612,
21280000,-4.646368737,-3.709619484,3.827519361,-57.37219258,41.77437413,1.002710245,-64.49651725,-92.14218174,1.001192513,-0.1089151201,-10.96848516,159.5004154,
21386666,-4.642838538,-3.778700478,3.83029538,-60.3290807,54.91965593,1.0019275,-63.70707925,-14.80467971,1.001306049,-0.09468774639,-11.57934869,183.4656751,
21493333,-4.62797173,-3.871778655,3.842033667,-76.71889219,162.3386362,1.000291843,-76.91122011,31.30677011,1.000285451,-0.1059163556,-12.08444069,164.0161657,
21600000,-4.655980339,-4.085876135,3.81998299,-58.53433573,141.0926845,1.002370433,-58.26356402,99.51032159,1.002445584,-0.1068839164,-12.65719597,162.5314553,
21706666,-4.629006959,-4.257968331,3.841213788,-60.45702807,-23.39802337,1.001899288,-56.09242018,73.18554704,1.003141164,-0.1025327147,-13.23400857,169.4286653,
21813333,-4.631796582,-4.358633465,3.839006334,-62.92371315,-84.97583582,1.001429403,-61.01631536,-14.38723227,1.001780741,-0.1143980481,-13.79652906,151.8560034,
21920000,-4.613047382,-4.480833955,3.853895282,-56.92493308,10.06295461,1.002853662,-57.4383649,168.6483644,1.002689648,-0.1013266801,-14.37174271,171.445233,
22026666,-4.612340427,-4.623150689,3.854459107,-56.69102078,87.26581025,1.00293167,-60.41308442,166.4662492,1.00190893,-0.1160460322,-14.84237945,149.6995404,
22133333,-4.630496974,-4.879062767,3.840034387,-58.99658127,131.2881863,1.002247443,-63.91310376,104.3369327,1.001275415,-0.1089496197,-15.4102115,159.4499098,
22240000,-4.613386128,-4.927558983,3.853625182,-71.30861916,-170.8765156,1.000544148,-56.81976828,142.5933717,1.002888473,-0.1040278114,-16.11124663,166.9936789,
22346666,-4.611450229,-5.072261084,3.855169327,-59.44522064,-113.8876148,1.002134185,-65.07056353,52.54523925,1.001116205,-0.1039584783,-16.60882244,167.1050494,
22453333,-4.609460593,-5.271971834,3.856757718,-65.26802501,-81.12146957,1.001091103,-82.56226138,166.7652751,1.000148919,-0.1207423771,-17.03247872,143.8770664,
22560000,-4.60787612,-5.47886159,3.858023658,-70.22668843,-15.93077138,1.000616353,-63.36878952,-26.66624577,1.001357955,-0.1273663059,-17.77116401,136.3947115,
22666666,-4.580262607,-5.560732942,3.880229844,-58.00165253,29.19387985,1.002520544,-60.63992945,104.8959007,1.001859675,-0.1280244748,-18.31539097,135.6935368,
22773333,-4.588934392,-5.685165937,3.87322673,-57.34779265,46.83341786,1.002717879,-54.60100901,-127.3416167,1.003730688,-0.131488953,-18.95450143,132.1184071,
22880000,-4.603143014,-5.882705655,3.86181056,-60.42499581,157.6182238,1.001906312,-51.2328659,-117.5167469,1.005502752,-0.1215082512,-19.37737395,142.9702297,
22986666,-4.58774478,-6.058991425,3.874185827,-62.8676505,170.7913062,1.001438665,-54.97433141,121.0301945,1.003573458,-0.1263446476,-20.02311072,137.497598,
23093333,-4.581887109,-6.174393709,3.878915873,-70.22655651,109.997636,1.000616362,-65.59018586,86.09066709,1.001051354,-0.1367188333,-20.55488117,127.064703,
23200000,-4.584072767,-6.230748819,3.877149517,-62.06443812,-155.2212782,1.001578159,-60.82808516,91.95210304,1.001819788,-0.1404896446,-21.24714017,123.6543664,
23306666,-4.586925311,-6.505421409,3.874846802,-68.61231406,156.1605517,1.000742293,-61.34244112,118.7249893,1.001715063,-0.1485182396,-21.81826094,116.9701618,
23413333,-4.582489813,-6.527105708,3.878428621,-63.75752517,133.3798667,1.001298481,-62.8340892,152.1237391,1.001444239,-0.1480181492,-22.38926421,117.3653351,
23520000,-4.572676565,-6.635904235,3.886378424,-67.5964904,-114.2140694,1.000834424,-68.6977932,-93.48558263,1.000735021,-0.1550119582,-22.9066948,112.0703238,
23626666,-4.579118786,-6.869843893,3.88115559,-67.2959476,46.1510377,1.000863814,-59.84112937,22.91788906,1.002038995,-0.1633161607,-23.50283315,106.3721495,
23733333,-4.552461314,-6.664075083,3.902865497,-49.12640566,176.7623351,1.007018286,-59.08822945,-178.7445459,1.002223828,-0.1595997673,-24.01602485,108.8489559,
23840000,-4.535676385,-7.098157499,3.916669111,-66.51430315,-143.1265838,1.000945192,-60.99713663,-150.7677176,1.001784681,-0.1592554002,-24.60391887,109.084313,
23946666,-4.559577706,-7.43624402,3.897044483,-60.40446945,160.4300056,1.001910827,-59.86227814,-66.15768187,1.002034031,-0.1702094839,-25.33639334,102.0644372,
24053333,-4.564872349,-7.572956302,3.892725654,-58.4991996,22.44556535,1.002380052,-61.28740963,-54.27685375,1.001725974,-0.1753671009,-25.85830139,99.06287602,
24160000,-4.560897815,-7.599578662,3.895966714,-56.88292453,177.0353767,1.002867517,-58.61132863,-23.79334369,1.002349489,-0.1756281181,-26.47272006,98.91565954,
24266666,-4.55629295,-7.804921606,3.899729013,-56.22174558,-19.14363921,1.003094669,-57.35206893,-173.3850569,1.00271654,-0.1827222265,-27.00358785,95.07557044,
24373333,-4.558744283,-7.949263217,3.89772524,-54.47214641,-36.37981486,1.003786554,-60.47413354,-79.79944286,1.001895548,-0.1982878916,-27.87926232,87.6126806,
24480000,-4.540407417,-8.032608247,3.912767834,-60.7074311,-142.200898,1.001845266,-59.30009663,36.31936595,1.002170182,-0.183028108,-28.3214277,94.9166893,
24586666,-4.547190533,-8.201373077,3.907188865,-65.57472563,-125.6035317,1.001053228,-64.8198825,-175.3648749,1.001148908,-0.1929358792,-29.00474948,90.042835,
24693333,-4.532608002,-8.296738905,3.919203796,-66.6915787,-65.63308319,1.000926088,-55.10792886,-92.66840003,1.003518819,-0.1938106801,-29.79421283,89.63644327,
24800000,-4.532366916,-8.346879904,3.919403097,-65.40328512,-32.37120998,1.001074234,-64.08445854,146.8453795,1.001250485,-0.2030797036,-30.39618592,85.54557797,
24906666,-4.544504684,-8.597722209,3.909395882,-60.6808691,-104.5880053,1.001850923,-65.5869451,13.08695222,1.001051746,-0.1958979582,-31.10935606,88.68145332,
25013333,-4.528828032,-8.739315469,3.922331127,-60.75076211,3.235486365,1.001836075,-60.74575305,-105.4993774,1.001837135,-0.2309759313,-31.89364756,75.21477608,
25120000,-4.52815991,-8.695062416,3.922884447,-61.55971916,163.4989208,1.001672658,-66.08737939,-95.33565222,1.000992834,-0.2144310741,-32.65726887,81.01746274,
25226666,-4.522013361,-9.01429415,3.927982702,-71.38332137,-93.58707143,1.000539487,-63.24862871,-69.52745905,1.001376884,-0.2308781108,-33.43146726,75.24663998,
25333333,-4.521944064,-9.116163523,3.928040261,-70.73498599,-17.70692994,1.000581309,-55.68789232,-131.4078902,1.003291164,-0.2479598383,-34.31283003,70.06360042,
25440000,-4.510004842,-9.24676487,3.937984167,-55.56366297,-39.42252386,1.003338653,-53.19117846,-133.3123514,1.004389582,-0.2661959923,-35.19627504,65.26446468,
25546666,-4.507373149,-9.309482631,3.940183288,-55.01585782,-141.6869218,1.003556384,-64.96957763,-137.4575033,1.001129266,-0.2824070039,-36.27116918,61.51869231,
25653333,-4.501915362,-9.526932948,3.944752356,-55.16260495,-116.2957442,1.0034967,-56.41650729,-95.26092634,1.003025946,-0.3126441472,-37.49022372,55.57006255,
25760000,-4.499755901,-9.674967841,3.946563311,-63.85009638,165.9744072,1.001284707,-61.30552459,-155.2378175,1.001722375,-0.3398549163,-38.88282627,51.12180125,
25866666,-4.473967728,-9.842181127,3.968327733,-53.1920981,-93.20452126,1.004389117,-57.9003336,-145.5413174,1.002550156,-0.4099454389,-40.61875168,42.38369838,
25973333,-4.505488629,-9.890813216,3.941759663,-52.6218554,-125.9257688,1.004687637,-54.15569561,-127.8860528,1.003927328,-0.5102970408,-42.75410431,34.05227597,
26080000,-4.493402598,-10.05094526,3.951901598,-50.37184257,-127.5214293,1.00607793,-51.02745265,-123.7624524,1.005634809,-0.7176938231,-45.88235523,24.21877009,
26186666,-4.488434991,-10.16757902,3.956086331,-47.69299334,-143.2674582,1.008282762,-48.41840936,-148.200882,1.007616585,-1.177236076,-50.57302295,14.77899305,
26293333,-4.483857425,-10.34371565,3.959950884,-44.74309428,-158.9455758,1.011651937,-44.29314305,-152.7065321,1.012275247,-2.717996363,-57.7893896,6.443460223,
26400000,-4.475511232,-10.47028284,3.96701785,-41.32733183,165.4196705,1.017314382,-41.10253395,165.2149404,1.017772375,-7.872209858,-43.77453243,2.355747344,
26506666,-4.468903328,-10.51952537,3.972632092,-41.2024993,119.0126347,1.01756722,-43.86023333,123.9850058,1.012906603,-3.394646812,-10.05715732,5.182376003,
26613333,-4.478979562,-10.75337156,3.964077845,-46.30451611,88.76089939,1.009725477,-44.87014093,106.269407,1.011481776,-1.205696188,-18.36629478,14.4312178,
26720000,-4.473191269,-10.86883296,3.968987019,-48.3656434,89.56573554,1.007663174,-46.78107481,81.00543323,1.009203866,-0.6333121715,-24.284701,27.44219276,
26826666,-4.471886551,-10.90632918,3.970095371,-49.09458089,78.33197742,1.007044138,-51.0958326,92.346633,1.0055905,-0.42683304,-27.88481509,40.70742735,
26933333,-4.461209268,-11.13275496,3.979190578,-48.1637892,81.52085573,1.007844053,-56.6777667,96.89134,1.002936154,-0.3185361804,-30.28342061,54.542395,
27040000,-4.451262346,-11.17705638,3.987703762,-58.36729255,72.17417267,1.002416517,-60.68800087,39.99476724,1.001849402,-0.2668239842,-32.02484635,65.11088354,
27146666,-4.45722206,-11.37746621,3.982598412,-53.81536567,71.39952174,1.004084583,-51.86084568,78.29109352,1.005117969,-0.2451043132,-33.56101404,70.87974825,
27253333,-4.442453586,-11.48267649,3.995275362,-53.80632595,41.34670514,1.004088845,-60.25442646,72.17201485,1.001944154,-0.2292620977,-34.80914497,75.77697312,
27360000,-4.440235558,-11.62041552,3.997186713,-53.50679861,29.42069809,1.004232609,-58.39945039,76.10699651,1.002407576,-0.1962957625,-35.90729952,88.50175069,
27466666,-4.437553528,-11.74060286,3.999500519,-56.4044691,81.64530698,1.003030149,-55.43670678,97.33694306,1.003387893,-0.1949472302,-36.89332117,89.11390272,
27573333,-4.453457752,-11.80879304,3.985821457,-56.26092898,89.50905917,1.003080718,-54.19106076,75.88916796,1.003911339,-0.1887732651,-37.76537679,92.02819603,
27680000,-4.431630575,-12.03620888,4.004620427,-53.19670264,63.91910595,1.004386785,-57.62841394,61.72900421,1.00263136,-0.1874952366,-38.59431342,92.65544097,
27786666,-4.430694373,-12.06200605,4.005430976,-53.7687868,88.96549082,1.004106591,-57.24187981,87.47160814,1.002751269,-0.1815203979,-39.27536152,95.70501014,
27893333,-4.433642335,-12.27818041,4.002879857,-56.03687649,75.52643956,1.003161347,-57.85219914,73.13373891,1.002564345,-0.1704937415,-40.05857575,101.89428,
28000000,-4.422330949,-12.37874307,4.012687461,-53.65128629,34.87190565,1.004162638,-73.20163671,25.61321954,1.000437566,-0.2044228173,-40.82339509,84.98357156,
28106666,-4.42220435,-12.61743871,4.01279752,-58.46647859,116.9127181,1.002389046,-58.43717953,88.47554072,1.002397128,-0.1696568873,-41.50973971,102.3968543,
28213333,-4.414960191,-12.61571705,4.019105947,-52.33392563,57.95072066,1.004846015,-61.10216145,85.51802586,1.001763212,-0.1751961403,-42.14205056,99.15953743,
28320000,-4.414509247,-12.77367448,4.019499342,-58.00576963,63.27390659,1.002519348,-59.14198312,55.37348946,1.002210093,-0.1662726996,-42.81258849,104.4808306,
28426666,-4.406466933,-12.82199116,4.026529109,-64.78573377,119.6219932,1.001153437,-58.8242474,40.74192761,1.002292531,-0.1564761592,-43.41318607,111.0216993,
28533333,-4.399553345,-13.05581288,4.032593242,-55.93350678,56.92396138,1.003199255,-59.21419363,108.3369721,1.002191775,-0.1672641195,-43.98876204,103.8615823,
28640000,-4.39516302,-13.08780597,4.036454254,-54.96512998,85.44755578,1.003577252,-58.10144633,74.08291449,1.002491715,-0.168616796,-44.61553773,103.0284363,
28746666,-4.396603458,-13.27761427,4.035186612,-59.31853953,93.92789209,1.002165574,-66.401306,-14.59337327,1.000957575,-0.1674249826,-45.29330505,103.7617975,
28853333,-4.397622582,-13.41188158,4.034290256,-53.34258784,98.56512189,1.004313564,-56.17541291,42.40004812,1.003111247,-0.1587448855,-45.84498521,109.4351025,
28960000,-4.395440575,-13.4328756,4.036209929,-57.75885952,89.22826805,1.002592087,-60.55971293,86.88939072,1.001876946,-0.163878416,-46.46029584,106.0072157,
29066666,-4.401724524,-13.69491465,4.030686735,-58.12612078,73.39889569,1.002484638,-61.57734341,13.07345653,1.001669264,-0.1632410564,-46.98415291,106.4210866,
29173333,-4.379676421,-13.73250128,4.050136862,-70.94769694,-23.20487865,1.000567242,-63.33009326,51.30814209,1.001364022,-0.1520335458,-47.61801626,114.2657215,
29280000,-4.372904156,-13.86531439,4.056151345,-63.95385256,66.46648428,1.001269442,-62.46331043,111.0242599,1.001507272,-0.1692063249,-48.05410921,102.6694992,
29386666,-4.378402399,-13.91885884,4.051266877,-57.18173859,95.35655433,1.002770411,-72.28947588,156.8918437,1.000486028,-0.1532212329,-48.61555097,113.3800415,
29493333,-4.372174481,-14.14543613,4.056800509,-58.58733162,59.34595945,1.002355997,-70.26003705,41.53350432,1.00061399,-0.1670115222,-49.17913106,104.0186585,
29600000,-4.377449061,-14.2750634,4.052112895,-63.349174,88.86228165,1.001361027,-56.73076328,88.1968583,1.002918267,-0.1769632578,-49.674776,98.1694188,
29706666,-4.351844892,-14.36927232,4.074976318,-56.10820555,22.37700052,1.003135451,-56.42770827,84.81239509,1.003022041,-0.1586989098,-50.18698435,109.4668045,
29813333,-4.365606645,-14.45120096,4.06265363,-57.11092507,60.03917845,1.002793122,-57.72979739,71.43612414,1.002600785,-0.1687770427,-50.73021629,102.9306213,
29920000,-4.358028725,-14.53039931,4.069429298,-58.72146389,80.31046322,1.002319852,-57.01643791,62.96042989,1.002823715,-0.1735755089,-51.1635828,100.0853029,
30026666,-4.356361137,-14.64179338,4.070923574,-53.76159283,71.3192101,1.004110001,-65.54537597,64.90965321,1.001056795,-0.1709342663,-51.6876141,101.6316991,
30133333,-4.361261279,-14.74215531,4.066536025,-65.59497734,-109.4942582,1.001050774,-71.22389247,85.05525745,1.000549484,-0.183040389,-52.38328091,94.91032138,
30240000,-4.377461675,-14.79023576,4.052101698,-61.35398117,41.18532269,1.001712784,-63.76804258,45.23519772,1.001296909,-0.1905098466,-52.75867383,91.18938468,
30346666,-4.36801834,-14.9353087,4.060502289,-63.35440005,-40.55623958,1.001360208,-67.14880917,114.4616421,1.000878578,-0.1870247219,-53.24399507,92.88852439,
30453333,-4.373371024,-15.07349419,4.055736107,-65.75159736,38.43911343,1.001031987,-59.21221202,50.64440058,1.002192276,-0.196885641,-53.79296123,88.23661793,
30560000,-4.367192679,-15.12726412,4.061238543,-67.14567142,50.55870697,1.000878895,-68.01300453,134.5204364,1.000795339,-0.1939352743,-54.41074471,89.57886087,
30666666,-4.39794722,-14.78170725,4.034004813,-46.25295717,175.1525538,1.009783662,-44.18293628,100.2405062,1.012432962,-0.3533438861,-52.56825085,49.17072455,
30773333,-4.376449536,-15.34791464,4.053000304,-60.6891374,82.84037685,1.00184916,-62.78871144,35.53702619,1.001451809,-0.1912406354,-55.41259349,90.84095021,
30880000,-4.356764293,-15.52952141,4.070562211,-60.80583589,22.03244372,1.001824459,-77.03650492,102.85489,1.000281362,-0.1964845397,-56.00705365,88.41672774,
30986666,-4.350881921,-15.65817916,4.07584157,-57.24573385,42.08518816,1.002750047,-60.73902765,88.45950145,1.001838559,-0.1775188353,-56.55100241,97.86220106,
31093333,-4.350777868,-15.78720984,4.075935088,-58.86347558,103.3121751,1.002282188,-69.26833446,42.16675952,1.000688276,-0.1766190204,-56.98716155,98.36074164,
31200000,-4.333723007,-16.37579509,4.091325077,-40.09925834,-142.5563908,1.019970183,-41.452515,-54.75928961,1.017064519,0.3600948285,-56.57987229,nan,
31306666,-4.326432156,-16.03719327,4.097941995,-61.45561742,17.20304297,1.001692843,-60.07689998,43.71301682,1.001984338,-0.1697925876,-58.12269659,102.3150227,
31413333,-4.3237179,-16.12738892,4.100411176,-65.26921354,11.10437428,1.001090953,-56.44382032,34.30603639,1.003016432,-0.161230088,-58.70498522,107.7483632,
31520000,-4.299838966,-16.2782045,4.122271148,-61.78478703,-29.69687058,1.001629838,-64.68366809,36.81380861,1.001167078,-0.1644663266,-59.2606968,105.6282989,
31626666,-4.315756802,-16.42894382,4.107671733,-63.43313158,25.53993116,1.001347926,-66.08893693,123.3032828,1.000992656,-0.176021127,-59.77573082,98.69482193,
31733333,-4.312955598,-16.54502392,4.11023295,-60.56446164,68.46170661,1.001875919,-58.45153799,10.96100629,1.002393164,-0.1602956291,-60.27476707,108.3764567,
31840000,-4.300944199,-16.56930662,4.121253895,-58.74072637,38.47291473,1.002314707,-56.83765692,70.07313202,1.002882522,-0.15269888,-61.05554106,113.7678723,
31946666,-4.305450469,-16.7758877,4.117111855,-55.10707348,58.99111468,1.003519167,-65.43442355,76.47696114,1.001070388,-0.1401827471,-61.26968435,123.9250672,
32053333,-4.309640527,-16.81553183,4.113268399,-54.02536877,18.85811422,1.003986818,-60.2854149,52.50969917,1.001937223,-0.1487369766,-61.95841027,116.7981504,
32160000,-4.301533072,-16.96424793,4.120712116,-54.76857404,46.16761749,1.003659276,-59.8324801,85.77987434,1.002041028,-0.1332959437,-62.35074238,130.3274483,
32266666,-4.304722582,-17.08350137,4.11778031,-54.61771975,60.69193411,1.003723504,-56.80600593,80.4420282,1.00289306,-0.1380515925,-62.87773482,125.8380628,
32373333,-4.292243165,-17.186974,4.129276757,-58.39958926,-25.30168867,1.002407537,-62.73961076,54.66966684,1.001460045,-0.1266583176,-63.53262137,137.1570966,
32480000,-4.293762259,-17.32667348,4.127873673,-58.9130433,74.31569691,1.002269187,-62.37716223,46.33458362,1.001522307,-0.1315546387,-63.89665466,132.0524424,
32586666,-4.29434736,-17.45917423,4.127333526,-60.98185961,61.34039643,1.001787825,-70.14169933,38.22296396,1.000622415,-0.1406489138,-64.34212559,123.5143478,
32693333,-4.284461595,-17.50635999,4.136479983,-55.87606199,37.83082871,1.003220517,-61.44475232,14.46776593,1.001694963,-0.136232069,-64.99103359,127.518693,
32800000,-4.288035452,-17.67065499,4.133168432,-64.46151966,9.737207356,1.00119733,-57.37694251,-6.000726244,1.002708761,-0.1434118902,-65.36422818,121.1348229,
32906666,-4.285325743,-17.69611677,4.135678744,-57.37256351,37.81516577,1.002710129,-61.51213554,-72.85053572,1.001681854,-0.1330094265,-65.82388118,130.6081772,
33013333,-4.280604764,-17.76165678,4.14006007,-60.51827143,136.5830817,1.001885931,-60.65844697,38.95334675,1.001855711,-0.1414741311,-66.43899064,122.7939213,
