Frequency,S11_Magnitude,S11_Phase,S11_VSWR,S12_Magnitude,S12_Phase,S12_VSWR,S21_Magnitude,S21_Phase,S21_VSWR,S22_Magnitude,S22_Phase,S22_VSWR,
20000000,-4.673694231,-2.171401608,3.806176821,-48.38367846,60.85030897,1.007647218,-56.95526828,32.08827314,1.002843699,-0.108057802,-3.830362143,160.7658402,
20106666,-4.693245766,-1.954391382,3.791062289,-68.86974853,148.2548171,1.000720608,-60.4530453,7.417655842,1.00190016,-0.1296527796,-4.481967636,133.9894283,
20213333,-4.688870657,-2.167647066,3.794433305,-73.99002052,106.7788114,1.000399591,-71.37521933,-27.72419043,1.000539991,-0.1111060359,-5.043171202,156.3552871,
20320000,-4.694211541,-2.281735126,3.790319028,-59.31191096,156.9031258,1.002167229,-55.96532785,146.1189963,1.003187537,-0.1227405037,-5.668016064,141.5349279,
20426666,-4.675952005,-2.562334552,3.804424813,-60.46322136,119.7819457,1.001897933,-66.12892525,75.66196913,1.000988094,-0.1289115034,-6.255277841,134.7598755,
20533333,-4.678990898,-2.565556334,3.802069398,-58.49594224,-67.14601088,1.002380946,-58.82440821,105.1422847,1.002292488,-0.1273447332,-6.843817658,136.4178165,
20640000,-4.678473025,-2.761412832,3.802470575,-86.52132847,-99.23271655,1.000094403,-59.59595145,-76.68860199,1.002097431,-0.125036438,-7.420525478,138.9361336,
20746666,-4.685654103,-2.912730332,3.796915768,-56.61118319,17.04572178,1.002958781,-56.54392001,84.74286267,1.002981817,-0.1343229405,-8.000597111,129.3310392,
20853333,-4.671660439,-3.006295365,3.807756507,-78.1799447,-177.2054869,1.000246653,-62.10562929,35.39610776,1.001570686,-0.1265087792,-8.579472083,137.319216,
20960000,-4.668291187,-3.207908719,3.810376571,-56.42667418,-30.94310027,1.003022401,-57.06773549,12.38128287,1.002807064,-0.1346162149,-9.167888813,129.0492903,
21066666,-4.670947746,-3.412292433,3.808310403,-69.76431625,106.9086764,1.000650063,-58.75828613,57.98588078,1.002310027,-0.1355333178,-9.677949183,128.1760975,
21173333,-4.661422056,-3.551303041,3.815730294,-62.99090861,-165.3411024,1.00141838,-55.98046334,-47.07821666,1.003181978,-0.1301437598,-10.24347262,133.4839588,
21280000,-4.662161844,-3.766984507,3.815152936,-58.78919723,46.97565665,1.002301811,-64.60152788,47.56118862,1.001178174,-0.143836782,-10.90952756,120.7770086,
21386666,-4.655894867,-3.907206734,3.820049867,-59.84098272,30.34615616,1.002039029,-61.81376072,80.23169972,1.001624406,-0.1468944701,-11.46199584,118.2630858,
21493333,-4.660908162,-3.989237987,3.816131467,-61.90055438,-2.243067171,1.001608242,-61.99693541,106.0496657,1.001590481,-0.1449610324,-11.981051,119.8403613,
21600000,-4.661700685,-4.181012362,3.815512819,-55.20165527,67.52072279,1.003480987,-56.41649472,79.0606703,1.003025951,-0.1560077739,-12.56326942,111.355004,
21706666,-4.654380123,-4.373417178,3.821235493,-68.48566764,-21.44563734,1.0007532,-64.00425812,-62.5530994,1.001262092,-0.1601919415,-13.16477462,108.4466017,
21813333,-4.638377603,-4.523186002,3.833809483,-64.93281656,-91.62990922,1.001134058,-53.15540481,9.127095117,1.004407739,-0.1782499757,-13.73649348,97.46082079,
21920000,-4.627073967,-4.555826398,3.84274498,-58.43932547,-46.98129087,1.002396535,-62.74675362,68.41300295,1.001458844,-0.1606478932,-14.30020816,108.1388254,
22026666,-4.631885826,-4.893243045,3.83893576,-68.34118873,-22.20102589,1.000765838,-65.67197528,142.8311832,1.001041495,-0.1721089464,-14.75603626,100.9380861,
22133333,-4.644623439,-4.795833455,3.82889126,-66.39102686,83.32069416,1.000958709,-56.78375805,91.68134108,1.002900491,-0.1795787364,-15.34889184,96.73972772,
22240000,-4.638846197,-5.056459569,3.833440022,-59.84578627,169.6319997,1.002037901,-57.92941575,157.9851379,1.002541621,-0.1804360322,-15.95246724,96.28012637,
22346666,-4.628036663,-5.278301715,3.841982231,-62.47125398,-119.3968718,1.001505893,-69.12921392,-64.84856809,1.000699393,-0.1861963733,-16.42468732,93.30173408,
22453333,-4.626662055,-5.470825329,3.843071439,-71.77394672,-68.96321902,1.000515756,-64.1153456,157.490362,1.001246044,-0.1962364899,-16.98109058,88.52848007,
22560000,-4.628208399,-5.48400544,3.841846197,-65.64555499,3.173506305,1.00104467,-61.93077936,32.42764095,1.001602651,-0.207215282,-17.69140373,83.83842641,
22666666,-4.62987604,-5.614789258,3.840525784,-66.23916712,58.89378459,1.000975626,-55.57208364,72.43642842,1.003335412,-0.2034597941,-18.18314844,85.38578177,
22773333,-4.615176417,-5.785358758,3.852198361,-62.73093707,90.39058267,1.001461505,-61.17528711,-162.8164541,1.001748417,-0.2206616819,-18.68486486,78.73008769,
22880000,-4.609366909,-5.95098956,3.856832543,-59.98774609,-174.4176059,1.002004831,-54.46959865,-97.00719324,1.003787667,-0.2160508711,-19.31255222,80.41011289,
22986666,-4.604434998,-6.154934776,3.860776069,-65.16427297,167.2950532,1.001104221,-60.9368087,126.1419452,1.001797131,-0.2247805542,-19.84735538,77.28759649,
23093333,-4.60924134,-6.181519126,3.85693284,-67.20034701,-131.6656332,1.000873378,-56.31491496,101.6044026,1.003061601,-0.2301192957,-20.48557657,75.49473555,
23200000,-4.61063048,-6.376055906,3.855823589,-61.04252369,-131.5507836,1.001775371,-59.67925752,57.54252208,1.00207739,-0.2353381207,-21.04250118,73.82077298,
23306666,-4.599769217,-6.542136656,3.864514764,-62.9865473,-32.06934701,1.001419092,-63.34201299,134.1460846,1.00136215,-0.2419481995,-21.59561311,71.80422319,
23413333,-4.612456638,-6.693576862,3.854366412,-73.23338433,101.3101267,1.000435969,-56.72014842,124.5905972,1.002921841,-0.2522794792,-22.18845873,68.8641048,
23520000,-4.597300665,-6.916680476,3.866495959,-64.7913423,30.84629528,1.001152692,-61.13731953,-136.0461361,1.001756084,-0.2515206497,-22.61946043,69.07183636,
23626666,-4.589172355,-7.046160766,3.873034939,-63.46533841,134.1259502,1.001342934,-58.74621129,69.25433213,1.002313244,-0.2672137487,-23.27717237,65.01592616,
23733333,-4.578306682,-6.744365037,3.88181315,-53.3709262,-153.2096909,1.004299484,-64.31732311,-155.6175465,1.001217385,-0.2652701973,-23.84092787,65.49220257,
23840000,-4.548989435,-7.118157725,3.90571216,-60.3004028,-160.0145804,1.00193388,-63.83785192,-154.5254753,1.00128652,-0.2789087686,-24.42655369,62.2901603,
23946666,-4.566837099,-7.598356353,3.891125617,-58.20634015,-15.63677969,1.002461769,-60.34383631,-131.8505246,1.001924225,-0.2720608639,-25.14151747,63.85776793,
24053333,-4.573586426,-7.623540301,3.885639869,-61.96008311,-31.02208272,1.001597249,-66.22617598,-61.8624991,1.000977087,-0.2866606791,-25.63954438,60.60599618,
24160000,-4.568563856,-7.71313975,3.889720558,-55.32425451,-132.1405781,1.003432116,-62.06009238,-78.2557375,1.001578949,-0.2861565321,-26.22307949,60.7127517,
24266666,-4.560556157,-7.929350499,3.89624559,-70.84775702,-173.5131942,1.000573808,-58.70547713,102.1282477,1.002324131,-0.3014168321,-26.75172006,57.63952334,
24373333,-4.57030129,-7.995411172,3.888307907,-55.27569512,-37.77434729,1.00345139,-56.37669552,-46.57048517,1.003039869,-0.3013303871,-27.47671479,57.65605553,
24480000,-4.554154825,-8.114094918,3.901478564,-66.98941148,-105.1453332,1.000894857,-60.47392591,13.33236661,1.001895593,-0.2940614126,-28.15062688,59.08098698,
24586666,-4.562405831,-8.230321724,3.894736312,-70.44480864,38.58243021,1.000601063,-61.13369353,-133.3057732,1.001756817,-0.3011690144,-28.7608758,57.68694266,
24693333,-4.554959708,-8.323103177,3.90081976,-70.31301689,-37.17401592,1.000610255,-55.43271601,-37.45916567,1.003389453,-0.3101216184,-29.48353159,56.02197216,
24800000,-4.547286627,-8.493957476,3.907109952,-58.08517276,-96.84199779,1.002496394,-70.10053174,-126.664204,1.000625373,-0.3220688548,-30.18718696,53.94427102,
24906666,-4.550348655,-8.615545364,3.90459718,-54.30591085,-109.0697356,1.003859862,-70.99666462,25.56257352,1.000564052,-0.3102580632,-30.83079184,55.99734014,
25013333,-4.538566279,-8.747906055,3.914285075,-63.75445071,-149.5756891,1.001298941,-56.99042798,-84.80499564,1.002832195,-0.336044627,-31.69483809,51.70130594,
25120000,-4.540023743,-8.839567151,3.913083908,-58.66246559,175.5542618,1.002335681,-64.83896624,-46.37328153,1.001146385,-0.324813972,-32.39001063,53.48847391,
25226666,-4.534018036,-9.087037593,3.91803858,-61.86188966,-34.38447738,1.001615423,-57.6518748,-68.16673734,1.002624253,-0.3270585449,-33.16760152,53.12147324,
25333333,-4.528967248,-9.094738422,3.922215852,-60.57458096,-136.0996908,1.001873733,-53.80286228,-106.0068184,1.004090479,-0.3415210874,-34.14286308,50.87245827,
25440000,-4.524876961,-9.313986345,3.925605727,-62.84081665,-75.45174198,1.00144312,-56.42284845,-105.0165319,1.003023735,-0.343554881,-35.03108771,50.57137873,
25546666,-4.516718254,-9.391745618,3.932386105,-54.34495679,-153.4681023,1.003842517,-61.9243734,-94.36461634,1.001603834,-0.3757715737,-36.21176331,46.23683606,
25653333,-4.509652552,-9.575143971,3.938278398,-52.56366635,-127.1106227,1.00471922,-51.43403636,-96.95429885,1.005376431,-0.4004049376,-37.6601505,43.39320989,
25760000,-4.510725666,-9.728346331,3.937382282,-61.89062446,-128.0455031,1.001610083,-62.35070258,-154.8547584,1.001526955,-0.4405220049,-39.21966493,39.44298487,
25866666,-4.500544642,-9.873219651,3.945901655,-59.91572626,-107.5414221,1.00202154,-53.2781799,-114.5122193,1.004345739,-0.5526595048,-41.19390222,31.44366365,
25973333,-4.502420711,-10.00737335,3.94432882,-50.17418002,-138.0801736,1.006218264,-50.63427019,-130.490521,1.00589651,-0.762527201,-43.65587282,22.79647829,
26080000,-4.499746374,-10.0875472,3.946571304,-45.8740955,-156.6334455,1.01022208,-47.9577745,-139.4679041,1.008033081,-1.251100644,-46.40321214,13.90919538,
26186666,-4.492106479,-10.18723301,3.952992542,-44.12114236,-179.1887331,1.012522285,-45.697228,-175.4698202,1.010433459,-2.222855997,-47.24060894,7.857677966,
26293333,-4.493448389,-10.46293349,3.951863067,-45.50414921,157.2396503,1.010669232,-44.88562742,162.5280436,1.011461205,-3.168970604,-40.95479364,5.542509072,
26400000,-4.48484127,-10.50784714,3.959119605,-45.28122172,136.7360353,1.010948126,-46.85640121,127.3674016,1.00912403,-2.840345979,-33.51851789,6.170482873,
26506666,-4.476511438,-10.64973757,3.966169526,-46.33343481,125.7838893,1.009692995,-48.63877457,118.2310476,1.007425071,-2.17402144,-31.27949076,8.032292121,
26613333,-4.484747622,-10.77898994,3.959198715,-50.15578014,98.02614944,1.006231492,-49.77330826,111.5613169,1.006512932,-1.684838449,-31.38805938,10.34295861,
26720000,-4.466518998,-10.81594598,3.974662047,-49.83222285,95.15621618,1.006468763,-50.57918959,90.23886842,1.005934132,-1.407963184,-32.32429895,12.3652385,
26826666,-4.472547075,-10.97309806,3.969534176,-51.31177926,88.75236323,1.005452849,-52.3902956,107.1195687,1.004814591,-1.2322544,-33.36565043,14.12119597,
26933333,-4.459723717,-11.17673866,3.980459538,-49.2326227,78.03947674,1.006932688,-54.99050449,96.73832711,1.003566799,-1.114419705,-34.37971027,15.60956173,
27040000,-4.451072359,-11.25841084,3.987866743,-53.22144654,80.72136795,1.004374279,-56.69184303,108.6940555,1.002931392,-1.023098531,-35.24963053,16.99920291,
27146666,-4.462186845,-11.38362484,3.978356,-54.32287207,98.74138093,1.003852318,-52.50617245,94.2481268,1.004750636,-0.9785752377,-36.17132784,17.77088724,
27253333,-4.451136221,-11.57907495,3.987811957,-53.33868523,66.27657558,1.004315507,-55.53478103,107.9857588,1.003349791,-0.9266735049,-36.9265197,18.76416389,
27360000,-4.451964716,-11.72150823,3.987101355,-54.39707257,38.1485429,1.003819486,-61.2678703,79.84570726,1.001729864,-0.8783867238,-37.73661978,19.79376646,
27466666,-4.46091398,-11.85781154,3.979442745,-58.46159868,23.51459505,1.00239039,-54.16878921,117.2829497,1.003921401,-0.8651983975,-38.55555041,20.09497548,
27573333,-4.452422491,-11.88208449,3.986708836,-54.03333221,73.87196108,1.003983157,-51.22377456,101.8454334,1.005508531,-0.8541659655,-39.12566815,20.35409678,
27680000,-4.442225284,-12.09234277,3.995472008,-52.64462668,72.00958801,1.004675335,-55.68192071,104.7663783,1.003293431,-0.833750149,-39.80632352,20.85170927,
27786666,-4.438503304,-12.20803195,3.998680814,-53.30843183,80.68915078,1.004330597,-54.23655565,94.17615318,1.003890866,-0.8230168372,-40.43551706,21.12323079,
27893333,-4.431692785,-12.30294824,4.004566578,-51.94211164,76.40046438,1.005070187,-54.84300992,56.45052094,1.003627994,-0.8130505326,-41.01475226,21.38177286,
28000000,-4.420281028,-12.40306011,4.014470346,-60.68280041,75.25611393,1.001850511,-59.50896184,52.04787723,1.002118565,-0.8400950843,-41.77650889,20.69446632,
28106666,-4.421810457,-12.68036221,4.013139991,-58.94347482,84.20037527,1.002261242,-54.6684178,85.52976877,1.003701794,-0.8199257985,-42.39597972,21.20274446,
28213333,-4.419220312,-12.68392492,4.015393549,-55.09363517,72.26293509,1.003524625,-61.97283253,105.4942566,1.001594904,-0.8131606082,-42.97478147,21.37888268,
28320000,-4.420228792,-12.83005312,4.014515799,-55.61930626,74.85674958,1.003317298,-60.36534837,63.81712737,1.001919461,-0.8063956062,-43.58627523,21.55797346,
28426666,-4.399172127,-12.90974779,4.032928187,-62.51738634,77.01119037,1.00149791,-53.70256361,42.08447372,1.004138086,-0.8100510736,-44.19440252,21.46083005,
28533333,-4.403187541,-12.97969369,4.029403145,-52.37220937,86.46951129,1.004824651,-56.52830575,68.46578685,1.00298719,-0.821968507,-44.7989578,21.15013089,
28640000,-4.394820893,-13.20355058,4.036755464,-54.35928254,103.8866521,1.003836172,-54.10918956,68.85394002,1.003948454,-0.8218068535,-45.33676028,21.15428503,
28746666,-4.399229129,-13.3491548,4.0328781,-57.11822454,99.27832646,1.002790772,-65.54465657,58.66444317,1.001056882,-0.817386051,-45.88836664,21.26852714,
28853333,-4.398091943,-13.39317059,4.033877579,-53.67229495,96.76458873,1.004152561,-57.3992886,85.02858058,1.002701792,-0.8242099615,-46.5459003,21.09269859,
28960000,-4.38769742,-13.52148172,4.043037894,-64.21512867,104.1518083,1.001231802,-59.93182248,52.90450892,1.002017794,-0.8173775528,-47.07836185,21.26874794,
29066666,-4.395053311,-13.74915594,4.036550837,-59.30984224,80.12705183,1.002167746,-60.15829531,42.01773095,1.001965812,-0.8265635276,-47.61741762,21.03272917,
29173333,-4.382352326,-13.75170059,4.047765608,-62.79401577,46.15495957,1.001450922,-57.21224957,81.94810122,1.002760683,-0.8276822029,-48.22675684,21.00434473,
29280000,-4.384026434,-13.97536125,4.0462836,-60.30987152,88.59583732,1.001931771,-60.47167896,73.26629859,1.001896084,-0.8411724971,-48.63394912,20.6680012,
29386666,-4.382049639,-14.02445698,4.048033686,-56.91566241,84.44709897,1.002856714,-63.74842468,42.95005864,1.001299843,-0.826892443,-49.19693971,21.02437554,
29493333,-4.378727379,-14.14063256,4.050978566,-58.92609353,77.59024273,1.002265776,-55.5427454,36.06973458,1.003346716,-0.852484193,-49.78355474,20.39418656,
29600000,-4.372649622,-14.31729429,4.056377769,-56.70406771,86.99230564,1.002927263,-57.51256575,35.34685587,1.002666738,-0.8646793859,-50.15877615,20.10701729,
29706666,-4.361756284,-14.41338076,4.066093361,-58.99258337,41.53046656,1.002248479,-56.48972772,51.05407871,1.003000507,-0.8657593945,-50.81090457,20.08197581,
29813333,-4.367051337,-14.54816498,4.061364607,-55.37966902,63.48864066,1.003410252,-62.36673468,52.35114137,1.001524137,-0.8724778049,-51.25072791,19.92759371,
29920000,-4.361235772,-14.60720243,4.066558838,-54.70230674,93.85060197,1.003687352,-57.83624829,65.49058467,1.002569065,-0.8920527276,-51.7311718,19.49105162,
30026666,-4.355577449,-14.72609391,4.071626218,-53.7255702,91.08281933,1.004127117,-70.36747182,68.75057852,1.00060644,-0.9028929025,-52.26033267,19.2574545,
30133333,-4.348587137,-14.79412892,4.077905065,-61.26942794,-134.5920881,1.001729554,-62.03758555,-3.178139384,1.001583049,-0.9104267086,-53.0087758,19.09838635,
30240000,-4.37961622,-14.88110216,4.050190243,-58.27706281,40.29241242,1.002441781,-58.95490941,53.05049489,1.002258264,-0.9274613675,-53.29163143,18.74825427,
30346666,-4.36829214,-14.95033481,4.0602582,-79.66345276,-173.7217324,1.000207923,-63.75224493,129.30113,1.001299271,-0.9357823953,-53.81714539,18.58186157,
30453333,-4.368449103,-15.09131553,4.060118284,-61.58605381,57.83127587,1.00166759,-59.74895462,35.1535108,1.00206077,-0.9479072071,-54.3465873,18.34464056,
30560000,-4.363298959,-15.16852411,4.064714464,-60.68366169,95.30736062,1.001850327,-58.48983346,79.06201541,1.002382623,-0.9549697623,-54.9833964,18.20924123,
30666666,-4.452790803,-14.55679907,3.986393088,-50.5143857,-16.05816121,1.005978704,-48.43216143,-119.4284066,1.00760449,-1.134817141,-52.363965,15.32976758,
30773333,-4.366470053,-15.40612758,4.061883152,-60.06965053,89.0078027,1.001985997,-66.74397822,59.33102748,1.000920515,-0.969800237,-55.99064152,17.93134464,
30880000,-4.354195569,-15.4911469,4.07286582,-60.24093159,66.9212365,1.00194718,-67.95625006,-21.06056783,1.000800555,-0.9804719896,-56.5738316,17.73658162,
30986666,-4.356612316,-15.69081636,4.070698426,-57.34290215,61.22921116,1.002719412,-71.88611557,70.69563683,1.000509137,-0.9705870536,-57.15187185,17.91683857,
31093333,-4.344567284,-15.81170142,4.081525125,-65.74564124,62.31706573,1.001032695,-63.47192231,58.15235019,1.001341916,-0.981640036,-57.58451187,17.71552177,
31200000,-4.501988778,-15.66608805,3.944690821,-52.86238922,100.7715123,1.004559313,-50.35522811,37.77418227,1.006089602,-0.7996632953,-56.11940417,21.73920919,
31306666,-4.330169732,-16.06370802,4.094547063,-73.13984043,-74.57249875,1.00044069,-66.5030868,50.14018652,1.000946414,-0.9923804212,-58.81324466,17.52419909,
31413333,-4.318023829,-16.25241951,4.105601412,-66.76623997,99.945582,1.000918158,-62.89194434,37.25302785,1.001434644,-0.9986053919,-59.32731521,17.41519716,
31520000,-4.31109842,-16.39235669,4.11193289,-60.63307018,-12.56215401,1.001861146,-61.24823388,12.30614789,1.001733783,-1.005132601,-59.84932863,17.30235455,
31626666,-4.314620899,-16.47694751,4.108709911,-63.8879305,33.37262512,1.00127912,-60.32749193,101.2960703,1.001927853,-1.028752093,-60.39623942,16.90599915,
31733333,-4.31211568,-16.60976079,4.111001571,-56.68571942,72.59003085,1.002933463,-55.77136901,83.71379285,1.003259634,-1.021659287,-60.98495684,17.02309497,
31840000,-4.303717642,-16.69821627,4.118703575,-63.61922739,42.06945972,1.001319335,-62.26871173,77.54749517,1.001541448,-1.022723808,-61.61209325,17.00541699,
31946666,-4.305993857,-16.90068303,4.116612986,-60.79438724,50.11263789,1.001826868,-62.32806042,11.92970982,1.001530944,-1.026580429,-61.91981142,16.9416793,
32053333,-4.310314468,-16.90723455,4.112650918,-57.30553781,40.87712327,1.002731151,-70.80769312,13.77826523,1.000576462,-1.046076616,-62.66679791,16.62667069,
32160000,-4.297761394,-17.08646061,4.124184783,-56.32986229,55.65545979,1.003056329,-60.24246582,99.08440103,1.001946835,-1.032768063,-63.10673187,16.84041307,
32266666,-4.304625006,-17.1811945,4.117869936,-59.47833848,46.10850028,1.002126055,-56.73492823,92.04618891,1.002916866,-1.056170583,-63.67694173,16.46815264,
32373333,-4.300343542,-17.3010734,4.121806671,-62.63977349,65.23441226,1.001476937,-60.50562779,21.73356531,1.001888681,-1.052420114,-64.27527093,16.52669546,
32480000,-4.29574288,-17.35250964,4.126045828,-58.98950744,60.34794772,1.002249276,-64.04782193,67.28983602,1.001255774,-1.063966956,-64.66532396,16.34777781,
32586666,-4.292651027,-17.54214325,4.128899944,-57.49661773,75.27520377,1.002671646,-58.858946,42.8473655,1.00228338,-1.084952434,-65.1043919,16.0323713,
32693333,-4.283943858,-17.62012726,4.136960189,-62.43761527,62.65424634,1.001511741,-55.51367646,48.13863728,1.003357954,-1.091324637,-65.63740178,15.93900259,
32800000,-4.288758147,-17.694514,4.132499464,-57.79579293,40.98251105,1.002581074,-60.16967736,-24.81763943,1.001963235,-1.115284101,-66.0960315,15.59749675,
32906666,-4.288320691,-17.77843294,4.132904371,-57.85548419,47.10363194,1.002563374,-82.16429081,-56.16263447,1.000155901,-1.109521691,-66.66586291,15.67828228,
33013333,-4.28427449,-17.85549216,4.136653512,-61.1797427,89.54124101,1.00174752,-66.65867203,55.8372202,1.000929604,-1.137662528,-67.20479865,15.29153558,
