Frequency,S11_Magnitude,S11_Magnitude (linear),S11_Phase,S11_Real,S11_Imaginary,S11_Quality Factor,S11_Group delay,
30000000,-0.8194527052,0.9099706078,-116.2156781,-0.4019807511,-0.8163687786,-2.030865349,3.037115424e-08,
30088888,-0.7521769649,0.9170460652,-117.5557564,-0.4242361235,-0.8130173413,-1.916426481,3.037115424e-08,
30177777,-0.7432535552,0.9179886724,-118.4284122,-0.4370180143,-0.8072908137,-1.847271251,3.037115424e-08,
30266666,-0.7331466827,0.9190574627,-119.3026889,-0.4498082069,-0.8014606645,-1.781783107,2.748178294e-08,
30355555,-0.7258305498,0.9198319118,-120.2016026,-0.462716036,-0.7949746009,-1.718061487,2.779815629e-08,
30444444,-0.715379802,0.9209393075,-121.0662519,-0.4752312842,-0.788850071,-1.659928749,2.773369706e-08,
30533333,-0.7105372534,0.9214528918,-121.9943412,-0.4882184578,-0.7814845931,-1.600686292,2.764936707e-08,
30622222,-0.7017612888,0.9223843709,-122.8437166,-0.5002546142,-0.7749440294,-1.549099213,3.970126295e-08,
30711111,-0.6945625083,0.9231491509,-123.7367746,-0.5126969988,-0.7676888317,-1.497353863,3.373497562e-08,
30800000,-1.662054585,0.8258425793,-126.5472453,-0.4917772261,-0.6634539363,-1.34909447,2.825022432e-08,
30888888,-0.6806497503,0.9246290042,-125.5401797,-0.537462547,-0.7523781004,-1.399870753,2.174249141e-08,
30977777,-0.6716077579,0.9255920422,-126.4620556,-0.5500703709,-0.7444079632,-1.353295874,1.636419781e-08,
31066666,-0.7336422494,0.9190050281,-127.2581332,-0.5563720547,-0.7314508722,-1.314679388,2.891466896e-08,
31155555,-0.6633591002,0.9264714591,-128.3065435,-0.5742906154,-0.7270073271,-1.265922353,2.94544505e-08,
31244444,-0.6562704027,0.9272278764,-129.2442886,-0.5865904396,-0.7180969231,-1.224187908,3.005859759e-08,
31333333,-0.650559866,0.9278376826,-130.1816959,-0.5986535349,-0.7088700236,-1.184107305,2.949566975e-08,
31422222,-0.644756172,0.9284578477,-131.1299386,-0.6107107101,-0.6993328274,-1.145113088,2.243365847e-08,
31511111,-0.6387733142,0.9290975916,-132.0830315,-0.6226875691,-0.6895524098,-1.107381043,2.611151036e-08,
31600000,-0.7391393843,0.9184235913,-131.8830107,-0.6131504479,-0.6837751248,-1.115183275,2.974166055e-08,
31688888,-0.6299032324,0.9300468761,-133.9830067,-0.6458663956,-0.66921132,-1.036145129,3.342993507e-08,
31777777,-0.6262959325,0.9304332102,-134.9386227,-0.6572104717,-0.6586200381,-1.002144772,3.719111767e-08,
31866666,-0.6257659166,0.9304899873,-135.9039616,-0.6682541011,-0.6474936855,-0.9689333509,3.011672339e-08,
31955555,-0.6228159186,0.9308060642,-136.8731195,-0.6793410206,-0.6363141574,-0.9366638228,3.023700118e-08,
32044444,-0.6200505,0.931102462,-137.8344401,-0.6901408069,-0.6250259685,-0.9056499228,3.021014111e-08,
32133333,-0.615806661,0.9315575005,-138.8113097,-0.7010388586,-0.6134687404,-0.8750852152,3.033147952e-08,
32222222,-0.6140618416,0.9317446504,-139.7684952,-0.7113320673,-0.6017929739,-0.8460084981,3.07669522e-08,
32311111,-0.6099917011,0.932181361,-140.7591347,-0.7219684117,-0.5896810174,-0.8167684456,3.071115136e-08,
32400000,-0.6061198212,0.932596989,-141.7832461,-0.7327190998,-0.5769400875,-0.7873959989,3.062007415e-08,
32488888,-0.6092581051,0.9322600948,-142.7177246,-0.7417629121,-0.5647093647,-0.7613070908,3.048085391e-08,
32577777,-0.6084236551,0.932349661,-143.6884182,-0.7512953715,-0.5521151647,-0.7348842887,3.042868413e-08,
32666666,-0.6053740892,0.9326770611,-144.6834365,-0.7610369722,-0.5391745795,-0.7084735686,3.088812618e-08,
32755555,-0.6068182119,0.9325220063,-145.6689856,-0.7700702713,-0.52591736,-0.6829472317,3.107401895e-08,
32844444,-0.6068585416,0.9325176765,-146.6695472,-0.7791329141,-0.512387665,-0.6576383256,3.108495764e-08,
32933333,-0.6062950584,0.9325781741,-147.6672121,-0.7879874381,-0.4987763508,-0.6329750028,3.111046888e-08,
33022222,-0.6077757001,0.9324192155,-148.6579227,-0.7963578731,-0.4849945685,-0.609015852,3.115936034e-08,
33111111,-0.6067557511,0.9325287122,-149.6524791,-0.8047506446,-0.4711541139,-0.5854659665,3.14302459e-08,
33200000,-0.6069680506,0.9325059197,-150.6624176,-0.8129102461,-0.456885349,-0.562036647,3.160931096e-08,
33288888,-0.6080635848,0.932388312,-151.6938103,-0.8208990354,-0.4421229897,-0.5385838827,3.171092331e-08,
33377777,-0.6085207693,0.9323392367,-152.6947532,-0.8284535504,-0.4276928421,-0.5162544621,3.163066973e-08,
33466666,-0.6092037801,0.9322659256,-153.7100083,-0.8358358917,-0.4129141778,-0.4940134563,3.152819623e-08,
33555555,-0.60887845,0.9323008443,-154.7152321,-0.8429828161,-0.398202004,-0.472372623,3.143875482e-08,
33644444,-0.6094018797,0.9322446636,-155.7280886,-0.8498388099,-0.3832154876,-0.4509272619,3.143480619e-08,
33733333,-0.6103265551,0.9321454247,-156.7159201,-0.8562280074,-0.3684680342,-0.4303386843,3.165316331e-08,
33822222,-0.6117113665,0.9319968225,-157.7392396,-0.8625345174,-0.3530613026,-0.4093300564,3.183276427e-08,
33911111,-0.6103270837,0.932145368,-158.774169,-0.8689092538,-0.3374784373,-0.3883931904,3.214880012e-08,
34000000,-0.6135131596,0.9318035099,-159.7922128,-0.8744473546,-0.3218689253,-0.3680826795,3.248172258e-08,
34088888,-0.6120868751,0.9319565312,-160.833248,-0.8802954298,-0.305978647,-0.3475863177,3.255935789e-08,
34177777,-0.6100399286,0.9321761852,-161.9067822,-0.8860824035,-0.2895002839,-0.3267193691,3.227974446e-08,
34266666,-0.6127825929,0.9318818868,-162.9263295,-0.8908120219,-0.2736015216,-0.3071372129,3.123121964e-08,
34355555,-0.6144331738,0.931704818,-163.9104376,-0.8952096205,-0.2582123222,-0.2884378321,3.103658477e-08,
34444444,-0.5450705774,0.9391748867,-164.8284217,-0.9064412939,-0.2457918804,-0.2711613891,3.164605678e-08,
34533333,-0.6286981481,0.9301759202,-165.9215959,-0.9022369419,-0.2262647635,-0.2507819764,3.219423105e-08,
34622222,-0.6193991143,0.9311722913,-166.9841258,-0.9072483362,-0.209719557,-0.2311600348,3.247668056e-08,
34711111,-0.6220926929,0.9308835705,-167.983669,-0.9104863288,-0.1938011012,-0.2128544879,3.200205192e-08,
34800000,-0.6242687777,0.9306503845,-168.9936605,-0.9135320622,-0.1776775435,-0.1944951369,3.200252191e-08,
34888888,-0.6259196124,0.9304735225,-170.0371632,-0.916442147,-0.1609806426,-0.1756582705,3.226231489e-08,
34977777,-0.6264952958,0.9304118546,-171.0777885,-0.9191537,-0.1443007102,-0.1569930145,3.23078218e-08,
35066666,-0.6268876069,0.9303698321,-172.1035237,-0.9215479856,-0.1278175839,-0.1386987828,3.203599547e-08,
35155555,-0.6268652847,0.9303722231,-173.1297382,-0.9236917438,-0.1112925693,-0.1204866992,3.208305253e-08,
35244444,-0.6294732509,0.9300929178,-174.136954,-0.9252275165,-0.0950098865,-0.1026881333,3.211882903e-08,
35333333,-0.6326048891,0.9297576396,-175.1943682,-0.926489197,-0.07789118227,-0.0840713335,3.212254517e-08,
35422222,-0.6339535037,0.929613292,-176.2102278,-0.9275804907,-0.06144351858,-0.0662406327,3.19852641e-08,
35511111,-0.6365522258,0.9293352036,-177.232715,-0.9282514751,-0.04486780099,-0.04833582514,3.180492771e-08,
35600000,-0.6332404761,0.9296896074,-178.2354293,-0.9292487415,-0.02862765344,-0.03080730935,3.187118266e-08,
35688888,-0.6404414857,0.9289191706,-179.2705622,-0.9288438916,-0.01182583463,-0.01273177844,3.170643675e-08,
35777777,-0.6446880464,0.9284651298,179.7093002,-0.9284531795,0.004710703687,-0.005073711622,3.163489484e-08,
35866666,-0.6466131454,0.9282593721,178.7219411,-0.9280284434,0.02070434841,-0.02231003646,3.151937771e-08,
35955555,-0.6469138298,0.9282272386,177.7067295,-0.927483823,0.03714248792,-0.04004650754,3.111920438e-08,
36044444,-0.6490200958,0.9280021774,176.6876164,-0.9264518121,0.05361978236,-0.05787649359,3.112260626e-08,
36133333,-0.6603527813,0.9267921805,175.7473837,-0.9242405363,0.0687253735,-0.07435875273,3.116541072e-08,
36222222,-0.6557455075,0.9272839112,174.7219908,-0.9233522995,0.08529937241,-0.0923800942,3.115829648e-08,
36311111,-0.6584891266,0.9269910555,173.7030704,-0.921398365,0.101673349,-0.1103467869,3.153147359e-08,
36400000,-0.6615751352,0.9266617635,172.7244393,-0.9192007939,0.1173538425,-0.1276694312,3.120067932e-08,
36488888,-0.6637113157,0.9264338912,171.7011173,-0.916732835,0.1337186001,-0.1458643075,3.088462103e-08,
36577777,-0.6655810494,0.9262344875,170.7308524,-0.9141402669,0.1491908116,-0.1632034131,3.075979343e-08,
36666666,-0.6699834782,0.9257651461,169.7583739,-0.9110146467,0.1646007874,-0.1806785303,3.060244299e-08,
36755555,-0.6742544976,0.9253100414,168.774238,-0.9076067525,0.1801351033,-0.1984726345,3.077495904e-08,
36844444,-0.6775476639,0.924959286,167.7830275,-0.9040119658,0.1957346328,-0.2165177456,3.060079854e-08,
36933333,-0.6812553332,0.9245645411,166.794526,-0.9001163566,0.2112111152,-0.2346486803,3.038121789e-08,
37022222,-0.6820774355,0.924477037,165.852096,-0.896435794,0.2259660575,-0.2520716586,3.150007268e-08,
37111111,-0.6866776428,0.9239875465,164.8787028,-0.891995155,0.2410344989,-0.2702195159,3.099501593e-08,
37200000,-0.3814816559,0.9570308052,163.7009212,-0.91856755,0.2685919177,-0.2924030114,3.04366339e-08,
37288888,-0.6927239448,0.9233445769,162.9109046,-0.8825779533,0.2713325709,-0.3074318476,2.953593173e-08,
37377777,-0.6948744914,0.9231159935,161.9661276,-0.8777666868,0.2857775027,-0.3255734205,2.874659138e-08,
37466666,-0.6961431519,0.9229811731,161.0203978,-0.8728027669,0.300182571,-0.3439294448,2.976941444e-08,
37555555,-0.7013820318,0.9224246464,160.0467143,-0.8670525681,0.3147809913,-0.3630471817,2.996713541e-08,
37644444,-0.7047354309,0.9220685906,159.107499,-0.8614436477,0.3288241591,-0.3817129071,2.995841266e-08,
37733333,-0.7088481492,0.9216320999,158.1278293,-0.8552905415,0.3433421284,-0.4014333279,2.99632971e-08,
37822222,-0.7107617328,0.921429078,157.1864882,-0.8493472847,0.3572684364,-0.4206388162,2.989360453e-08,
37911111,-0.7121828492,0.9212783334,156.2130861,-0.8430174083,0.3715850061,-0.4407797543,2.974141151e-08,
38000000,-0.7209655925,0.9203472529,155.2818879,-0.836021391,0.3848471122,-0.460331657,2.979156535e-08,
38088888,-0.7177573349,0.9206872592,154.3214977,-0.8297598807,0.398953092,-0.4808054731,2.980524086e-08,
38177777,-0.7208009714,0.9203646962,153.3656261,-0.8227006088,0.4125953008,-0.5015133043,2.996347895e-08,
38266666,-0.7219390357,0.9202441138,152.4024262,-0.8155416802,0.4263109156,-0.5227334493,3.002242392e-08,
38355555,-0.7262174767,0.9197909373,151.447261,-0.8079236922,0.4396301581,-0.5441481199,3.009841129e-08,
38444444,-0.7280710047,0.9195946792,150.4770864,-0.8001933079,0.4531501341,-0.5663008297,3.01669517e-08,
38533333,-0.7266456007,0.9197456023,149.5125441,-0.7925818131,0.4666326633,-0.5887501524,3.018637916e-08,
38622222,-0.7290729727,0.9194886047,148.5430663,-0.7843538094,0.4798420531,-0.6117673521,2.926827155e-08,
38711111,-0.7291627691,0.9194790989,147.5844443,-0.7762080897,0.4928922954,-0.6350002041,2.967056711e-08,
38800000,-0.7601580449,0.9162038191,146.758207,-0.7662805176,0.5022385952,-0.6554239389,3.00758126e-08,
38888888,-0.7354979689,0.9188087059,145.6576772,-0.7586436332,0.5183331707,-0.6832366977,3.062729561e-08,
38977777,-0.7374347416,0.9186038535,144.6943139,-0.7496544519,0.53089664,-0.708188471,3.105986059e-08,
39066666,-0.741521775,0.918171718,143.7160726,-0.7401330083,0.5433621571,-0.73414123,2.999822062e-08,
39155555,-0.7434838785,0.9179643305,142.7594253,-0.7307928397,0.5555180802,-0.7601580777,2.99003421e-08,
39244444,-0.7462177916,0.9176754436,141.8254001,-0.7214130831,0.5671784405,-0.7862048163,2.957501884e-08,
39333333,-0.7484832995,0.917436121,140.8555894,-0.7115243084,0.5791564509,-0.8139657971,2.944800619e-08,
39422222,-0.7522062541,0.9170429729,139.9359816,-0.7018366087,0.5902484128,-0.8410054499,2.953430518e-08,
39511111,-0.7551594152,0.9167312356,138.9924477,-0.6917865641,0.6015209955,-0.8695181819,2.933905102e-08,
39600000,-0.7590056182,0.9163253873,138.0314762,-0.6812992049,0.6127671734,-0.8994097878,2.945261637e-08,
39688888,-0.7609579104,0.9161194517,137.1135881,-0.6712446757,0.6234624568,-0.9288154965,2.946898271e-08,
39777777,-0.7668380458,0.915499471,136.1629869,-0.6603616272,0.6340834352,-0.9602063614,2.935976242e-08,
39866666,-0.7653457718,0.9156567714,135.2117023,-0.6498550144,0.6450703708,-0.9926373675,2.922379172e-08,
39955555,-0.7728856175,0.9148622742,134.2848513,-0.6387806585,0.6549291954,-1.025280253,2.887957091e-08,
40044444,-0.7755020797,0.9145867305,133.3768434,-0.6281324986,0.6647694726,-1.058326825,2.859477629e-08,
40133333,-0.7765194727,0.9144796097,132.4596793,-0.6173388443,0.6746596978,-1.092851526,2.859443616e-08,
40222222,-0.7833682753,0.9137588289,131.5491183,-0.6060613869,0.6838455913,-1.128343772,2.854134513e-08,
40311111,-0.7853552536,0.913549822,130.6235983,-0.5948003046,0.6933872474,-1.16574797,2.901325694e-08,
40400000,-0.7867571477,0.9134023878,129.7282629,-0.5837986428,0.7024834992,-1.203297589,2.956711156e-08,
40488888,-0.7917335138,0.9128792264,128.7279801,-0.5711188795,0.7121598889,-1.246955607,2.93391595e-08,
40577777,-0.7934581742,0.9126979841,127.7661837,-0.5589732944,0.7215029219,-1.290764566,2.945594538e-08,
40666666,-0.8279352497,0.9090823742,126.9104193,-0.5459636373,0.7268799556,-1.331370637,2.880920723e-08,
40755555,-0.8045074845,0.9115376802,125.9240862,-0.5348108542,0.7381587178,-1.38022389,2.783902159e-08,
40844444,-0.8086885264,0.9110990078,125.0395499,-0.5230999703,0.7459677091,-1.426051905,2.786073451e-08,
40933333,-0.800854909,0.9119210791,124.2473694,-0.513199068,0.7538081792,-1.468841676,2.73376128e-08,
41022222,-0.8206369563,0.909846549,123.2910546,-0.4994077829,0.7605344234,-1.522872589,3.272526508e-08,
41111111,-0.8256981054,0.9093165483,122.4243103,-0.4875618847,0.7675545542,-1.574271038,3.03931613e-08,
41200000,-1.089619546,0.8821024386,120.7150305,-0.4505501102,0.7583596182,-1.683185957,2.759945696e-08,
41288888,-0.8290231819,0.9089685162,120.6724696,-0.4636918389,0.7818015362,-1.686036869,3.027404109e-08,
41377777,-0.8373590691,0.9080965935,119.7510563,-0.4506270522,0.788400078,-1.749562247,2.473537977e-08,
41466666,-0.7263953924,0.9197720972,118.0624992,-0.4326924509,0.8116390538,-1.875787415,2.699785345e-08,
41555555,-0.8568915046,0.9060568014,118.06235,-0.4262382208,0.7995373077,-1.875799186,2.357684658e-08,
41644444,-0.8651839306,0.905192201,117.1971608,-0.4137215831,0.8051132668,-1.946026748,2.135351317e-08,
41733333,-0.870783578,0.9046088268,116.4114254,-0.402382476,0.8101885414,-2.013478692,2.692562964e-08,
41822222,-0.8792107163,0.9037315918,115.4713951,-0.3886591953,0.8158889752,-2.099240119,2.657543108e-08,
41911111,-0.8885248846,0.9027630097,114.6171267,-0.3760482424,0.8207123559,-2.182465608,2.696428661e-08,
42000000,-0.9034486554,0.9012132478,113.8422359,-0.3642881071,0.8243054611,-2.262784442,2.671783981e-08,
42088888,-0.907500246,0.900792969,112.9117138,-0.3506897579,0.8297256575,-2.365982008,2.740191383e-08,
42177777,-0.9152730127,0.8999872344,112.0492419,-0.3378581841,0.8341635748,-2.468975487,2.75266188e-08,
42266666,-0.9292216785,0.8985431052,111.1293613,-0.3239021948,0.8381330921,-2.587611648,2.682970638e-08,
42355555,-0.936423095,0.8977984375,110.3291476,-0.311906607,0.8418766554,-2.699130562,2.667922545e-08,
42444444,-0.9447674118,0.8969363592,109.4790025,-0.2990936379,0.8455990943,-2.82720522,2.642398564e-08,
42533333,-0.9560242085,0.8957746946,108.6057399,-0.2858007274,0.848958331,-2.970455459,2.680742807e-08,
42622222,-0.9696207534,0.8943735816,107.7632222,-0.2728591376,0.8517346972,-3.121517954,2.693881628e-08,
42711111,-0.9832586074,0.8929704132,106.8978439,-0.2595563056,0.8544159895,-3.291832913,2.665125061e-08,
42800000,-0.9909318013,0.8921819033,106.0227345,-0.246258938,0.8575226435,-3.482199064,2.635393495e-08,
42888888,-1.007869895,0.8904437813,105.2117783,-0.2336413632,0.859244925,-3.677623316,2.592875059e-08,
42977777,-1.019043077,0.8892990864,104.3896201,-0.2210036394,0.8614001721,-3.897674148,2.577491505e-08,
43066666,-1.030940079,0.8880818535,103.5658425,-0.2083108115,0.8633052672,-4.144313303,2.567079105e-08,
43155555,-1.044078005,0.8867395921,102.7217108,-0.1952741072,0.8649711714,-4.429523114,2.543665649e-08,
43244444,-1.059325444,0.8851843516,101.9384012,-0.1831092022,0.8660383112,-4.729627462,2.544912132e-08,
43333333,-1.071775462,0.8839164715,101.1334706,-0.1706800085,0.8672811904,-5.081328492,2.53596865e-08,
43422222,-1.086190313,0.8824507658,100.2880981,-0.1576037926,0.8682628626,-5.509149547,2.499249538e-08,
43511111,-1.101723875,0.88087403,99.48930749,-0.1452240135,0.8688204893,-5.982622767,2.435974828e-08,
43600000,-1.117520487,0.8792734824,98.76167853,-0.1339351922,0.8690127853,-6.488308046,2.375050368e-08,
43688888,-1.131396235,0.8778699603,97.99911581,-0.1221624691,0.8693284755,-7.116166546,2.350412216e-08,
43777777,-1.146450849,0.8763497308,97.23310857,-0.1103381358,0.8693758372,-7.879196352,2.349018249e-08,
43866666,-1.157530363,0.8752325925,96.49297054,-0.09897245188,0.8696186203,-8.786471425,2.320058412e-08,
43955555,-1.175212524,0.8734526641,95.75631727,-0.08760534868,0.8690482491,-9.920036415,2.289591094e-08,
44044444,-1.187240433,0.8722439752,95.02541336,-0.07640647281,0.8688910192,-11.37195564,2.243001553e-08,
44133333,-1.202769504,0.8706859267,94.30353683,-0.06533651772,0.8682310305,-13.28860277,2.188989427e-08,
44222222,-1.214050811,0.8695558065,93.63055379,-0.05506264101,0.8678106972,-15.76042633,2.10440503e-08,
44311111,-1.230798739,0.8678807649,92.9513596,-0.04468558864,0.8667296119,-19.39617757,2.100957235e-08,
44400000,-1.239353734,0.8670263837,92.33444972,-0.03531620583,0.8663068254,-24.53000839,2.127105857e-08,
44488888,-1.254645361,0.8655013148,91.59005309,-0.0240160167,0.8651680512,-36.02462731,2.168317209e-08,
44577777,-1.267503648,0.8642210049,90.90783342,-0.01369273419,0.8641125241,-63.10737595,2.198220297e-08,
44666666,-1.275860023,0.8633899694,90.19539491,-0.00294439969,0.8633849488,-293.2295339,2.155837555e-08,
44755555,-1.284521381,0.8625294471,89.51462194,0.007306783643,0.8624984974,118.0407878,2.138340162e-08,
44844444,-1.294812659,0.8615081039,88.83731443,0.01748111828,0.8613307283,49.27206111,2.114916118e-08,
44933333,-1.306515487,0.860348143,88.16552512,0.02754159952,0.859907197,31.22212261,2.113502893e-08,
45022222,-1.31597496,0.8594116805,87.4860733,0.03769570553,0.8585845738,22.77672116,2.12589081e-08,
45111111,-1.324931912,0.8585259058,86.80863365,0.04779504186,0.8571944732,17.93479909,2.130737418e-08,
45200000,-1.333350413,0.8576942121,86.11433062,0.05812229268,0.8557225955,14.72279492,2.113020175e-08,
45288888,-1.339802842,0.8570572991,85.44221233,0.06810565685,0.8543470216,12.54443553,2.075410535e-08,
45377777,-1.346949903,0.8563523717,84.78844745,0.07778537918,0.8528123002,10.96365807,2.073389796e-08,
45466666,-1.353213247,0.8557350836,84.15095158,0.08720619448,0.851279985,9.761691702,2.111621899e-08,
45555555,-1.360446074,0.8550228011,83.44253317,0.09764334286,0.8494290836,8.699303595,2.153596966e-08,
45644444,-1.367109296,0.8543671374,82.73657021,0.1080189066,0.8475111335,7.845951791,2.167641925e-08,
45733333,-1.372060221,0.8538802901,82.04987868,0.1181010139,0.8456735188,7.160594905,2.148063433e-08,
45822222,-1.377575633,0.8533382607,81.37904741,0.1279127714,0.8436969303,6.595877183,2.031592514e-08,
45911111,-1.382231977,0.8528809246,80.68438878,0.1380581388,0.8416328308,6.096220317,2.062033919e-08,
46000000,-1.391894993,0.8519326257,80.16876307,0.1454646893,0.8394219576,5.770623523,2.07153897e-08,
46088888,-1.398817973,0.8512538739,79.35576246,0.1572352827,0.8366063732,5.320729284,2.062317016e-08,
46177777,-1.405825521,0.8505673816,78.72889408,0.1662447544,0.8341627852,5.017678833,2.079887289e-08,
46266666,-1.412516333,0.8499124349,78.10464905,0.1751880199,0.8316611718,4.747249112,1.963039909e-08,
46355555,-1.420349255,0.8491463307,77.46649595,0.1842736458,0.8289105587,4.498258853,1.957216065e-08,
46444444,-1.429552331,0.8482470998,76.84609374,0.1930335264,0.8259910411,4.279003013,1.989173771e-08,
46533333,-1.434644425,0.8477499615,76.22662211,0.2018341764,0.8233729183,4.079452415,2.084664108e-08,
