Frequency,S11_Magnitude,S11_Magnitude (linear),S11_Phase,S11_Real,S11_Imaginary,S11_Quality Factor,S11_Group delay,
30000000,-0.8851966659,0.9031089925,-117.9306403,-0.4230183855,-0.7979105827,-1.88623145,3.283020735e-08,
30088888,-0.7874533731,0.9133291762,-119.5365682,-0.4502520592,-0.7946340461,-1.764864879,3.283020735e-08,
30177777,-0.7794220814,0.9141740643,-120.443529,-0.4632018421,-0.7881359485,-1.701495713,3.283020735e-08,
30266666,-0.7688800837,0.915284264,-121.3607685,-0.476336875,-0.7815679531,-1.640788262,2.837243666e-08,
30355555,-0.7627237266,0.9159332262,-122.2713799,-0.4890442836,-0.7744477797,-1.583594381,2.818550135e-08,
30444444,-0.7523453598,0.9170282864,-123.1622383,-0.5016251295,-0.7676673157,-1.530360563,2.815237519e-08,
30533333,-0.7478033681,0.9175079407,-124.05248,-0.5137604285,-0.7601782971,-1.47963575,2.832578625e-08,
30622222,-0.7372054049,0.918628108,-124.9746041,-0.5265698473,-0.7527295642,-1.42949614,-1.358672591e-08,
30711111,-0.7302091931,0.9193683322,-125.8973284,-0.5390574497,-0.7447517682,-1.381581441,7.732183345e-09,
30800000,-1.21684594,0.8692760274,-120.0659352,-0.4355040547,-0.752314449,-1.727456819,2.89386418e-08,
30888888,-0.7171362793,0.9207530922,-127.7439653,-0.5636242707,-0.7280892378,-1.291798944,5.011633472e-08,
30977777,-0.7085561726,0.9216630811,-128.6814741,-0.5760304685,-0.7194801835,-1.249031471,7.136267113e-08,
31066666,-0.7311774305,0.9192658537,-129.6080923,-0.5860621412,-0.7082237475,-1.208444801,2.93560112e-08,
31155555,-0.6974434386,0.9228430122,-130.5519133,-0.5999741606,-0.7011920078,-1.168703677,2.948904043e-08,
31244444,-0.6895145747,0.9236858087,-131.5057134,-0.6121217164,-0.691738735,-1.130067299,2.967065471e-08,
31333333,-0.6843923537,0.924230683,-132.450916,-0.6238172172,-0.6819489973,-1.093187201,2.987010655e-08,
31422222,-0.6781529873,0.9248948275,-133.4059017,-0.6355529001,-0.6719396945,-1.057252188,2.457671245e-08,
31511111,-0.6713020131,0.9256246238,-134.3810422,-0.6474067618,-0.6615477525,-1.021842513,2.743114018e-08,
31600000,-0.7264554701,0.9197657354,-134.4729291,-0.644362298,-0.6563278425,-1.018569591,3.025790086e-08,
31688888,-0.6640574461,0.9263969738,-136.3063901,-0.6698259538,-0.639956674,-0.9554074015,3.31413689e-08,
31777777,-0.6586883422,0.9269697947,-137.2844979,-0.6810735216,-0.6288178261,-0.9232745161,3.608906327e-08,
31866666,-0.6567690937,0.9271746421,-138.2778239,-0.6920252131,-0.6170526083,-0.8916620329,3.082996252e-08,
31955555,-0.6537474794,0.9274972402,-139.2614696,-0.7027606154,-0.6052922005,-0.8613063784,3.083661457e-08,
32044444,-0.650893585,0.927802035,-140.2507044,-0.7133403104,-0.5932640371,-0.8316704221,3.071814046e-08,
32133333,-0.6473808347,0.9281773329,-141.2319221,-0.7236877572,-0.581196345,-0.8031037409,3.079651875e-08,
32222222,-0.6454778461,0.9283807092,-142.2075062,-0.7336392097,-0.5689149771,-0.7754696989,3.119832856e-08,
32311111,-0.6396096979,0.929008131,-143.2105179,-0.7439880991,-0.5563612279,-0.7478093112,3.123224308e-08,
32400000,-0.6310166135,0.9299276678,-144.2531454,-0.7547349251,-0.5432684973,-0.7198136448,3.135560341e-08,
32488888,-0.6377179339,0.9292104886,-145.2062677,-0.7630784651,-0.5302295618,-0.6948558844,3.133413959e-08,
32577777,-0.63596913,0.9293975932,-146.2265341,-0.7725543191,-0.5166620853,-0.6687712082,3.116140509e-08,
32666666,-0.6347296445,0.9295302287,-147.2372357,-0.7816591416,-0.5030262741,-0.6435366098,3.143673388e-08,
32755555,-0.6325521123,0.929763289,-148.2234924,-0.7903998458,-0.4896201152,-0.6194587687,3.135120648e-08,
32844444,-0.630371701,0.9299967159,-149.2376723,-0.7991428133,-0.4756728451,-0.5952288342,3.145970958e-08,
32933333,-0.6301166714,0.9300240223,-150.2425152,-0.8073854595,-0.4615987455,-0.5717204094,3.149611646e-08,
33022222,-0.630702614,0.9299612858,-151.2612841,-0.815410019,-0.4471403516,-0.5483625921,3.165353288e-08,
33111111,-0.6285598391,0.9301907319,-152.2510714,-0.823215397,-0.4330949179,-0.5261015761,3.176105155e-08,
33200000,-0.6284153664,0.9302062039,-153.2979657,-0.8310047679,-0.4179888247,-0.5029920897,3.190494979e-08,
33288888,-0.6278931279,0.9302621342,-154.305949,-0.8382797147,-0.4033295901,-0.481139628,3.195896118e-08,
33377777,-0.6286608448,0.9301799151,-155.3386437,-0.845338024,-0.3881215011,-0.4591317202,3.186095429e-08,
33466666,-0.6279163214,0.9302596502,-156.3441151,-0.852091609,-0.373259838,-0.4380513012,3.184679369e-08,
33555555,-0.6274067244,0.9303142297,-157.3766417,-0.8587297792,-0.3578655225,-0.4167382233,3.17698116e-08,
33644444,-0.6259307989,0.9304723241,-158.3824433,-0.8650262884,-0.3427947876,-0.3962825086,3.182861717e-08,
33733333,-0.6267741026,0.93038199,-159.4026558,-0.870908106,-0.3273067647,-0.3758223887,3.186644493e-08,
33822222,-0.6283865721,0.9302092876,-160.4236932,-0.8764395531,-0.3116777639,-0.3556180946,3.217437585e-08,
33911111,-0.6287927906,0.930165785,-161.4546544,-0.8818643534,-0.2958439618,-0.3354755872,3.220254816e-08,
34000000,-0.631205156,0.9299074823,-162.5043506,-0.8868897587,-0.2795612305,-0.3152153103,3.243746949e-08,
34088888,-0.6282065767,0.9302285643,-163.5147412,-0.8919894499,-0.2639697013,-0.2959336586,3.265711389e-08,
34177777,-0.628033487,0.9302471018,-164.5836513,-0.8967764313,-0.2472887031,-0.2757529017,3.300824327e-08,
34266666,-0.6265759822,0.9304032117,-165.64009,-0.9013345616,-0.2307512608,-0.2560106653,3.204611634e-08,
34355555,-0.6217259684,0.9309228739,-166.7230017,-0.9060403753,-0.2137948443,-0.2359661337,3.164298431e-08,
34444444,-0.6035019208,0.9328781132,-167.5724511,-0.9110197682,-0.2007599464,-0.2203683755,3.197274391e-08,
34533333,-0.6423089161,0.9287194782,-168.6803546,-0.9106534841,-0.1822912535,-0.2001763093,3.226933451e-08,
34622222,-0.6257876063,0.9304876637,-169.7770589,-0.915715823,-0.1651418293,-0.1803417885,3.292582263e-08,
34711111,-0.6329081925,0.9297251739,-170.7837978,-0.9177233647,-0.1489050869,-0.1622548718,3.22367086e-08,
34800000,-0.6345366132,0.9295508864,-171.7888677,-0.9200215955,-0.1327596104,-0.1443005371,3.20263574e-08,
34888888,-0.6327081993,0.9297465811,-172.8323301,-0.9224808576,-0.1160076393,-0.125756148,3.245969826e-08,
34977777,-0.6346757459,0.9295359968,-173.8770164,-0.9242332146,-0.09914703405,-0.1072749091,3.293252591e-08,
35066666,-0.6368446218,0.9293039196,-174.9332232,-0.9256726122,-0.08207307718,-0.08866317972,3.385001888e-08,
35155555,-0.634750424,0.929528005,-176.0076318,-0.9272723501,-0.06471708299,-0.06979296103,3.35778581e-08,
35244444,-0.6309130398,0.9299387567,-177.1830321,-0.9288150437,-0.04570236037,-0.04920501738,3.273252656e-08,
35333333,-0.6358241275,0.9294131088,-178.1245759,-0.9289152642,-0.03041641966,-0.03274401964,3.182834623e-08,
35422222,-0.6407113183,0.9288903135,-179.1119619,-0.9287787445,-0.01439646905,-0.01550042907,3.130559847e-08,
35511111,-0.64266931,0.9286809447,179.8642913,-0.9286783397,0.002199637812,-0.002368568016,3.175693809e-08,
35600000,-0.640392512,0.9289244081,178.8136322,-0.928725282,0.01923295632,-0.02070898327,3.196029633e-08,
35688888,-0.6456079697,0.9283668012,177.8315105,-0.9277019765,0.03512777168,-0.03786536255,3.186821737e-08,
35777777,-0.6434627623,0.928596114,176.7907746,-0.9271398554,0.05198491485,-0.05607019755,3.186430982e-08,
35866666,-0.6470716236,0.9282103759,175.7768563,-0.9256901107,0.06835437733,-0.07384153351,3.205701381e-08,
35955555,-0.6476533649,0.9281482107,174.7426634,-0.9242436794,0.08504541176,-0.09201622219,3.163757189e-08,
36044444,-0.6506453819,0.9278285477,173.7264375,-0.9222722311,0.1013890808,-0.1099340058,3.139451315e-08,
36133333,-0.6655943102,0.9262330734,172.7539662,-0.9188358827,0.1168260545,-0.127145725,3.142713995e-08,
36222222,-0.6532695487,0.927548276,171.7480765,-0.917944969,0.1331271505,-0.1450273763,3.143950753e-08,
36311111,-0.6548578102,0.9273786844,170.7034952,-0.9151980966,0.1498121094,-0.1636936418,3.155936399e-08,
36400000,-0.6615591254,0.9266634715,169.7213455,-0.9117919891,0.1653498051,-0.1813459726,3.134764882e-08,
36488888,-0.6614182309,0.9266785031,168.7178272,-0.9087709769,0.1812963311,-0.199496172,3.104534345e-08,
36577777,-0.6624285653,0.926570719,167.7252805,-0.9053888252,0.1969882548,-0.2175731016,3.109718609e-08,
36666666,-0.6666418195,0.9261213774,166.7343225,-0.9014092242,0.2125140376,-0.2357575581,3.09319922e-08,
36755555,-0.6702178147,0.9257401702,165.7375419,-0.8972064182,0.2280690811,-0.2541991191,3.09085546e-08,
36844444,-0.6726726408,0.9254785723,164.7625715,-0.8929433856,0.2432338341,-0.272395583,3.080393634e-08,
36933333,-0.6747197292,0.9252604815,163.765781,-0.8883674699,0.2586700542,-0.2911746129,3.060103395e-08,
37022222,-0.6777122265,0.9249417619,162.7915669,-0.8835365848,0.2736427714,-0.3097130058,2.925761192e-08,
37111111,-0.6796213268,0.9247384883,161.8268726,-0.8786110872,0.2884160696,-0.3282636354,2.982449985e-08,
37200000,-0.4651426626,0.9478570985,161.050802,-0.896489758,0.3077973244,-0.3433361303,3.065514559e-08,
37288888,-0.6860199132,0.9240575172,159.8642376,-0.867578721,0.3181029046,-0.3666559552,3.175806372e-08,
37377777,-0.6861190949,0.9240469657,158.868055,-0.8619072793,0.3331345622,-0.3865085842,3.242438902e-08,
37466666,-0.6885269144,0.9237908457,157.8370067,-0.855536037,0.3484933513,-0.4073391841,3.049352589e-08,
37555555,-0.6936910429,0.9232417762,156.8765087,-0.8490690501,0.3625701663,-0.4270208251,2.98654288e-08,
37644444,-0.6959120538,0.9230057304,155.9810405,-0.8430834175,0.375699254,-0.4456252444,2.924693752e-08,
37733333,-0.6999838379,0.9225731438,155.0175635,-0.8362547045,0.3896399298,-0.4659345146,2.956656988e-08,
37822222,-0.7035222256,0.9221973899,154.0869634,-0.8294781608,0.4030062117,-0.4858551204,2.991572962e-08,
37911111,-0.7029046742,0.9222629589,153.0928901,-0.8224200433,0.417365832,-0.5074849956,2.998167621e-08,
38000000,-0.7065473343,0.9218762643,152.1568545,-0.8151502075,0.4305647292,-0.5282029315,3.01899145e-08,
38088888,-0.7056804047,0.9219682804,151.1855438,-0.8078148717,0.4443654389,-0.550083261,3.009917698e-08,
38177777,-0.7078703812,0.9217358535,150.2102442,-0.7999324203,0.4579357014,-0.5724679858,3.037336529e-08,
38266666,-0.708011742,0.9217208526,149.2503751,-0.7921358955,0.4712643136,-0.594928618,3.026957004e-08,
38355555,-0.7098858354,0.9215220009,148.2646943,-0.7837426223,0.4847167215,-0.6184641586,3.01459898e-08,
38444444,-0.7111520665,0.9213876709,147.3151815,-0.775489525,0.497565309,-0.6416144809,3.014474534e-08,
38533333,-0.7129824853,0.921193523,146.3544766,-0.7668763723,0.5103901805,-0.6655442766,3.039975194e-08,
38622222,-0.715872456,0.9208870743,145.3823187,-0.7578542343,0.5231538619,-0.6903093473,3.042373424e-08,
38711111,-0.7171009444,0.9207568379,144.3671594,-0.7483607433,0.5364227367,-0.7167970014,3.046146071e-08,
38800000,-0.7210849991,0.9203346008,143.4410365,-0.7392535214,0.5481970527,-0.741554875,3.026930999e-08,
38888888,-0.7193709263,0.9205162375,142.4512779,-0.7298178466,0.5609955921,-0.7686789172,3.006124591e-08,
38977777,-0.7214048936,0.9203007063,141.4971638,-0.7202064791,0.5729363119,-0.7955167421,3.019632675e-08,
39066666,-0.7249509148,0.9199250695,140.5293445,-0.7101363919,0.5847806755,-0.8234765634,3.001019995e-08,
39155555,-0.728804211,0.9195170563,139.5705849,-0.6999414119,0.5963167252,-0.8519523421,2.998331631e-08,
39244444,-0.7299102724,0.9193999724,138.6129293,-0.689789282,0.6078544692,-0.8812176197,3.004548582e-08,
39333333,-0.7342706388,0.9189385442,137.6580348,-0.6792223618,0.6189547893,-0.9112697462,3.003306179e-08,
39422222,-0.7336871124,0.9190002814,136.6783358,-0.6685850104,0.6305201037,-0.9430664672,3.005964135e-08,
39511111,-0.7365424416,0.9186982263,135.7325857,-0.6578704536,0.641258838,-0.9747494123,2.986447987e-08,
39600000,-0.7400283263,0.9183296016,134.7661052,-0.6467008573,0.6520024987,-1.008197981,2.968700867e-08,
39688888,-0.7422566249,0.9180940414,133.8358273,-0.6358667539,0.6622462836,-1.041485939,2.977279444e-08,
39777777,-0.7476325233,0.9175259875,132.8767877,-0.6243067369,0.6723801277,-1.077002838,2.955437741e-08,
39866666,-0.7480760615,0.917479136,131.913645,-0.612885049,0.682744375,-1.113984386,2.929501069e-08,
39955555,-0.7565204032,0.9165876047,130.9984901,-0.6013173434,0.6917732935,-1.150429638,2.908470792e-08,
40044444,-0.7590699553,0.9163186,130.0877686,-0.5900728199,0.7010376909,-1.188052842,2.897308613e-08,
40133333,-0.75862842,0.916365181,129.1361668,-0.5783781296,0.7107769581,-1.228913961,2.906030483e-08,
40222222,-0.7660159857,0.9155861209,128.209107,-0.5663205027,0.7194296581,-1.270357783,2.884904241e-08,
40311111,-0.7690483514,0.9152665328,127.2881663,-0.5544905161,0.7281847936,-1.313250222,2.902382835e-08,
40400000,-0.7792215946,0.9141951654,126.3959163,-0.5424482307,0.7358686822,-1.356569421,2.961770306e-08,
40488888,-0.7767197058,0.9144585287,125.3989438,-0.5297148682,0.7454103294,-1.407191631,2.882214254e-08,
40577777,-0.7809407308,0.9140142432,124.4148798,-0.5165837289,0.7540313573,-1.45964984,2.920909577e-08,
40666666,-0.8047743057,0.9115096792,123.6671878,-0.5053116998,0.7586237416,-1.501298588,2.88416891e-08,
40755555,-0.7923706488,0.9128122665,122.5883332,-0.4916399839,0.7691010078,-1.564358134,2.678398908e-08,
40844444,-0.7951188632,0.9125234985,121.6975411,-0.4794719102,0.7764057075,-1.619293416,2.804133434e-08,
40933333,-0.7734787999,0.9147997979,121.1142596,-0.4727195182,0.7831953316,-1.656786533,2.776379876e-08,
41022222,-0.8092289915,0.9110423179,119.9176055,-0.4543860835,0.7896400396,-1.737817394,3.407995533e-08,
41111111,-0.8153767187,0.9103977256,119.0360876,-0.4418710057,0.7959736384,-1.801371052,3.189692668e-08,
41200000,-1.299497729,0.8610435415,117.2838274,-0.3947012496,0.7652495698,-1.938807061,2.775346895e-08,
41288888,-0.8286282838,0.9090098428,117.327634,-0.4173064973,0.8075606365,-1.935173887,2.884117255e-08,
41377777,-0.8296131167,0.9089067823,116.3312718,-0.403155077,0.8146026779,-2.020569067,2.44355416e-08,
41466666,-0.7620341058,0.9160059501,114.897824,-0.3856397553,0.8308723607,-2.154529841,2.826214117e-08,
41555555,-0.8502876453,0.9067459359,114.5890409,-0.3773032154,0.8245183297,-2.185293673,2.567539268e-08,
41644444,-0.8559846562,0.906151403,113.6768012,-0.3638895581,0.829876349,-2.280572032,2.405773986e-08,
41733333,-0.8660380792,0.905103191,112.8337152,-0.3512325179,0.8341747447,-2.374992924,2.762064576e-08,
41822222,-0.8723161908,0.904449224,111.9262436,-0.3377328515,0.8390261734,-2.48428949,2.761179297e-08,
41911111,-0.8814092729,0.9035028698,111.0450108,-0.3244490074,0.843237972,-2.598984595,2.753839975e-08,
42000000,-0.8878364226,0.9028345675,110.153261,-0.3110558587,0.8475579679,-2.724777381,2.708555029e-08,
42088888,-0.9014923021,0.9014162541,109.3140571,-0.2981397637,0.8506843977,-2.853307413,2.729510359e-08,
42177777,-0.910394249,0.9004928888,108.458027,-0.2851049284,0.8541677954,-2.995976956,2.753136446e-08,
42266666,-0.9300387758,0.8984585816,107.5254549,-0.2705523646,0.8567550647,-3.166688511,2.771425247e-08,
42355555,-0.9328419638,0.8981686698,106.6425383,-0.2572353084,0.8605445692,-3.345359448,2.761250024e-08,
42444444,-0.9432515564,0.8970929056,105.7875155,-0.2440725851,0.8632521384,-3.536866454,2.712475022e-08,
42533333,-0.9569699766,0.895677163,104.9089911,-0.230443796,0.8655248333,-3.755904252,2.712465516e-08,
42622222,-0.9705688211,0.8942759657,104.052263,-0.21713634,0.8675144452,-3.995252223,2.744846682e-08,
42711111,-0.9875961716,0.8925245925,103.1702143,-0.2033570121,0.8690489479,-4.273513556,2.761960761e-08,
42800000,-1.001013926,0.8911469062,102.2651438,-0.1893116442,0.8708064709,-4.599856889,2.759693437e-08,
42888888,-1.018128918,0.8893926869,101.383408,-0.1755425123,0.8718968849,-4.966870266,2.731457028e-08,
42977777,-1.032556885,0.8879165599,100.5301511,-0.1622693479,0.8729630439,-5.379716225,2.702507141e-08,
43066666,-1.051236671,0.8860090673,99.66742307,-0.1487865337,0.8734269487,-5.870336023,2.698599225e-08,
43155555,-1.068823982,0.8842168788,98.7991194,-0.1352592287,0.8738102939,-6.460263762,2.731751855e-08,
43244444,-1.088188582,0.8822477733,97.93115971,-0.1217353744,0.8738086931,-7.177935728,2.696645031e-08,
43333333,-1.106280828,0.8804120107,97.02747436,-0.1077142479,0.8737980026,-8.112185898,2.591489356e-08,
43422222,-1.131459364,0.8778635801,96.23860815,-0.09539675861,0.8726648404,-9.147741004,2.499136929e-08,
43511111,-1.158256143,0.8751594624,95.49900702,-0.08386521994,0.8711318554,-10.38728398,2.497451675e-08,
43600000,-1.18031497,0.8729397131,94.69676929,-0.07147832158,0.8700083863,-12.17163984,2.552261318e-08,
43688888,-1.202233674,0.8707396407,93.80246611,-0.05774470797,0.8688228073,-15.04592954,2.574918372e-08,
43777777,-1.22881698,0.8680788018,93.0032554,-0.04548098848,0.8668865472,-19.06041571,2.525751232e-08,
43866666,-1.254218979,0.8655438025,92.22593577,-0.03361783914,0.8648906954,-25.72713528,2.433895102e-08,
43955555,-1.285023933,0.8624795438,91.44382744,-0.02173178983,0.8622057138,-39.67485977,2.401667614e-08,
44044444,-1.312776666,0.8597281889,90.68794306,-0.01032239786,0.8596662183,-83.28163961,2.366881964e-08,
44133333,-1.34218825,0.8568219576,89.92957877,0.001053104496,0.8568213104,813.6147109,2.341193655e-08,
44222222,-1.369899839,0.8540926963,89.19604423,0.01198395803,0.8540086175,71.26265089,2.311996469e-08,
44311111,-1.403144165,0.8508299944,88.44386232,0.02310546874,0.850516206,36.81016886,2.273416965e-08,
44400000,-1.436086197,0.8476092551,87.73160231,0.03354893919,0.8469450502,25.24506201,2.231095968e-08,
44488888,-1.464682553,0.8448232791,87.02432804,0.04385640616,0.8436841758,19.23742162,2.180082992e-08,
44577777,-1.498674474,0.8415235541,86.33605336,0.05377702181,0.8398035032,15.61640037,2.140081736e-08,
44666666,-1.526877602,0.8387955541,85.65353889,0.06357006612,0.8363831827,13.15687137,2.108898475e-08,
44755555,-1.560794688,0.8355265709,84.99286183,0.07292463597,0.8323380612,11.41367454,2.065788817e-08,
44844444,-1.591732861,0.8325558121,84.32168203,0.08237572868,0.8284705303,10.05721641,2.025941249e-08,
44933333,-1.622997215,0.8295644627,83.69671556,0.09107895175,0.8245494662,9.053128636,1.976876063e-08,
45022222,-1.652992275,0.8267046611,83.06010198,0.09988916843,0.8206477629,8.215583089,1.925444697e-08,
45111111,-1.682915539,0.8238615281,82.4606462,0.1080965138,0.8167392247,7.555648155,1.885038193e-08,
45200000,-1.712298631,0.8210792339,81.85900134,0.1162727172,0.8128048743,6.990503822,1.840008842e-08,
45288888,-1.740066451,0.8184585265,81.28120099,0.1240661515,0.809000587,6.520719609,1.821702993e-08,
45377777,-1.764561224,0.8161536717,80.70580675,0.1318119238,0.8054392793,6.110519108,1.807439682e-08,
45466666,-1.787393162,0.8140111278,80.12254785,0.1396366188,0.8019449675,5.743084974,1.754932132e-08,
45555555,-1.81044446,0.8118537051,79.54642081,0.1473017918,0.7983787451,5.420020594,1.763836143e-08,
45644444,-1.835130036,0.8095496665,79.05299905,0.1537342111,0.7948185044,5.170082174,1.715355379e-08,
45733333,-1.850144873,0.8081514498,78.4184398,0.1622466258,0.7916974158,4.879592484,1.666606992e-08,
45822222,-1.871160804,0.8061984518,77.94196632,0.1684167342,0.7884109,4.681309751,1.51009052e-08,
45911111,-1.889244757,0.8045216991,77.43536265,0.1750163498,0.7852543802,4.486748702,1.47111815e-08,
46000000,-1.917358263,0.8019219238,77.12838977,0.1786418209,0.7817709842,4.376192429,1.531988157e-08,
46088888,-1.923052825,0.8013963476,76.47143609,0.1874707234,0.7791603389,4.156170761,1.614223967e-08,
46177777,-1.936370278,0.8001685653,75.97274548,0.193947593,0.7763079699,4.002668751,1.726918201e-08,
46266666,-1.9477005,0.7991254739,75.43045227,0.2010240027,0.7734280014,3.847441058,1.654124812e-08,
46355555,-1.959885851,0.7980051745,74.8858091,0.2080747635,0.7704006434,3.702518415,1.678194253e-08,
46444444,-1.970623203,0.7970193033,74.36830127,0.2147589605,0.7675404606,3.57396245,1.703745782e-08,
46533333,-1.978186997,0.7963255499,73.81870682,0.2219180608,0.7647788933,3.446221955,1.775947588e-08,
