Frequency,S11_Magnitude,S11_Magnitude (linear),S11_Phase,S11_Real,S11_Imaginary,S11_Quality Factor,S11_Group delay,
30000000,-0.9412461995,0.897300046,-115.4614943,-0.3857532523,-0.8101492461,-2.100174765,2.890974091e-08,
30088888,-0.863985462,0.9053171069,-116.4869979,-0.4037666444,-0.8102910347,-2.006830049,2.890974091e-08,
30177777,-0.8514697827,0.9066225375,-117.3842573,-0.4170063215,-0.805028045,-1.930493625,2.890974091e-08,
30266666,-0.8393630743,0.907887102,-118.2951046,-0.4303502695,-0.7994108052,-1.857581746,2.796562272e-08,
30355555,-0.8294166964,0.9089273363,-119.1830053,-0.4431936205,-0.7935542309,-1.790536222,2.801397289e-08,
30444444,-0.817608138,0.9101638729,-120.0621291,-0.4559363868,-0.7877311006,-1.727721505,2.788221511e-08,
30533333,-0.8051359394,0.9114717296,-120.9829863,-0.4692106261,-0.7814231262,-1.665399466,2.797334451e-08,
30622222,-0.797484453,0.9122750079,-121.8562741,-0.4814898804,-0.7748633331,-1.609303465,3.316828332e-08,
30711111,-0.7889867158,0.913167958,-122.7616735,-0.4941570183,-0.7679092139,-1.55397816,3.073610552e-08,
30800000,-1.512828123,0.8401534089,-124.4797175,-0.4756229965,-0.6925608389,-1.456113022,2.866216707e-08,
30888888,-0.7717629597,0.9149805285,-124.5890476,-0.5194219914,-0.7532530533,-1.450175514,2.662331084e-08,
30977777,-0.7618474526,0.9160256346,-125.5285395,-0.5323101917,-0.745485629,-1.400472207,2.431743754e-08,
31066666,-0.8311163354,0.9087494965,-126.4969497,-0.5405060162,-0.7305332941,-1.351572919,2.951990187e-08,
31155555,-0.7465568789,0.9176396193,-127.4165614,-0.5575628247,-0.7288251967,-1.307162466,2.96498757e-08,
31244444,-0.7371052907,0.9186386963,-128.3682269,-0.5702110649,-0.7202474546,-1.263124304,2.959463997e-08,
31333333,-0.7297734001,0.9194144604,-129.3368869,-0.5827974617,-0.7111048225,-1.220157721,2.976601903e-08,
31422222,-0.7228932329,0.920143025,-130.2719352,-0.5947952926,-0.7020553726,-1.180331084,3.080532828e-08,
31511111,-0.7141161192,0.9210733018,-131.2272762,-0.6070311303,-0.69274038,-1.141194159,3.029576769e-08,
31600000,-0.6665696899,0.9261290682,-132.3518909,-0.623916573,-0.6844290766,-1.096988133,3.004268511e-08,
31688888,-0.7008312379,0.9224831415,-133.1442379,-0.6308284051,-0.6730755304,-1.066970867,2.975716149e-08,
31777777,-0.6955213967,0.9230472445,-134.12029,-0.642595087,-0.6626369818,-1.031188995,2.94150216e-08,
31866666,-0.6922169257,0.9233984766,-135.1041749,-0.6541274194,-0.6517530712,-0.9963702054,3.057446452e-08,
31955555,-0.6862287014,0.9240353053,-136.0783318,-0.6655723072,-0.6409795233,-0.9630501696,3.069162323e-08,
32044444,-0.6835484385,0.924320485,-137.0571375,-0.6766335151,-0.6297106043,-0.9306523993,3.078575209e-08,
32133333,-0.6796061577,0.9247401033,-138.0544745,-0.6878038157,-0.618118249,-0.8986839487,3.10050163e-08,
32222222,-0.6766740196,0.925052325,-139.04183,-0.6985887381,-0.606379072,-0.8680057936,3.13199266e-08,
32311111,-0.6697991094,0.9257847968,-140.0467943,-0.7096780755,-0.5945035904,-0.8377088302,3.126026337e-08,
32400000,-0.6627807013,0.9265331555,-141.0721721,-0.7207854077,-0.5821787391,-0.8077005069,3.13269579e-08,
32488888,-0.6667723101,0.9261074641,-142.0409519,-0.7301899797,-0.5696469333,-0.7801352376,3.135074418e-08,
32577777,-0.6625707505,0.9265555515,-143.0570707,-0.7405352233,-0.5568777003,-0.7519935349,3.136675142e-08,
32666666,-0.65919714,0.9269154967,-144.0704139,-0.7505593905,-0.5439052669,-0.7246665272,3.157471865e-08,
32755555,-0.6584093762,0.9269995668,-145.0761276,-0.7600593842,-0.5306957031,-0.6982292622,3.154647359e-08,
32844444,-0.6553114893,0.927330247,-146.0833848,-0.7695454779,-0.5174370924,-0.6723931298,3.162964492e-08,
32933333,-0.6546853706,0.9273970956,-147.0980274,-0.7786436804,-0.5037652151,-0.6469778511,3.164477306e-08,
33022222,-0.6548218771,0.9273825209,-148.1202135,-0.7874943458,-0.4897866836,-0.6219558098,3.159240309e-08,
33111111,-0.6532292435,0.9275525802,-149.1208833,-0.7960738802,-0.4760463908,-0.5979927273,3.177508887e-08,
33200000,-0.6519881044,0.9276851289,-150.1267476,-0.8044230175,-0.462064181,-0.574404475,3.193193098e-08,
33288888,-0.6504707191,0.9278472054,-151.1787809,-0.8129131073,-0.4472948877,-0.5502370225,3.222779573e-08,
33377777,-0.6499002807,0.927908143,-152.20038,-0.8208127604,-0.4327585171,-0.5272317123,3.231118856e-08,
33466666,-0.6493555745,0.9279663355,-153.2404628,-0.8285848619,-0.417814129,-0.5042502564,3.211942322e-08,
33555555,-0.6480704278,0.9281036456,-154.2657033,-0.8360517978,-0.4029811018,-0.4820049461,3.194331552e-08,
33644444,-0.6497288932,0.9279264524,-155.2852334,-0.8429288089,-0.3879671689,-0.460260896,3.183934045e-08,
33733333,-0.6508938367,0.9278020081,-156.2889316,-0.8494815349,-0.373092064,-0.4391997338,3.193002605e-08,
33822222,-0.6515131758,0.9277358544,-157.3231495,-0.856016245,-0.3576730405,-0.4178344074,3.196389936e-08,
33911111,-0.6510243084,0.9277880716,-158.3555558,-0.8623703405,-0.3422106101,-0.3968255795,3.217580707e-08,
34000000,-0.6542378622,0.9274448776,-159.3661516,-0.8679506949,-0.3268265476,-0.3765496699,3.241512265e-08,
34088888,-0.649245188,0.9279781288,-160.4155661,-0.8742932519,-0.3110542031,-0.3557778839,3.281646401e-08,
34177777,-0.6479826363,0.9281130264,-161.4795705,-0.8800464758,-0.2948083956,-0.3349918484,3.312128087e-08,
34266666,-0.6483298251,0.928075929,-162.5494281,-0.8853621714,-0.2783141307,-0.314350601,3.157606158e-08,
34355555,-0.6374929462,0.9292345579,-163.5986322,-0.8914214333,-0.2623827201,-0.2943419468,3.18839127e-08,
34444444,-0.59509143,0.9337818505,-164.4082115,-0.8994197034,-0.2509835482,-0.2790505336,3.253920604e-08,
34533333,-0.6568033584,0.9271709845,-165.6516112,-0.89824954,-0.229769011,-0.2557964137,3.344404184e-08,
34622222,-0.6489703722,0.9280074899,-166.7292181,-0.903226034,-0.2130273053,-0.2358516,3.431271693e-08,
34711111,-0.6484420073,0.9280639425,-167.7891822,-0.9070674031,-0.1962941867,-0.2164052925,3.295238437e-08,
34800000,-0.6501580674,0.9278806042,-168.8294675,-0.9103018332,-0.1797581382,-0.1974709175,3.280318329e-08,
34888888,-0.6508311676,0.9278087023,-169.8738746,-0.9133563326,-0.1631232591,-0.1785976111,3.28236405e-08,
34977777,-0.6522869762,0.9276532089,-170.9353878,-0.9160680282,-0.1461500721,-0.1595406319,3.29020077e-08,
35066666,-0.6514359966,0.9277440979,-171.9879521,-0.9186881856,-0.1293102043,-0.1407552708,3.287702006e-08,
35155555,-0.6511790633,0.9277715415,-173.0367566,-0.9209284187,-0.1124761348,-0.1221334172,3.303855918e-08,
35244444,-0.6516147718,0.9277250031,-174.08352,-0.9227832065,-0.09562863151,-0.1036306587,3.310598909e-08,
35333333,-0.6525442692,0.9276257304,-175.1737799,-0.9243367978,-0.07804472992,-0.08443321753,3.307881359e-08,
35422222,-0.6544229467,0.9274251152,-176.2164053,-0.9254037025,-0.06119911537,-0.06613234333,3.278106257e-08,
35511111,-0.6546989736,0.9273956432,-177.2629307,-0.92633766,-0.04428564927,-0.04780724263,3.241191272e-08,
35600000,-0.6435477226,0.928587031,-178.2839211,-0.9281705556,-0.02780816245,-0.02996018596,3.246799519e-08,
35688888,-0.6570051779,0.9271494416,-179.3259345,-0.9270852803,-0.0109073485,-0.01176520514,3.249650425e-08,
35777777,-0.6595518229,0.9268776475,179.6202109,-0.926857285,0.006143828394,-0.006628667103,3.259966468e-08,
35866666,-0.6597044221,0.9268613636,178.5856146,-0.9265789712,0.02287788164,-0.0246906981,3.249884036e-08,
35955555,-0.6610250346,0.9267204533,177.5443515,-0.925869434,0.0397062942,-0.04288541423,3.228744836e-08,
36044444,-0.6651729235,0.9262780097,176.5121743,-0.924562309,0.05635146903,-0.06094934704,3.21174324e-08,
36133333,-0.6680102292,0.9259754841,175.4909329,-0.923109502,0.07279728323,-0.0788609402,3.207112616e-08,
36222222,-0.6675157909,0.9260281961,174.4735283,-0.9217238407,0.08918173267,-0.09675537155,3.218311337e-08,
36311111,-0.6689317483,0.925877249,173.4322879,-0.9198010669,0.1058993744,-0.1151329111,3.214466013e-08,
36400000,-0.6729730261,0.9254465669,172.3921922,-0.9173003311,0.1225212258,-0.133567188,3.20099368e-08,
36488888,-0.6738782074,0.9253501285,171.3884489,-0.9149179291,0.1385570045,-0.1514420038,3.169727298e-08,
36577777,-0.6746714958,0.9252656195,170.3738515,-0.9122377175,0.1547217289,-0.1696068096,3.156360563e-08,
36666666,-0.6782678045,0.9248826015,169.3699453,-0.9090104336,0.1706102523,-0.1876878922,3.172727424e-08,
36755555,-0.6813074813,0.9245589902,168.3512608,-0.9055166311,0.1866787539,-0.2061571786,3.180513211e-08,
36844444,-0.6837786234,0.9242959899,167.323374,-0.9017654892,0.202835104,-0.2249311006,3.183670134e-08,
36933333,-0.6863711306,0.9240201533,166.3083096,-0.8977626962,0.2187130196,-0.2436200797,3.194817317e-08,
37022222,-0.6904864716,0.9235824598,165.2975423,-0.8933414763,0.2344047073,-0.2623909373,3.065192521e-08,
37111111,-0.6910797827,0.9235193744,164.2524625,-0.8888568311,0.250642312,-0.2819827708,3.218887591e-08,
37200000,-0.8299830843,0.9088680691,163.4469834,-0.8712014142,0.2589387243,-0.2972202755,3.391347478e-08,
37288888,-0.6928568191,0.9233304519,162.0833625,-0.8785536466,0.2840468507,-0.3233119022,3.470664776e-08,
37377777,-0.6943616578,0.9231704979,160.9559295,-0.8726434168,0.3012262194,-0.3451882104,3.39845168e-08,
37466666,-0.6939249355,0.9232169156,159.9449813,-0.8672365135,0.3165916973,-0.3650580809,2.985594897e-08,
37555555,-0.6999710009,0.9225745073,159.0786444,-0.8617505026,0.3294386025,-0.3822900034,2.788176626e-08,
37644444,-0.7060978612,0.9219239704,158.2450472,-0.8562622566,0.3416998025,-0.3990597505,2.751236843e-08,
37733333,-0.7089115011,0.9216253778,157.3448084,-0.8505124013,0.3549957636,-0.4173904614,2.877841352e-08,
37822222,-0.7128845324,0.9212039116,156.4099149,-0.8442207388,0.3686570099,-0.4366831954,3.034793069e-08,
37911111,-0.7157695512,0.9208979844,155.3916587,-0.8372578817,0.3834740374,-0.4580118573,3.172689763e-08,
38000000,-0.7186693086,0.9205905968,154.3659471,-0.829981986,0.398267435,-0.4798506976,3.230458765e-08,
38088888,-0.7160755638,0.9208655409,153.2904824,-0.8226061835,0.4138990351,-0.5031557547,3.150539541e-08,
38177777,-0.721552073,0.9202851122,152.2917626,-0.8147530609,0.4279043557,-0.5251951496,3.043325554e-08,
38266666,-0.722712785,0.920162141,151.3879381,-0.8077939479,0.4406441913,-0.5454908303,2.955493377e-08,
38355555,-0.7267518233,0.9197343545,150.4478923,-0.8000838137,0.4536266901,-0.5669739624,2.95888625e-08,
38444444,-0.7293724149,0.9194569063,149.4836222,-0.7920974568,0.4668860905,-0.5894301092,3.018587887e-08,
38533333,-0.7283893443,0.9195609765,148.5096966,-0.7841359245,0.4803365917,-0.6125680213,3.054219577e-08,
38622222,-0.7303473242,0.9193537117,147.5272893,-0.7756102392,0.4935990317,-0.636400871,2.949916269e-08,
38711111,-0.7340182894,0.9189652423,146.5393013,-0.766659821,0.5066851443,-0.6608995677,3.019291211e-08,
38800000,-0.7577305742,0.916459909,145.7489479,-0.7575268952,0.5158020627,-0.6809026399,3.077439731e-08,
38888888,-0.7377401995,0.9185715494,144.5679953,-0.748455855,0.5325293649,-0.7115040404,3.125395472e-08,
38977777,-0.7382505753,0.9185175764,143.5890325,-0.7392047509,0.5452071849,-0.737559092,3.163275419e-08,
39066666,-0.739579409,0.9183770654,142.6186762,-0.7297539508,0.5575621988,-0.764041357,3.029871075e-08,
39155555,-0.7432937045,0.9179844292,141.6623605,-0.7200385722,0.5694206413,-0.7908196355,3.045615854e-08,
39244444,-0.7457425891,0.9177256507,140.6835316,-0.7100059073,0.5814739733,-0.8189706133,3.076261386e-08,
39333333,-0.750706824,0.9172012941,139.6836134,-0.6993506848,0.5934364612,-0.8485534856,3.097101214e-08,
39422222,-0.7494144854,0.9173377709,138.6860254,-0.6890152755,0.6056125296,-0.8789537056,3.099408172e-08,
39511111,-0.7547517823,0.9167742593,137.7057454,-0.6781366164,0.6169325506,-0.9097467025,3.076982715e-08,
39600000,-0.7590532012,0.9163203675,136.7134063,-0.6670200249,0.6282732703,-0.9419106576,3.06559633e-08,
39688888,-0.7584172485,0.91638746,135.7467445,-0.6563737843,0.6394837231,-0.9742676176,3.065171922e-08,
39777777,-0.7619211049,0.9160178671,134.7605656,-0.6450100185,0.6504235612,-1.008392959,3.06025246e-08,
39866666,-0.7627113464,0.9159345317,133.7779397,-0.6337032529,0.6613291568,-1.043594386,3.05106297e-08,
39955555,-0.7722089029,0.9149335535,132.8013986,-0.6216600338,0.6712988975,-1.07984889,3.005544027e-08,
40044444,-0.7751147529,0.9146275152,131.8446211,-0.6101597536,0.6813578844,-1.116687688,2.991247358e-08,
40133333,-0.7802415248,0.9140878235,130.9183485,-0.5987118345,0.6907247558,-1.153684821,2.99758472e-08,
40222222,-0.7845002064,0.9136397571,129.933463,-0.5864631468,0.7005701844,-1.19456813,3.015945302e-08,
40311111,-0.7860954332,0.9134719759,128.9608361,-0.5743811619,0.7102938348,-1.236624531,3.007381448e-08,
40400000,-0.7972268087,0.9123020685,127.9978588,-0.5616423706,0.7189248304,-1.280040232,2.979380192e-08,
40488888,-0.7944627589,0.9125924302,127.0743343,-0.5501569381,0.7281155726,-1.323468854,2.870536649e-08,
40577777,-0.7976195112,0.9122608229,126.1096997,-0.5376255306,0.7370065114,-1.370854748,2.910070041e-08,
40666666,-0.8314979936,0.9087095669,125.3121029,-0.5252613993,0.7415210984,-1.41171824,2.959843775e-08,
40755555,-0.8092131622,0.9110439782,124.2228566,-0.5123832265,0.7533024356,-1.470193396,2.820912807e-08,
40844444,-0.8135930002,0.9105847024,123.2819999,-0.4996926548,0.7612304191,-1.523397256,2.895968179e-08,
40933333,-0.787760045,0.9132969299,122.6112851,-0.4922092388,0.7693122562,-1.562978091,2.839198221e-08,
41022222,-0.8265490862,0.9092274644,121.4843338,-0.4748580548,0.7753737227,-1.632853681,3.50576994e-08,
41111111,-0.8350700755,0.9083359359,120.5789668,-0.4620935658,0.7820126015,-1.692325233,3.296553815e-08,
41200000,-1.342146415,0.8568260843,118.6889201,-0.411322674,0.7516412686,-1.827376209,2.886939899e-08,
41288888,-0.8406201903,0.9077557123,118.7344992,-0.4364049767,0.7959718145,-1.823929279,2.3345891e-08,
41377777,-0.8485037775,0.9069321783,117.7874579,-0.4228054278,0.8023475222,-1.897675549,2.115765267e-08,
41466666,-0.9976098623,0.8914962217,117.2943927,-0.408806813,0.7922389178,-1.93792983,2.815756103e-08,
41555555,-0.8701540469,0.9046743929,116.0237448,-0.3969200919,0.8129515347,-2.048149114,2.744187072e-08,
41644444,-0.8793424111,0.9037178896,115.1111404,-0.3835157231,0.8183041696,-2.133691321,2.981240741e-08,
41733333,-0.9037566201,0.9011812952,114.4883793,-0.3735474651,0.8201158566,-2.195479647,2.827872022e-08,
41822222,-0.8974330039,0.901837624,113.2920843,-0.3566033798,0.8283387771,-2.322857337,2.883486018e-08,
41911111,-0.9074010559,0.9008032558,112.408672,-0.3433954846,0.8327821125,-2.425139962,2.938448288e-08,
42000000,-0.9143216882,0.9000858112,111.5374107,-0.3304292916,0.8372400795,-2.533794978,2.753353069e-08,
42088888,-0.929471867,0.898517224,110.6641929,-0.3170778935,0.8407108963,-2.651433334,2.76525324e-08,
42177777,-0.9392187815,0.8975095139,109.7589534,-0.3034154654,0.8446670248,-2.783862792,2.767000967e-08,
42266666,-0.9574465256,0.8956280232,108.8735397,-0.2897181673,0.8474744477,-2.925168468,2.753138007e-08,
42355555,-0.9648573815,0.8948641936,108.0055302,-0.2766103875,0.851039728,-3.076673062,2.73272207e-08,
42444444,-0.9748323909,0.8938371077,107.1358782,-0.2633590726,0.854158518,-3.243322926,2.716840699e-08,
42533333,-0.9865854853,0.8926284523,106.2554233,-0.249864455,0.8569441685,-3.429636154,2.706834026e-08,
42622222,-1.000680866,0.8911810779,105.4016426,-0.236683218,0.8591767966,-3.630070623,2.713182424e-08,
42711111,-1.01836096,0.8893689273,104.5417082,-0.2233069264,0.8608781013,-3.855133897,2.676278649e-08,
42800000,-1.02951915,0.8882271472,103.6516384,-0.2096376018,0.8631335591,-4.117264993,2.648974335e-08,
42888888,-1.045338408,0.8866109274,102.8483742,-0.1971572028,0.8644119237,-4.384379123,2.625041091e-08,
42977777,-1.059720099,0.885144133,102.0099453,-0.1841820948,0.865769653,-4.700617907,2.607990106e-08,
43066666,-1.073265791,0.8837648217,101.162531,-0.1710905122,0.8670457293,-5.067760438,2.625428615e-08,
43155555,-1.087271458,0.8823409328,100.3217707,-0.158094362,0.8680620337,-5.490784254,2.613521819e-08,
43244444,-1.102889663,0.8807558102,99.49177049,-0.1452418665,0.8686976444,-5.981041593,2.587961747e-08,
43333333,-1.116856884,0.8793406615,98.66368541,-0.1324588416,0.8693069966,-6.562846132,2.543651919e-08,
43422222,-1.132565476,0.8777517949,97.85082965,-0.1198960286,0.8695246723,-7.252322556,2.505892162e-08,
43511111,-1.149614302,0.876030617,97.07239293,-0.1078598005,0.8693652313,-8.060141288,2.462998285e-08,
43600000,-1.161499378,0.8748327466,96.27798426,-0.09566503972,0.8695864159,-9.089908063,2.440513874e-08,
43688888,-1.176820168,0.8732910145,95.50930592,-0.08384241939,0.8692569497,-10.3677465,2.42104759e-08,
43777777,-1.190981681,0.8718683569,94.72754607,-0.07185734292,0.8689021545,-12.09204403,2.398428698e-08,
43866666,-1.201935362,0.8707695462,93.97397462,-0.06034724176,0.8686758965,-14.39462469,2.3740147e-08,
43955555,-1.218289242,0.8691315951,93.2081592,-0.04863980876,0.8677694963,-17.84072591,2.329317433e-08,
44044444,-1.228587645,0.8681017221,92.47057109,-0.03742060043,0.8672948164,-23.1769348,2.26853161e-08,
44133333,-1.243629576,0.8665996737,91.75233528,-0.02649997025,0.8661944043,-32.68661799,2.242912975e-08,
44222222,-1.256498709,0.8653166585,91.07223146,-0.01619256425,0.8651651405,-53.4297797,2.192831507e-08,
44311111,-1.272376312,0.8637363248,90.31866377,-0.004803845115,0.8637229659,-179.7982544,2.225516893e-08,
44400000,-1.284377078,0.8625437768,89.67887205,0.004834308309,0.8625302292,178.4185398,2.271210255e-08,
44488888,-1.290058683,0.861979755,88.88818351,0.01672554547,0.8618174715,51.52701734,2.288260782e-08,
44577777,-1.300167701,0.8609771289,88.15353064,0.02774188137,0.8605300718,31.01916775,2.326493677e-08,
44666666,-1.306462247,0.8603534165,87.42015383,0.03872588102,0.8594814177,22.19397971,2.295354143e-08,
44755555,-1.3148386,0.8595241232,86.69049235,0.04962006183,0.8580906524,17.29322014,2.284795053e-08,
44844444,-1.322670068,0.8587494988,85.94713143,0.06069377547,0.8566019889,14.11350641,2.273055841e-08,
44933333,-1.332923782,0.857736341,85.23436519,0.07126086059,0.854771034,11.99495806,2.262943872e-08,
45022222,-1.339937393,0.8570440227,84.51132352,0.08197542752,0.8531145797,10.40695493,2.26001204e-08,
45111111,-1.347954757,0.8562533076,83.78768159,0.09265781845,0.8512251497,9.186760103,2.270996092e-08,
45200000,-1.355518362,0.8555080135,83.05444945,0.1034532048,0.8492298838,8.208831093,2.262272218e-08,
45288888,-1.360894734,0.8549786369,82.32920394,0.114123454,0.8473277446,7.424659132,2.256851182e-08,
45377777,-1.369174428,0.8541640297,81.62092227,0.1244702973,0.8450463506,6.789140611,2.268199311e-08,
45466666,-1.381401417,0.8529624825,80.89351939,0.1349981594,0.8422116679,6.238690007,2.314237732e-08,
45555555,-1.384328891,0.8526750502,80.14316829,0.145966749,0.8400883581,5.75534061,2.405118283e-08,
45644444,-1.389961349,0.8521223032,79.36529593,0.1572563429,0.837486037,5.325610538,2.366050596e-08,
45733333,-1.391352572,0.8519858293,78.53683994,0.1693218089,0.834991005,4.931384861,2.256428859e-08,
45822222,-1.400722115,0.8510672805,77.91099788,0.1782397647,0.8321935485,4.668955606,2.022400806e-08,
45911111,-1.410520536,0.8501077456,77.26002663,0.1874714975,0.829178881,4.422959715,2.025984555e-08,
46000000,-1.428019083,0.848396847,76.76785725,0.1941955005,0.8258724585,4.252788845,2.143791609e-08,
46088888,-1.428823874,0.8483182425,75.86683091,0.2071393278,0.8226403463,3.971434854,2.225130572e-08,
46177777,-1.438191997,0.8474037863,75.17752487,0.2167870645,0.8192048253,3.778845509,2.284424026e-08,
46266666,-1.446866663,0.8465579,74.4950195,0.2263036692,0.8157493042,3.604666717,2.157692447e-08,
46355555,-1.456691692,0.8456008588,73.79867995,0.2359338273,0.8120197298,3.441726603,2.16324752e-08,
46444444,-1.466507996,0.8446457481,73.10394115,0.2454847806,0.8081854133,3.292201706,2.151495109e-08,
46533333,-1.473960477,0.8439213541,72.41186369,0.255009839,0.8044707788,3.154665647,2.153576058e-08,
