Frequency,S11_Magnitude,S11_Magnitude (linear),S11_Phase,S11_Real,S11_Imaginary,S11_Quality Factor,S11_Group delay,
30000000,-0.7920798597,0.9128428264,-114.1462463,-0.373413988,-0.8329730004,-2.230695761,3.153276929e-08,
30088888,-0.7145324676,0.9210291522,-115.6505117,-0.3986956814,-0.8302628818,-2.082447642,3.153276929e-08,
30177777,-0.7081029083,0.9217111784,-116.5437478,-0.411895217,-0.8245567455,-2.001860453,3.153276929e-08,
30266666,-0.6989745953,0.9226803469,-117.426397,-0.4249946558,-0.818974093,-1.927022097,2.753403978e-08,
30355555,-0.6945360083,0.9231519674,-118.3035531,-0.4377058668,-0.8127872594,-1.856925669,2.763036081e-08,
30444444,-0.6877456106,0.9238739453,-119.1760609,-0.4503838329,-0.8066582112,-1.791046108,2.775021527e-08,
30533333,-0.6839955451,0.9242729068,-120.0897791,-0.463390134,-0.7997186943,-1.725800002,2.797372803e-08,
30622222,-0.6757481576,0.9251509351,-120.973324,-0.4761186924,-0.7932308891,-1.666036015,4.906509035e-08,
30711111,-0.6715100505,0.9256024542,-121.8807236,-0.4888594166,-0.7859747923,-1.607772635,3.866817284e-08,
30800000,-0.487174241,0.9454559252,-126.131013,-0.5574725981,-0.7636171874,-1.369784255,2.847239739e-08,
30888888,-0.6642749267,0.9263737786,-123.69785,-0.5139644086,-0.7707197703,-1.499558642,1.910960574e-08,
30977777,-0.6575103179,0.9270955235,-124.6203501,-0.5267164045,-0.7629390139,-1.448481588,8.502837906e-09,
31066666,-0.7038770882,0.9221597143,-125.6935614,-0.5380340392,-0.7489311793,-1.391977319,2.908044036e-08,
31155555,-0.6516233988,0.9277240816,-126.493613,-0.5517482879,-0.7458188778,-1.351737548,2.859643774e-08,
31244444,-0.6446666277,0.9284674194,-127.4140948,-0.5641101087,-0.7374493434,-1.307279079,2.816014682e-08,
31333333,-0.6409978296,0.9288596738,-128.3355191,-0.5761395315,-0.7285901001,-1.264607027,2.9140657e-08,
31422222,-0.6370037104,0.9292868989,-129.2782375,-0.5883193631,-0.7193430805,-1.222708491,2.916841811e-08,
31511111,-0.633253263,0.9296882388,-130.2240526,-0.6003724632,-0.7098402121,-1.182333061,2.948388364e-08,
31600000,-0.659976046,0.9268323794,-131.1367808,-0.6097248898,-0.6980356856,-1.144837118,2.971964966e-08,
31688888,-0.6283396065,0.9302143174,-132.1236747,-0.6239255772,-0.6899388019,-1.105803043,3.003179093e-08,
31777777,-0.6255149925,0.9305168683,-133.0835763,-0.6356029897,-0.6796105367,-1.069237476,3.025715859e-08,
31866666,-0.6262199852,0.9304413457,-134.0556934,-0.6469891484,-0.6686749133,-1.033517973,3.020486689e-08,
31955555,-0.6238049114,0.9307000868,-135.0119229,-0.6582412757,-0.6579673811,-0.9995838993,3.031039331e-08,
32044444,-0.6223037813,0.930860948,-135.9922862,-0.6695182659,-0.6467204932,-0.9659489907,3.031316576e-08,
32133333,-0.619782364,0.9311312058,-136.9649489,-0.6805976426,-0.6354464347,-0.9336594706,3.045438093e-08,
32222222,-0.6187304976,0.9312439732,-137.9292929,-0.6912796342,-0.6239774075,-0.9026410973,3.04281793e-08,
32311111,-0.6164283486,0.9314908272,-138.9161266,-0.7021097097,-0.6121414189,-0.8718600674,3.054680851e-08,
32400000,-0.6059728083,0.9326127738,-139.8852121,-0.7132204024,-0.6009020248,-0.8425193991,3.064459848e-08,
32488888,-0.6182769129,0.9312926049,-140.8744848,-0.7224646496,-0.5876655052,-0.8134176607,3.074446466e-08,
32577777,-0.6174516526,0.9313810927,-141.8532557,-0.7324672962,-0.5752933162,-0.7854184333,3.089145373e-08,
32666666,-0.6157071049,0.9315681779,-142.8511699,-0.7425246357,-0.5625623836,-0.757634638,3.09665658e-08,
32755555,-0.6178536685,0.9313379858,-143.8395083,-0.7519319028,-0.5495351284,-0.7308309786,3.110406422e-08,
32844444,-0.6190104846,0.9312139553,-144.8360152,-0.7612739947,-0.5363033989,-0.7044814385,3.109811733e-08,
32933333,-0.6193424811,0.9311783627,-145.8374896,-0.7705018394,-0.5228958391,-0.6786432068,3.11496963e-08,
33022222,-0.6205072177,0.9310535045,-146.8278843,-0.7793203651,-0.5094314445,-0.6536868113,3.140929787e-08,
33111111,-0.6214979515,0.9309473123,-147.8275314,-0.787999536,-0.4957011494,-0.6290627428,3.150563425e-08,
33200000,-0.6202444106,0.9310816756,-148.8664882,-0.796973161,-0.4814009422,-0.6040365796,3.164624473e-08,
33288888,-0.6222483105,0.9308668928,-149.8590954,-0.8050073234,-0.4674145712,-0.5806339366,3.178409608e-08,
33377777,-0.6225971971,0.9308295034,-150.8755078,-0.8131393766,-0.4530429546,-0.5571528911,3.170538589e-08,
33466666,-0.6229837803,0.9307880758,-151.9084262,-0.8211376341,-0.4382914875,-0.5337612956,3.183287032e-08,
33555555,-0.6236032941,0.9307216905,-152.9146909,-0.8286490512,-0.4237730704,-0.5114023479,3.186795521e-08,
33644444,-0.6249545374,0.9305769116,-153.9327695,-0.83591774,-0.4089192102,-0.4891859457,3.17505267e-08,
33733333,-0.6253111542,0.9305387057,-154.9622153,-0.8430949481,-0.393818729,-0.4671107684,3.189556714e-08,
33822222,-0.628347651,0.9302134559,-155.9647546,-0.8495593738,-0.3788745755,-0.4459659762,3.192453891e-08,
33911111,-0.6285354408,0.9301933448,-157.0019955,-0.8562601464,-0.3634256738,-0.4244337136,3.195776326e-08,
34000000,-0.6334245279,0.9296699077,-158.020812,-0.8621013731,-0.3479473522,-0.403603756,3.227636901e-08,
34088888,-0.630546386,0.9299780126,-159.0474351,-0.8684848896,-0.3325554096,-0.3829144451,3.242847363e-08,
34177777,-0.6317762479,0.9298463435,-160.1062602,-0.874358053,-0.316405148,-0.3618713717,3.276582414e-08,
34266666,-0.6296830392,0.9300704538,-161.1477753,-0.8801769394,-0.3005322018,-0.3414452121,3.138197141e-08,
34355555,-0.6214409953,0.9309534168,-162.2131803,-0.8864535547,-0.284384176,-0.3208111406,3.189661637e-08,
34444444,-0.5969148364,0.9335858447,-163.0150968,-0.8928644727,-0.2727188348,-0.3054425875,3.269985205e-08,
34533333,-0.641976834,0.9287549861,-164.2760645,-0.8939996911,-0.2516950069,-0.2815381363,3.343409955e-08,
34622222,-0.6327501248,0.9297420934,-165.3483161,-0.8995081788,-0.2351709941,-0.2614439753,3.425801747e-08,
34711111,-0.6380258365,0.92917755,-166.3960333,-0.9031092127,-0.2185512967,-0.2419987457,3.294929566e-08,
34800000,-0.6389659201,0.9290769895,-167.436402,-0.9068303887,-0.2020957658,-0.2228594986,3.289048831e-08,
34888888,-0.6398563092,0.9289817548,-168.5039154,-0.9103448261,-0.185146964,-0.203381135,3.341439886e-08,
34977777,-0.6411329645,0.9288452228,-169.5568597,-0.9134591543,-0.1683621731,-0.1843127547,3.420185013e-08,
35066666,-0.6424822779,0.9287009421,-170.6820548,-0.9164467826,-0.1503686617,-0.164077898,3.427817978e-08,
35155555,-0.6417162489,0.92878285,-171.8196352,-0.9193325323,-0.1321562616,-0.143752404,3.333903091e-08,
35244444,-0.6447659742,0.9284567999,-172.8570433,-0.9212510379,-0.1154493587,-0.1253180229,3.184961422e-08,
35333333,-0.6518908549,0.9276955156,-173.8036171,-0.9222757143,-0.1001322947,-0.1085708895,3.10464861e-08,
35422222,-0.6540270599,0.9274673865,-174.7860085,-0.9236297459,-0.08428431311,-0.09125335502,3.183350604e-08,
35511111,-0.6566367562,0.9271887686,-175.8225966,-0.924725491,-0.06754094182,-0.0730389099,3.233374435e-08,
35600000,-0.6498206511,0.9279166498,-176.9409209,-0.9265944048,-0.04951886561,-0.05344179218,3.257668908e-08,
35688888,-0.6610908196,0.9267134345,-177.8995665,-0.926090791,-0.0339652247,-0.03667591237,3.222138153e-08,
35777777,-0.6640327467,0.9263996081,-178.9598003,-0.9262469413,-0.01681777697,-0.01815690419,3.20438602e-08,
35866666,-0.6646871575,0.9263298141,-179.9685263,-0.9263296743,-0.0005088504611,-0.0005493189684,3.253663725e-08,
35955555,-0.667827989,0.9259949123,178.966535,-0.9258442817,0.0167016045,-0.01803932349,3.288052871e-08,
36044444,-0.6723975656,0.925507882,177.9313974,-0.9249047508,0.03340720919,-0.03611962114,3.265475225e-08,
36133333,-0.6754261214,0.9251852364,176.8293466,-0.9237689857,0.05117208893,-0.0553948982,3.234764375e-08,
36222222,-0.6769193086,0.9250262019,175.8753009,-0.922630263,0.06653474282,-0.07211419947,3.210176584e-08,
36311111,-0.6792070522,0.9247825949,174.8189538,-0.9210042346,0.08351076397,-0.09067359393,3.188784608e-08,
36400000,-0.6837153399,0.9243027241,173.8003049,-0.9188969754,0.09981920874,-0.10862938,3.214185647e-08,
36488888,-0.6866626888,0.9239891373,172.7647829,-0.9166318528,0.1163699801,-0.1269538907,3.190720792e-08,
36577777,-0.6895385149,0.9236832628,171.7596829,-0.9141468083,0.1323872455,-0.1448205521,3.183798915e-08,
36666666,-0.6939648514,0.923212673,170.7341625,-0.911166499,0.1486514402,-0.1631441019,3.18347643e-08,
36755555,-0.6977743092,0.9228078591,169.7215305,-0.9079987846,0.1646588957,-0.1813426389,3.190231819e-08,
36844444,-0.7004348299,0.9225252429,168.6902905,-0.90461113,0.1809185652,-0.1999959531,3.174635619e-08,
36933333,-0.7040943534,0.922136648,167.6772417,-0.9008914311,0.1968009832,-0.2184513876,3.176550023e-08,
37022222,-0.7094238361,0.9215710176,166.6768836,-0.8967678352,0.2123689952,-0.2368160263,3.901369308e-08,
37111111,-0.711662265,0.9213335513,165.6457475,-0.8925708238,0.2284137415,-0.2559054536,3.561356619e-08,
37200000,-0.4030961077,0.9546522371,163.4638389,-0.9151681003,0.2717135292,-0.2969001314,3.222737219e-08,
37288888,-0.7184267249,0.9206163079,163.5855863,-0.8830946722,0.2601503147,-0.2945893831,2.860735881e-08,
37377777,-0.7225069618,0.9201839457,162.5505782,-0.8778389475,0.2759298391,-0.3143285449,2.552648711e-08,
37466666,-0.7249763562,0.919922375,161.5252462,-0.8725126822,0.2915112268,-0.3341054323,3.373494168e-08,
37555555,-0.728264119,0.919574234,160.4097659,-0.8663443261,0.3083249593,-0.3558919358,3.393223716e-08,
37644444,-0.7290043845,0.9194958655,159.2583951,-0.8599006819,0.3256431543,-0.378698565,3.2913191e-08,
37733333,-0.7317841182,0.9192016475,158.254839,-0.8537920357,0.3405448995,-0.3988616493,3.150053224e-08,
37822222,-0.7379488955,0.9185494791,157.3365925,-0.8476230966,0.3539325241,-0.4175588485,3.056251845e-08,
37911111,-0.7422330336,0.918096535,156.3305757,-0.8408634645,0.3685781895,-0.4383329816,3.106588689e-08,
38000000,-0.7460647185,0.9176916161,155.3305177,-0.8339344701,0.3830289832,-0.4593034548,3.220165615e-08,
38088888,-0.7477705969,0.9175114024,154.2873283,-0.8266604236,0.3980699908,-0.4815399159,3.275837771e-08,
38177777,-0.7503026728,0.9172439721,153.2059447,-0.8187618667,0.4134797577,-0.5050061252,3.336455588e-08,
38266666,-0.7513791494,0.9171303015,152.1515741,-0.8109142072,0.4284228501,-0.5283208092,3.366046345e-08,
38355555,-0.7551150442,0.9167359187,151.0600591,-0.8022607378,0.443601683,-0.5529395396,3.379851863e-08,
38444444,-0.7585492842,0.9163735299,149.9745902,-0.7933994798,0.4585386699,-0.5779417325,3.391407763e-08,
38533333,-0.758936702,0.9163326577,148.8866669,-0.7845153287,0.473498932,-0.6035559978,3.390579912e-08,
38622222,-0.7637713502,0.9158227602,147.812011,-0.7750652487,0.4878577542,-0.6294408826,3.312622653e-08,
38711111,-0.7686830109,0.915305031,146.7164141,-0.7651626143,0.5023041642,-0.6564672069,3.275619426e-08,
38800000,-0.7770456583,0.9144242127,145.7595138,-0.7559391251,0.5145169385,-0.6806327671,3.222870572e-08,
38888888,-0.7754229589,0.9145950616,144.6719179,-0.7461762862,0.5288715124,-0.7087755564,3.183490221e-08,
38977777,-0.7791232197,0.9142055195,143.6776598,-0.7365729998,0.5415089546,-0.735173506,3.199809692e-08,
39066666,-0.7851553033,0.9135708523,142.6638077,-0.7263715373,0.5540722804,-0.7627945918,3.159175333e-08,
39155555,-0.7912760439,0.9129273073,141.643867,-0.7158891047,0.5665148349,-0.7913444012,3.150396224e-08,
39244444,-0.7963309639,0.9123961663,140.6341275,-0.7053839733,0.5787056372,-0.8204122281,3.150866783e-08,
39333333,-0.8012823952,0.9118761989,139.6518596,-0.6949633039,0.5903763278,-0.8495071962,3.145373179e-08,
39422222,-0.8045847585,0.9115295707,138.6184182,-0.6839421632,0.6025854925,-0.8810474408,3.142965139e-08,
39511111,-0.8137415231,0.9105691321,137.6191182,-0.672619478,0.6137745369,-0.9125137719,3.111775884e-08,
39600000,-0.8166692107,0.9102622652,136.6217476,-0.6616108512,0.6251787528,-0.9449342489,3.071277027e-08,
39688888,-0.8243480663,0.9094578935,135.6713473,-0.6505746815,0.6355047158,-0.9768359174,3.065489674e-08,
39777777,-0.8303162209,0.9088332112,134.6782543,-0.6390232425,0.6462407456,-1.011294586,3.085189067e-08,
39866666,-0.8346738251,0.9083773751,133.6861305,-0.6274229593,0.6568788973,-1.046947498,3.114693287e-08,
39955555,-0.84591399,0.9072026298,132.6780474,-0.6149727413,0.6669521265,-1.084523072,3.119603471e-08,
40044444,-0.8498543394,0.9067911712,131.6879353,-0.6030824342,0.6771719173,-1.122851337,3.116597604e-08,
40133333,-0.8550955688,0.9062441613,130.6859801,-0.590792236,0.6871993989,-1.163182854,3.124371326e-08,
40222222,-0.8654624298,0.9051631779,129.6956017,-0.5781356442,0.696476529,-1.204693978,3.121696932e-08,
40311111,-0.8714285307,0.9045416594,128.6752138,-0.5652525904,0.7061764105,-1.249311233,3.153642415e-08,
40400000,-0.8853874893,0.903089152,127.6985971,-0.5522459403,0.7145589115,-1.293914286,3.19511327e-08,
40488888,-0.884797674,0.9031504784,126.6386482,-0.5389697432,0.7247015955,-1.344605341,3.092964897e-08,
40577777,-0.8914291792,0.902461204,125.6016968,-0.5253651278,0.7337763332,-1.396697829,3.137152241e-08,
40666666,-0.9228635012,0.8992010906,124.7749696,-0.5128636433,0.738602386,-1.440153529,3.120628224e-08,
40755555,-0.9113985125,0.9003887797,123.6109866,-0.4984113375,0.749857382,-1.504495034,2.907025422e-08,
40844444,-0.9203817116,0.8994580529,122.640992,-0.485143726,0.7574036929,-1.561194451,3.093347034e-08,
40933333,-0.9794335953,0.8933637379,122.0174392,-0.4736412286,0.7574712897,-1.599251171,3.131174431e-08,
41022222,-0.9432443687,0.8970936479,120.6223819,-0.4569594225,0.7719877585,-1.689401116,3.718651646e-08,
41111111,-0.9520441234,0.8961852543,119.6104063,-0.4428049365,0.7791481234,-1.759574158,3.561513698e-08,
41200000,-1.393416991,0.8517833576,117.8946583,-0.3985046456,0.7528140114,-1.889097203,3.141220317e-08,
41288888,-0.9768383669,0.893630703,117.6828719,-0.415160578,0.7913390726,-1.906103601,3.416602059e-08,
41377777,-0.985479732,0.8927420952,116.5601903,-0.3991786576,0.7985266732,-2.000424266,2.947588993e-08,
41466666,-0.9260026655,0.8988761693,114.8111317,-0.3771940062,0.8159062749,-2.163094486,3.16673723e-08,
41555555,-1.019363717,0.8892662584,114.6143801,-0.3703873823,0.808460058,-2.182741898,2.745471896e-08,
41644444,-1.034519698,0.8877159336,113.588991,-0.3552399063,0.8135380678,-2.29010889,2.613773521e-08,
41733333,-1.08016656,0.8830629667,112.7785001,-0.3418951666,0.8141915611,-2.381407053,3.1953311e-08,
41822222,-1.067832928,0.8843177731,111.5470289,-0.3247787882,0.8225184877,-2.532549901,3.208794562e-08,
41911111,-1.085602648,0.8825104722,110.5228251,-0.309390961,0.8264998286,-2.671376778,3.347061368e-08,
42000000,-1.107273943,0.8803113531,109.5827508,-0.2950521457,0.8293927355,-2.811003911,3.334243974e-08,
42088888,-1.121931135,0.8788271054,108.4053342,-0.2774785639,0.8338721291,-3.005176751,3.34543833e-08,
42177777,-1.138711356,0.8771309432,107.2709773,-0.2604124664,0.837582258,-3.216367747,3.213426924e-08,
42266666,-1.166771356,0.8743019202,106.3260641,-0.2457691538,0.8390478954,-3.413967466,3.005882435e-08,
42355555,-1.191712341,0.8717950182,105.4808964,-0.232696969,0.8401658612,-3.61055782,2.938902364e-08,
42444444,-1.216386822,0.8693219768,104.4909567,-0.2175279988,0.8416663644,-3.869232325,3.035569129e-08,
42533333,-1.242184223,0.8667438901,103.4862813,-0.2021355404,0.8428441103,-4.169697762,3.146859946e-08,
42622222,-1.269685471,0.864003947,102.4664549,-0.1865107895,0.843632945,-4.523239364,3.168412274e-08,
42711111,-1.300265306,0.860967454,101.4581651,-0.1710332359,0.8438083841,-4.933593049,3.15493797e-08,
42800000,-1.328366391,0.858186504,100.4355489,-0.1554427741,0.8439914807,-5.429596106,3.142954637e-08,
42888888,-1.361072935,0.8549610963,99.45382724,-0.1404297006,0.8433492606,-6.005490697,3.158243197e-08,
42977777,-1.394497521,0.8516774018,98.43989016,-0.1250021733,0.8424540661,-6.739515351,3.178572885e-08,
43066666,-1.428540469,0.848345922,97.40285585,-0.1093051518,0.8412747394,-7.696569883,3.198713326e-08,
43155555,-1.46616201,0.8446793936,96.37531158,-0.09379380217,0.8394557765,-8.950013296,3.17407525e-08,
43244444,-1.50588363,0.8408253921,95.36816881,-0.07866359221,0.8371376107,-10.64199571,3.151726329e-08,
43333333,-1.545590715,0.8369903758,94.37870694,-0.06390294635,0.8345473639,-13.05960697,3.137872813e-08,
43422222,-1.58926998,0.8327919164,93.35838975,-0.04878611669,0.8313617088,-17.04094864,3.118070153e-08,
43511111,-1.635963686,0.828326996,92.35959834,-0.03410315002,0.8276246658,-24.26827625,3.093084733e-08,
43600000,-1.68219699,0.8239296857,91.38880463,-0.0199694519,0.8236876519,-41.24738406,3.069415508e-08,
43688888,-1.731736585,0.8192438139,90.41455774,-0.00592750287,0.8192223699,-138.2069968,3.008752771e-08,
43777777,-1.782122021,0.8145052706,89.41983909,0.008247309733,0.8144635153,98.75505366,2.919607067e-08,
43866666,-1.835489995,0.809516118,88.53012481,0.02076517947,0.8092497467,38.97147857,2.800260706e-08,
43955555,-1.896750631,0.8038267755,87.65964394,0.03282471743,0.803156288,24.46803357,2.677691791e-08,
44044444,-1.953724042,0.7985714838,86.81423258,0.04437940054,0.7973373712,17.96638444,2.594038806e-08,
44133333,-2.016202095,0.7928479275,85.99347299,0.05539637479,0.7909102842,14.27729319,2.531624312e-08,
44222222,-2.076870488,0.7873294121,85.21274301,0.06570753174,0.7845827703,11.94053025,2.47676191e-08,
44311111,-2.143377914,0.7813238912,84.40978477,0.07611105497,0.7776079541,10.21675438,2.444942633e-08,
44400000,-2.193919105,0.7767907489,83.64325268,0.08600526455,0.7720148716,8.976367617,2.4149148e-08,
44488888,-2.273230623,0.7697300983,82.86630505,0.09558895815,0.7637716774,7.990166356,2.356165207e-08,
44577777,-2.339051075,0.7639192364,82.12061436,0.104724285,0.7567069604,7.225706627,2.299865723e-08,
44666666,-2.403900689,0.7582369869,81.4012773,0.1133665149,0.7497141866,6.613188977,2.227458218e-08,
44755555,-2.46838082,0.7526290184,80.6959768,0.1216798784,0.7427277068,6.103948462,2.138447076e-08,
44844444,-2.53632131,0.7467649649,80.01468623,0.129485866,0.7354531415,5.679794746,2.049514183e-08,
44933333,-2.603140141,0.7410422897,79.39239029,0.1364124704,0.7283785506,5.339530531,1.966225624e-08,
45022222,-2.666942261,0.7356189136,78.77384376,0.1432118712,0.7215438629,5.038296455,1.903424931e-08,
45111111,-2.729603986,0.73033111,78.17043311,0.149718724,0.7148201409,4.774420473,1.844381853e-08,
45200000,-2.789767788,0.725289868,77.58018112,0.1559903764,0.7083165924,4.540771095,1.764282576e-08,
45288888,-2.849631955,0.7203082721,77.03820696,0.1615660517,0.701954712,4.344691875,1.696711114e-08,
45377777,-2.906471286,0.7156100575,76.51710118,0.1668481548,0.6958875252,4.170783464,1.681673716e-08,
45466666,-2.960679258,0.7111578972,75.98726244,0.1721980652,0.6899952037,4.006985808,1.641194516e-08,
45555555,-3.01118132,0.7070350342,75.41497207,0.1780430705,0.6842508346,3.843175883,1.604944802e-08,
45644444,-3.061990952,0.7029111824,74.963357,0.1823609865,0.6788435762,3.722526342,1.698754698e-08,
45733333,-3.106766526,0.6992970138,74.46113901,0.1873360051,0.6737369923,3.596409521,1.603285325e-08,
45822222,-3.14487784,0.696235411,73.74616806,0.1948715721,0.6684076734,3.429990666,1.364114578e-08,
45911111,-3.192017695,0.6924670536,73.45830682,0.1971543629,0.6638077866,3.366944443,1.27482289e-08,
46000000,-3.237286101,0.6888674988,73.28218705,0.1981584453,0.6597512118,3.329412536,1.227983438e-08,
46088888,-3.272530182,0.6860779962,72.65341034,0.2045549317,0.6548742603,3.201459163,1.424941048e-08,
46177777,-3.308036999,0.6832791208,72.18384034,0.2090586972,0.6505111975,3.111619876,1.551413834e-08,
46266666,-3.341689231,0.6806369756,71.72759729,0.213403593,0.6463169494,3.02861325,1.442322007e-08,
46355555,-3.374859651,0.6780426576,71.26282833,0.217805909,0.6421078037,2.948073386,1.445476045e-08,
46444444,-3.406118889,0.6756068676,70.80619825,0.2221155421,0.6380511935,2.872609397,1.460269707e-08,
46533333,-3.434083259,0.6734352374,70.3317753,0.2266601737,0.6341452394,2.797779729,1.503090853e-08,
