Frequency,S11_Magnitude,S11_Magnitude (linear),S11_Phase,S11_Real,S11_Imaginary,S11_Quality Factor,S11_Group delay,
30000000,-0.7759695062,0.9145375138,-115.1204959,-0.388242517,-0.8280378084,-2.132784979,3.303531867e-08,
30088888,-0.7614025851,0.9160725521,-116.9340979,-0.4149491292,-0.8167044391,-1.968203767,3.303531867e-08,
30177777,-0.7545017767,0.9168006471,-117.806356,-0.4276735366,-0.810936972,-1.896158875,3.303531867e-08,
30266666,-0.7427152436,0.9180455669,-118.6761631,-0.4405320012,-0.8054434921,-1.828342754,2.702825702e-08,
30355555,-0.7383184048,0.9185104036,-119.5351209,-0.4527861088,-0.7991533653,-1.764968823,2.71718457e-08,
30444444,-0.7308596786,0.9192994834,-120.394242,-0.465116891,-0.7929551172,-1.704851259,2.722766626e-08,
30533333,-0.7266756221,0.9197424234,-121.2948174,-0.4777526789,-0.7859252529,-1.64504625,2.736450294e-08,
30622222,-0.7179977791,0.9206617729,-122.1527469,-0.4899561447,-0.779462043,-1.590881248,1.679089798e-08,
30711111,-0.7118390297,0.9213148017,-123.0341943,-0.502245053,-0.7723800039,-1.537854876,2.227453315e-08,
30800000,-1.322679558,0.8587485606,-122.2111005,-0.4577475115,-0.7265784927,-1.587290972,2.802110495e-08,
30888888,-0.6988077715,0.9226980683,-124.8295703,-0.5269872711,-0.757400912,-1.437228096,3.304201562e-08,
30977777,-0.6899462992,0.9236398988,-125.7384413,-0.5394850687,-0.7497109599,-1.389678795,3.882355546e-08,
31066666,-0.7359376715,0.9187621945,-126.5571936,-0.5472376521,-0.7380073998,-1.348604938,2.856197294e-08,
31155555,-0.6809052896,0.924601802,-127.5590656,-0.5636178088,-0.7329552905,-1.300447358,2.921877502e-08,
31244444,-0.6740255614,0.9253344303,-128.4891796,-0.575897455,-0.724283045,-1.257659743,2.962268234e-08,
31333333,-0.6648280859,0.9263147845,-129.4474581,-0.5885529501,-0.7153072801,-1.21536606,2.909848026e-08,
31422222,-0.6629524256,0.9265148377,-130.3526324,-0.5999091846,-0.7060727403,-1.176966045,2.735296813e-08,
31511111,-0.6580978188,0.9270328183,-131.2831018,-0.6116377778,-0.6966269266,-1.1389534,2.81073763e-08,
31600000,-0.6048399706,0.9327344156,-131.9478381,-0.6234898391,-0.6937246648,-1.112647907,2.922152943e-08,
31688888,-0.6486617794,0.9280404608,-133.1470411,-0.634661835,-0.6770992926,-1.066866251,3.036097827e-08,
31777777,-0.645538606,0.928374215,-134.0961133,-0.6460222692,-0.666733763,-1.032060031,3.147852862e-08,
31866666,-0.6431154775,0.9286332425,-135.0666722,-0.6574065204,-0.6558783164,-0.9976754048,3.007380419e-08,
31955555,-0.6397282602,0.9289954501,-136.0245934,-0.6685403412,-0.645047563,-0.9648595953,3.020120139e-08,
32044444,-0.6372842244,0.9292568877,-136.9946157,-0.6795559055,-0.6338155367,-0.9326907935,3.015933905e-08,
32133333,-0.6334156625,0.9296708566,-137.9643398,-0.6904927832,-0.6225010988,-0.901531651,3.020387133e-08,
32222222,-0.6324173601,0.9297777134,-138.9222993,-0.7008842765,-0.6109401175,-0.8716704568,3.003832313e-08,
32311111,-0.6260692404,0.9304574938,-139.8933771,-0.7116575674,-0.5994119238,-0.8422757675,3.021257544e-08,
32400000,-0.6258620717,0.9304796865,-140.8362348,-0.7214418785,-0.5876342936,-0.8145275609,3.041269677e-08,
32488888,-0.624191371,0.9306586783,-141.8413902,-0.7317801047,-0.5749986556,-0.7857533321,3.07072877e-08,
32577777,-0.6224020531,0.9308504164,-142.8143303,-0.7415909432,-0.5626058751,-0.7586471764,3.088769154e-08,
32666666,-0.6208671092,0.9310149279,-143.8174462,-0.7514594918,-0.5496339038,-0.7314218661,3.072804021e-08,
32755555,-0.6190352297,0.9312113024,-144.7902436,-0.7608431502,-0.5369098533,-0.7056774491,3.073654959e-08,
32844444,-0.6178088322,0.9313427934,-145.7699261,-0.7700206516,-0.5238965498,-0.6803668821,3.076332799e-08,
32933333,-0.6178591189,0.9313374014,-146.7559444,-0.7789175506,-0.5105651816,-0.6554803923,3.086960045e-08,
33022222,-0.6189247594,0.931223146,-147.7567344,-0.7876197235,-0.4968216167,-0.630788694,3.096991323e-08,
33111111,-0.6168341784,0.9314473063,-148.7359817,-0.7961871104,-0.483404768,-0.6071497035,3.10684661e-08,
33200000,-0.6170255992,0.9314267792,-149.7350998,-0.8044774689,-0.4694377987,-0.5835313192,3.124600072e-08,
33288888,-0.6167746947,0.9314536852,-150.7377225,-0.8125920765,-0.4553021907,-0.5603084301,3.157399371e-08,
33377777,-0.6158169627,0.9315563957,-151.7552304,-0.8206396483,-0.4408490513,-0.5372017452,3.161214417e-08,
33466666,-0.6151148868,0.9316316959,-152.7777049,-0.8284427147,-0.4261693152,-0.5144221896,3.144508686e-08,
33555555,-0.6145018617,0.9316974501,-153.773058,-0.8357798153,-0.4117429282,-0.4926452167,3.120992649e-08,
33644444,-0.6141453324,0.9317356943,-154.7600289,-0.8427826982,-0.3973018091,-0.4714166652,3.137159566e-08,
33733333,-0.6149815971,0.9316459924,-155.7576629,-0.849490622,-0.3825309639,-0.4503062823,3.163267037e-08,
33822222,-0.615361235,0.9316052735,-156.8048641,-0.856302482,-0.3669256668,-0.4285000622,3.161316647e-08,
33911111,-0.6144587642,0.931702073,-157.811874,-0.8627084807,-0.3518562636,-0.4078507068,3.164201085e-08,
34000000,-0.6188742827,0.9312285577,-158.7910362,-0.8681538537,-0.336890951,-0.3880544324,3.165358009e-08,
34088888,-0.6158703466,0.9315506703,-159.8273048,-0.8744069965,-0.3212460985,-0.3673873835,3.204917474e-08,
34177777,-0.6108678188,0.9320873396,-160.8617278,-0.8805709914,-0.3055839291,-0.3470292936,3.24201366e-08,
34266666,-0.6124931237,0.9319129436,-161.9043449,-0.8858198663,-0.2894562124,-0.3267664493,3.154710723e-08,
34355555,-0.6088609007,0.9323027279,-162.9397445,-0.8912783804,-0.2735164073,-0.3068810074,3.172872329e-08,
34444444,-0.5349139645,0.9402737281,-163.8358399,-0.9031028399,-0.2617631455,-0.2898486572,3.23492911e-08,
34533333,-0.6217018108,0.930925463,-164.9725824,-0.8990895471,-0.2413715064,-0.2684621428,3.29212967e-08,
34622222,-0.6080770045,0.9323868715,-166.063819,-0.9049416813,-0.2245569673,-0.2481452363,3.338112859e-08,
34711111,-0.6120147908,0.9319642656,-167.093169,-0.9084177884,-0.208169436,-0.2291560542,3.273207313e-08,
34800000,-0.6130804577,0.9318499304,-168.1165338,-0.9118789408,-0.1918882229,-0.2104316859,3.328630546e-08,
34888888,-0.6109045965,0.932083393,-169.1833632,-0.915522881,-0.174920856,-0.1910611517,3.32557509e-08,
34977777,-0.6066636021,0.9325386055,-170.3445375,-0.9193283964,-0.1564082807,-0.1701331987,3.209370323e-08,
35066666,-0.6110455265,0.9320682699,-171.3000342,-0.9213438709,-0.1409848618,-0.1530208929,3.091243635e-08,
35155555,-0.6163494264,0.931499291,-172.1931973,-0.9228658948,-0.1265285315,-0.1371039197,3.035324132e-08,
35244444,-0.6177237958,0.9313519114,-173.2050293,-0.9248100002,-0.1101945847,-0.1191537555,3.133214973e-08,
35333333,-0.6188044451,0.9312360451,-174.2485646,-0.9265482103,-0.09332194672,-0.1007200118,3.223937827e-08,
35422222,-0.6205059801,0.9310536371,-175.2855007,-0.9279035284,-0.07652396404,-0.0824697414,3.25181184e-08,
35511111,-0.6220691953,0.9308860888,-176.3112686,-0.9289575635,-0.05988952769,-0.06446960554,3.214973735e-08,
35600000,-0.6149556833,0.9316487719,-177.3765828,-0.9306723539,-0.0426427488,-0.0458192925,3.191505018e-08,
35688888,-0.6237444086,0.9307065698,-178.346988,-0.9303192591,-0.02684762716,-0.02885850948,3.169207833e-08,
35777777,-0.623876993,0.9306923633,-179.3740554,-0.9306368242,-0.01016741957,-0.01092522808,3.16142448e-08,
35866666,-0.6273285972,0.9303225976,179.6167859,-0.9303017892,0.006222274037,-0.006688446813,3.192477354e-08,
35955555,-0.6306523137,0.9299666713,178.5832448,-0.9296823825,0.02299298289,-0.02473208412,3.196367365e-08,
36044444,-0.6324656129,0.9297725482,177.5663918,-0.9289339817,0.03947972911,-0.04250003756,3.172047242e-08,
36133333,-0.6452709864,0.9284028194,176.5369475,-0.9267075172,0.05608005589,-0.06051537821,3.15541911e-08,
36222222,-0.634191872,0.9295877808,175.5646527,-0.9268038815,0.07188885547,-0.07756641606,3.137790242e-08,
36311111,-0.6348217603,0.9295203709,174.5354374,-0.925295969,0.08851830089,-0.09566485087,3.125789436e-08,
36400000,-0.6389240859,0.9290814642,173.5466761,-0.9231945692,0.1044229603,-0.1131104577,3.127535584e-08,
36488888,-0.6401884745,0.9289462294,172.5446664,-0.9210932108,0.1205337888,-0.1308594911,3.097774327e-08,
36577777,-0.6415039591,0.9288055505,171.555975,-0.9187371065,0.1363887084,-0.1484523783,3.09257445e-08,
36666666,-0.645383487,0.9283907947,170.5743986,-0.9158566691,0.1520395655,-0.1660080345,3.101594307e-08,
36755555,-0.6480001724,0.9281111526,169.5836847,-0.9128159059,0.1678017686,-0.1838287079,3.095207273e-08,
36844444,-0.6490772264,0.9279960736,168.5682545,-0.9095860321,0.183929233,-0.2022120245,3.085973921e-08,
36933333,-0.6534114701,0.9275331207,167.6067092,-0.905919203,0.1990680477,-0.2197415035,3.076417154e-08,
37022222,-0.6555776141,0.9273018352,166.6253219,-0.9021517443,0.2145015706,-0.2377666196,3.870394508e-08,
37111111,-0.6591973395,0.9269154754,165.6328774,-0.8979268469,0.2299992961,-0.2561448039,3.52195886e-08,
37200000,-0.4659999456,0.9477635512,163.3625315,-0.9080859455,0.271358922,-0.2988251534,3.14434398e-08,
37288888,-0.6613270752,0.9266882283,163.6029633,-0.8889984981,0.261596527,-0.2942598076,2.821170339e-08,
37377777,-0.6648704082,0.9263102711,162.6093223,-0.8839676756,0.2768607351,-0.3132023294,2.435212364e-08,
37466666,-0.6648773406,0.9263095317,161.4956545,-0.8784189466,0.2939889502,-0.3346796553,3.1242464e-08,
37555555,-0.6660152025,0.926188192,160.5198412,-0.8731704289,0.3088656166,-0.3537289015,3.03715211e-08,
37644444,-0.6704099363,0.9257196941,159.6489033,-0.8679354958,0.3219393224,-0.3709254017,2.960106533e-08,
37733333,-0.6734350962,0.9253973365,158.6732484,-0.8620275364,0.3365542408,-0.3904216821,3.015541294e-08,
37822222,-0.6757686582,0.9251487515,157.6827745,-0.855851036,0.3513107124,-0.4104811441,3.115307473e-08,
37911111,-0.678903481,0.9248149165,156.6780335,-0.8492526052,0.3661320013,-0.4311226119,3.162053004e-08,
38000000,-0.6837969764,0.9242940369,155.6620126,-0.8421522481,0.3809187022,-0.4523157221,3.218249986e-08,
38088888,-0.6800439125,0.924693499,154.6243383,-0.8354766805,0.3962786691,-0.4743144583,3.245877415e-08,
38177777,-0.6812827038,0.9245616276,153.5604157,-0.8278565112,0.4116646695,-0.4972657266,3.249431038e-08,
38266666,-0.6830052895,0.9243782867,152.53548,-0.8201977088,0.4263225721,-0.5197802525,3.242482647e-08,
38355555,-0.6846022553,0.9242083485,151.5073456,-0.8122666433,0.4408899768,-0.5427897113,3.214715362e-08,
38444444,-0.6848777758,0.9241790326,150.4628946,-0.8040695965,0.4556083497,-0.566628003,3.189477778e-08,
38533333,-0.6862046303,0.924037866,149.4531574,-0.7957942828,0.4696354302,-0.5901467759,3.146806525e-08,
38622222,-0.6910069372,0.9235271196,148.4594033,-0.7870942143,0.4830994085,-0.6137758348,2.947369645e-08,
38711111,-0.6936956047,0.9232412913,147.4741945,-0.7784303091,0.4964078322,-0.6377036279,2.959817258e-08,
38800000,-0.7199663139,0.9204531415,146.7365787,-0.7696439795,0.5048585253,-0.6559637167,2.975685311e-08,
38888888,-0.6975639515,0.9228302082,145.5788562,-0.7612472092,0.5216495756,-0.6852564704,3.027523519e-08,
38977777,-0.700589964,0.9225087663,144.64597,-0.7523910528,0.5337884671,-0.7094561599,3.121193004e-08,
39066666,-0.7048705402,0.9220542479,143.6755097,-0.7428762042,0.5461858488,-0.7352313154,3.010814042e-08,
39155555,-0.7082535283,0.9216951953,142.6943369,-0.7331288761,0.558609062,-0.7619520662,3.017799557e-08,
39244444,-0.7124912046,0.9212456279,141.7373642,-0.7233439917,0.5704971311,-0.7886940898,3.004849665e-08,
39333333,-0.7157890639,0.9208959157,140.7865574,-0.7135066397,0.5822006206,-0.8159708518,2.972744693e-08,
39422222,-0.7194813139,0.9205045389,139.821634,-0.7033020012,0.5938812182,-0.8444184962,2.937406694e-08,
39511111,-0.7237583577,0.9200513822,138.8958046,-0.6932727517,0.6048697692,-0.8724845564,2.873732513e-08,
39600000,-0.7289016917,0.9195067367,137.9828841,-0.6831428436,0.6154742027,-0.9009451075,2.823728069e-08,
39688888,-0.730942137,0.9192907562,137.1079546,-0.6735067883,0.625686903,-0.9289986588,2.815759362e-08,
39777777,-0.737036023,0.9186460222,136.1975884,-0.6630153994,0.6358624806,-0.9590463227,2.838257439e-08,
39866666,-0.7367413166,0.9186771918,135.2832825,-0.6528066935,0.6463831709,-0.9901601458,2.866644161e-08,
39955555,-0.7442924372,0.9178788823,134.3540025,-0.6416795176,0.6563147411,-1.022807684,2.892395078e-08,
40044444,-0.7484336512,0.917441365,133.4431111,-0.6308638881,0.6661151649,-1.055877785,2.921035552e-08,
40133333,-0.7504689541,0.9172264127,132.4898362,-0.6195492112,0.6763601607,-1.091697235,2.962365812e-08,
40222222,-0.7567106146,0.9165675326,131.5417029,-0.6078355104,0.6860262635,-1.128638014,3.009520402e-08,
40311111,-0.7616382204,0.9160477007,130.5649154,-0.5957142123,0.6958936465,-1.168166937,3.077422082e-08,
40400000,-0.7727673233,0.9148747339,129.5903329,-0.5830441575,0.7050214813,-1.209207694,3.066212047e-08,
40488888,-0.7692689936,0.9152432831,128.5416397,-0.5702727438,0.715862602,-1.255298644,2.836132515e-08,
40577777,-0.7749053081,0.9146495701,127.6473954,-0.5586682696,0.7242054962,-1.296306835,2.780199453e-08,
40666666,-0.8084486193,0.911124173,126.9986175,-0.5483106572,0.7276693492,-1.327111446,2.766685278e-08,
40755555,-0.788077907,0.9132635082,125.9135193,-0.5356870166,0.7396550924,-1.38075979,2.679001407e-08,
40844444,-0.79382536,0.9126594017,124.9818758,-0.5232434128,0.7477723681,-1.429109951,2.867774262e-08,
40933333,-0.8457566327,0.9072190653,124.3693586,-0.5121484394,0.7488326972,-1.462139957,2.829441668e-08,
41022222,-0.8065615829,0.911322139,123.1822533,-0.4987702691,0.7627163691,-1.529193732,4.849434168e-08,
41111111,-0.8142887328,0.9105117682,122.2862182,-0.4863489658,0.7697378538,-1.582686318,3.950560014e-08,
41200000,-1.018848979,0.8893189592,118.2643416,-0.4211282305,0.783287447,-1.859973733,2.836647961e-08,
41288888,-0.823206356,0.9095774443,120.5074105,-0.4617468077,0.783658735,-1.697161132,1.986514007e-08,
41377777,-0.8307000756,0.9087930481,119.5330147,-0.4479668048,0.7907152118,-1.765120101,9.190631867e-09,
41466666,-0.8240592172,0.909488138,118.473491,-0.4336003871,0.7994744382,-1.843804715,2.797311057e-08,
41555555,-0.8552681304,0.9062261573,117.8107984,-0.422802847,0.8015507474,-1.895802625,2.745987394e-08,
41644444,-0.8641713361,0.9052977338,116.8928154,-0.4094868768,0.8073936366,-1.97172042,2.693333346e-08,
41733333,-0.8678539654,0.9049139884,115.9297672,-0.3956909092,0.8138169517,-2.056698632,2.80689506e-08,
41822222,-0.8850685355,0.9031223149,115.1046679,-0.383170593,0.8178081758,-2.134318736,2.759013422e-08,
41911111,-0.8951696833,0.9020726505,114.2138344,-0.369979017,0.8227093008,-2.223664757,2.767108039e-08,
42000000,-0.9072372316,0.900820246,113.3363548,-0.3568402906,0.8271288428,-2.317924474,2.883896087e-08,
42088888,-0.9184467436,0.8996584488,112.3865454,-0.3426378507,0.831856134,-2.427799884,2.857943304e-08,
42177777,-0.9264415043,0.8988307564,111.4040729,-0.3280219642,0.8368382876,-2.551165406,2.783585104e-08,
42266666,-0.9473789649,0.8966667213,110.6073118,-0.3155918064,0.8392931674,-2.659426355,2.666374782e-08,
42355555,-0.957588443,0.8956133898,109.7722298,-0.3029697576,0.8428123575,-2.781836591,2.599882088e-08,
42444444,-0.9704340548,0.894289841,108.936262,-0.2902114709,0.8458910225,-2.914740137,2.648227732e-08,
42533333,-0.9848269772,0.8928091883,108.0797813,-0.2770752871,0.8487270068,-3.063163863,2.688568942e-08,
42622222,-1.002034473,0.8910422072,107.2163664,-0.2637314842,0.8511180407,-3.227214389,2.719867335e-08,
42711111,-1.020243551,0.8891761851,106.3304619,-0.2500158567,0.8533032049,-3.412996344,2.703018397e-08,
42800000,-1.034683434,0.8876991996,105.4591285,-0.2366170289,0.8555829888,-3.615897777,2.673069585e-08,
42888888,-1.052548935,0.8858752193,104.6335654,-0.2238041716,0.8571386101,-3.829859846,2.665531752e-08,
42977777,-1.069830956,0.8841143756,103.787898,-0.2107095017,0.8586383028,-4.074986157,2.668033107e-08,
43066666,-1.087856185,0.8822815363,102.901269,-0.1969885033,0.8600094411,-4.36578494,2.655174149e-08,
43155555,-1.10631245,0.8804088054,102.0564184,-0.1838951766,0.8609890991,-4.681955857,2.61089267e-08,
43244444,-1.127357911,0.8782782027,101.2510213,-0.1713589316,0.861399279,-5.026871205,2.551694399e-08,
43333333,-1.146171734,0.8763778921,100.4355883,-0.1587383625,0.8618818608,-5.429575103,2.540279557e-08,
43422222,-1.166824652,0.8742965556,99.62896789,-0.1462411633,0.8619791118,-5.89423041,2.541868101e-08,
43511111,-1.189054419,0.8720618323,98.8029927,-0.1334581222,0.8617892834,-6.45737606,2.545303499e-08,
43600000,-1.208287491,0.8701329715,98.00032506,-0.1211039924,0.8616642102,-7.115076828,2.573829401e-08,
43688888,-1.229664367,0.867994117,97.17741907,-0.1084491119,0.861192532,-7.940982802,2.573818563e-08,
43777777,-1.248446674,0.8661192004,96.32362252,-0.09539792207,0.8608494095,-9.023775265,2.481402406e-08,
43866666,-1.266132818,0.8643574092,95.52327545,-0.08319449363,0.8603443538,-10.34136174,2.310840314e-08,
43955555,-1.295296167,0.8614601486,94.85714806,-0.07294131696,0.8583665603,-11.76790598,2.167463092e-08,
44044444,-1.31795539,0.8592157523,94.21330717,-0.06312643133,0.8568936706,-13.57424541,2.119576618e-08,
44133333,-1.340579251,0.8569806923,93.51066137,-0.0524765849,0.8553725008,-16.3000794,2.177230457e-08,
44222222,-1.359315071,0.8551341422,92.80519196,-0.04185050287,0.8541094406,-20.4085825,2.218631998e-08,
44311111,-1.381994654,0.852904228,92.07763258,-0.03092083414,0.8523435482,-27.56534783,2.222770627e-08,
44400000,-1.387722393,0.8523419825,91.38000594,-0.02052722356,0.8520947649,-41.51047327,2.207566423e-08,
44488888,-1.420291222,0.849152004,90.66681693,-0.00988233617,0.8490944973,-85.92042233,2.183020624e-08,
44577777,-1.437684829,0.8474532676,89.97848909,0.0003181646133,0.8474532078,2663.568394,2.168661833e-08,
44666666,-1.456706816,0.8455993865,89.28559293,0.01054329886,0.8455336547,80.19630911,2.151772188e-08,
44755555,-1.473277138,0.8439877499,88.60075467,0.02060934579,0.8437360825,40.93948886,2.127455808e-08,
44844444,-1.491929414,0.8421772962,87.91284434,0.03067182958,0.8416185817,27.43946459,2.108997061e-08,
44933333,-1.510493368,0.8403792713,87.26092984,0.04015969643,0.8394191554,20.9020294,2.091997554e-08,
45022222,-1.525429287,0.8389354294,86.58110583,0.05003038025,0.8374423059,16.73867562,2.083957811e-08,
45111111,-1.543299427,0.8372111982,85.91942366,0.0595753637,0.8350888374,14.0173519,2.083595403e-08,
45200000,-1.558697595,0.8357283221,85.24926077,0.06921590991,0.8328571223,12.03274108,2.059693091e-08,
45288888,-1.570681884,0.8345760275,84.59309556,0.07864066615,0.830862679,10.56530571,2.038155891e-08,
45377777,-1.584636827,0.8332362557,83.94875681,0.08783800314,0.8285934727,9.433200244,2.031180922e-08,
45466666,-1.601641508,0.8316065945,83.30865882,0.09689933512,0.825941915,8.523710859,2.033985009e-08,
45555555,-1.610263177,0.8307815461,82.6415856,0.106403013,0.8239395464,7.743573451,2.030308387e-08,
45644444,-1.623385318,0.8295273969,81.99230108,0.1155582791,0.821438973,7.108438956,2.023428639e-08,
45733333,-1.635391083,0.8283816039,81.3584382,0.1244664386,0.8189775256,6.579906475,1.997218647e-08,
45822222,-1.646394062,0.8273329037,80.71274265,0.133518574,0.8164879203,6.115163573,1.856323406e-08,
45911111,-1.657824647,0.8262448541,80.08581099,0.1422570985,0.8139063071,5.721375703,1.883163715e-08,
46000000,-1.677803247,0.8243465746,79.65849353,0.1479825083,0.8109552714,5.480075185,1.913888589e-08,
46088888,-1.682585327,0.8238928495,78.87249705,0.1590055375,0.8084037769,5.084123419,1.963096935e-08,
46177777,-1.693910715,0.8228192893,78.25717405,0.1674594927,0.8055984739,4.810706523,2.048478822e-08,
46266666,-1.705336924,0.8217375896,77.64554704,0.1758180361,0.8027083433,4.565563131,1.959971011e-08,
46355555,-1.717870867,0.8205526581,76.99439832,0.1846623522,0.7995038964,4.329544636,1.976789364e-08,
46444444,-1.72824005,0.8195736698,76.36792737,0.1931621659,0.796485642,4.123403972,1.976443317e-08,
46533333,-1.737842737,0.8186680907,75.73311694,0.2017516479,0.7934190036,3.93265191,1.978042131e-08,
