Frequency,S11_Magnitude,S11_Magnitude (linear),S11_Phase,S11_Real,S11_Imaginary,S11_Quality Factor,S11_Group delay,
30000000,-0.7650558967,0.9156873302,-114.9538748,-0.3863179666,-0.8302058271,-2.149022047,2.740223478e-08,
30088888,-0.7212477985,0.9203173512,-115.7439856,-0.3997404929,-0.8289701836,-2.073770854,2.740223478e-08,
30177777,-0.7135638557,0.9211318671,-116.6449529,-0.413091241,-0.8233101136,-1.993046649,2.740223478e-08,
30266666,-0.7050286423,0.9220374647,-117.5303343,-0.4261824619,-0.8176316992,-1.918501516,2.796828204e-08,
30355555,-0.6982192869,0.9227605849,-118.4450635,-0.4395255484,-0.8113595931,-1.845989604,2.800505511e-08,
30444444,-0.6902101905,0.9236118376,-119.318861,-0.452264546,-0.8053046672,-1.780605343,2.807700511e-08,
30533333,-0.6877685089,0.9238715097,-120.2315039,-0.4651647688,-0.798223217,-1.716001018,2.806546991e-08,
30622222,-0.6784540019,0.9248627752,-121.1294405,-0.4781293049,-0.7916839779,-1.655794718,-3.249240266e-09,
30711111,-0.6732128354,0.9254210166,-122.0302545,-0.4908127635,-0.7845424712,-1.598455724,1.266696729e-08,
30800000,-0.9352027009,0.8979245898,-117.8996066,-0.4201602385,-0.7935577755,-1.888702697,2.867296313e-08,
30888888,-0.6630908912,0.9265000678,-123.8731382,-0.5163902932,-0.7692486209,-1.489665145,4.592859674e-08,
30977777,-0.6546937009,0.9273962062,-124.7956785,-0.5292201583,-0.7615705794,-1.439043029,6.132410044e-08,
31066666,-0.6397540147,0.9289926956,-125.9307206,-0.5451390423,-0.752230585,-1.379887564,2.937389283e-08,
31155555,-0.6471002336,0.9282073185,-126.6826838,-0.5544950895,-0.7443816372,-1.342449467,2.897068165e-08,
31244444,-0.6415184875,0.9288039969,-127.6294643,-0.5670836181,-0.7355902628,-1.297146028,2.833955358e-08,
31333333,-0.6341585954,0.9295913422,-128.5816215,-0.579720008,-0.726680656,-1.253502805,2.938899453e-08,
31422222,-0.633080206,0.929706762,-129.515586,-0.591561348,-0.7172236993,-1.212424885,2.565628486e-08,
31511111,-0.6277249824,0.9302801428,-130.4418679,-0.6034505966,-0.7080031932,-1.173257922,2.77766926e-08,
31600000,-0.6396835572,0.9290002313,-130.8043518,-0.6070813044,-0.7032024742,-1.158333273,2.987527994e-08,
31688888,-0.6230124753,0.9307850009,-132.381515,-0.6274087622,-0.6875456079,-1.095849547,3.210299253e-08,
31777777,-0.6191656789,0.9311973171,-133.3258132,-0.6389374663,-0.6774122508,-1.060216823,3.406439794e-08,
31866666,-0.6187079966,0.9312463856,-134.3175647,-0.6506009986,-0.6662868537,-1.024109793,3.034423642e-08,
31955555,-0.6168217251,0.9314486418,-135.2866374,-0.6619203858,-0.655330432,-0.9900441896,3.048284715e-08,
32044444,-0.6148237099,0.9316629275,-136.2561868,-0.6730692862,-0.6441844041,-0.9570848311,3.041962852e-08,
32133333,-0.6124310578,0.9319196027,-137.2337638,-0.6841502539,-0.632781618,-0.9249161488,3.071065807e-08,
32222222,-0.6132252985,0.9318343916,-138.2111481,-0.6947810096,-0.6209627058,-0.8937531356,3.141201098e-08,
32311111,-0.6096074953,0.9322225954,-139.2228682,-0.7059309596,-0.6088517452,-0.8624805823,3.123796692e-08,
32400000,-0.594937431,0.9337984064,-140.2875626,-0.7183345814,-0.5966363155,-0.8305827549,3.095917694e-08,
32488888,-0.6094956,0.9322346047,-141.1936375,-0.7264609483,-0.584222431,-0.8042034915,3.063807066e-08,
32577777,-0.6084514579,0.9323466766,-142.179238,-0.7364912806,-0.5717087711,-0.7762600674,3.050464713e-08,
32666666,-0.6075665482,0.932441668,-143.1790728,-0.7464312338,-0.5588272339,-0.7486653943,3.112582071e-08,
32755555,-0.6090953133,0.9322775675,-144.1755946,-0.7559042444,-0.5456649486,-0.7218704652,3.140968309e-08,
32844444,-0.6085372015,0.9323374729,-145.1755967,-0.7653614794,-0.5324236746,-0.6956499496,3.152533399e-08,
32933333,-0.6089896846,0.932288905,-146.2065316,-0.7747767183,-0.5185399109,-0.6692765782,3.154663381e-08,
33022222,-0.6120684539,0.9319585077,-147.207664,-0.7834407204,-0.5047447848,-0.644266722,3.142654505e-08,
33111111,-0.6122525725,0.9319387528,-148.2070287,-0.7921081742,-0.4909933598,-0.6198564486,3.153477919e-08,
33200000,-0.612656488,0.9318954163,-149.2036017,-0.8004907846,-0.47712008,-0.5960344444,3.178826522e-08,
33288888,-0.6139741682,0.9317540552,-150.2541337,-0.8089811215,-0.4622933749,-0.5714513758,3.20527259e-08,
33377777,-0.6133689039,0.9318189855,-151.2702403,-0.8171089141,-0.447905843,-0.548159291,3.217590701e-08,
33466666,-0.6149509937,0.9316492749,-152.3020942,-0.8248921581,-0.4330396044,-0.5249651122,3.202529667e-08,
33555555,-0.6154127204,0.9315997514,-153.327773,-0.8324673664,-0.4181819947,-0.5023404058,3.197445485e-08,
33644444,-0.6177923455,0.9313445612,-154.3494213,-0.8395612482,-0.4031620048,-0.4802055903,3.198542158e-08,
33733333,-0.6187693364,0.9312398092,-155.3624959,-0.8464629308,-0.3882113973,-0.4586277594,3.211122866e-08,
33822222,-0.6203808376,0.9310670514,-156.4024066,-0.8532108006,-0.3727159561,-0.4368392382,3.219306183e-08,
33911111,-0.6210627231,0.9309939609,-157.4390833,-0.8597469879,-0.3571902462,-0.4154597239,3.22694177e-08,
34000000,-0.6266017172,0.9304004551,-158.4620239,-0.8654347257,-0.3415666001,-0.3946763285,3.243456872e-08,
34088888,-0.6236810288,0.930713361,-159.4958006,-0.8717494295,-0.3260065836,-0.3739682213,3.26677679e-08,
34177777,-0.622891559,0.9307979584,-160.5635855,-0.8777530498,-0.3097328251,-0.3528701213,3.285502254e-08,
34266666,-0.6270762683,0.9303496243,-161.6150931,-0.8828637688,-0.2934314047,-0.3323631743,3.198677207e-08,
34355555,-0.6267969888,0.9303795385,-162.6591878,-0.8880926116,-0.2773041633,-0.3122468982,3.207493384e-08,
34444444,-0.6025631487,0.9329789442,-163.5658893,-0.894862756,-0.2639514318,-0.294963032,3.293187475e-08,
34533333,-0.6374405035,0.9292401684,-164.7201832,-0.8963918177,-0.2448856868,-0.273190453,3.367252121e-08,
34622222,-0.624435922,0.930632476,-165.853702,-0.9024109018,-0.2274453113,-0.2520418479,3.430479556e-08,
34711111,-0.6300598794,0.9300301032,-166.9028916,-0.9058376065,-0.2107468234,-0.2326540894,3.360417843e-08,
34800000,-0.6317749992,0.9298464772,-167.9633093,-0.9094031133,-0.193908351,-0.213225959,3.318717296e-08,
34888888,-0.6332229869,0.9296914794,-169.0420548,-0.9127403885,-0.1767235979,-0.1936186896,3.330511348e-08,
34977777,-0.6332530374,0.9296882629,-170.0940747,-0.9158280432,-0.1599351788,-0.174634507,3.325306218e-08,
35066666,-0.6362819984,0.9293641167,-171.1662738,-0.918340146,-0.1427201375,-0.1554109751,3.337856848e-08,
35155555,-0.6354043086,0.9294580316,-172.2216964,-0.9209062382,-0.1257932148,-0.1365972013,3.395168342e-08,
35244444,-0.6392053884,0.9290513753,-173.3188216,-0.9227421151,-0.108089995,-0.1171399822,3.380676414e-08,
35333333,-0.6395645178,0.9290129633,-174.4500769,-0.9246580366,-0.08984765567,-0.09716852297,3.322381822e-08,
35422222,-0.6438905229,0.9285503838,-175.4611725,-0.9256383901,-0.07348051506,-0.07938360795,3.258804051e-08,
35511111,-0.6505986705,0.9278335375,-176.4663385,-0.9260695032,-0.05718696174,-0.06175234315,3.187206802e-08,
35600000,-0.6384946551,0.9291273992,-177.5247838,-0.9282605197,-0.04012644441,-0.04322756765,3.204947302e-08,
35688888,-0.6554091338,0.9273198223,-178.5178085,-0.9270095531,-0.0239862733,-0.02587489333,3.220113883e-08,
35777777,-0.658455144,0.9269946822,-179.5633596,-0.9269677639,-0.007064384346,-0.007620960103,3.224086057e-08,
35866666,-0.6597446386,0.9268570722,179.4008187,-0.9268063906,0.009692603841,-0.01045806755,3.248624372e-08,
35955555,-0.6621975228,0.9265953659,178.3573584,-0.9262145889,0.02656139022,-0.0286773611,3.289392985e-08,
36044444,-0.6686470318,0.925907599,177.3240269,-0.9248979349,0.04322836916,-0.04673852922,3.247983155e-08,
36133333,-0.6722942371,0.925518892,176.2120009,-0.9234969367,0.06114431656,-0.06620954996,3.240105864e-08,
36222222,-0.676414378,0.9250799774,175.2767179,-0.921938414,0.07617430863,-0.08262407496,3.225804784e-08,
36311111,-0.67806239,0.9249044745,174.1968371,-0.9201644581,0.09351821763,-0.1016320689,3.212115521e-08,
36400000,-0.6833955515,0.9243367548,173.1703148,-0.9177776881,0.1099206599,-0.1197682852,3.249790883e-08,
36488888,-0.6875138867,0.9238985929,172.1258112,-0.915187412,0.1265725516,-0.1383023301,3.215472573e-08,
36577777,-0.6907919227,0.9235499813,171.1125589,-0.9124616128,0.1426827711,-0.1563712589,3.212021145e-08,
36666666,-0.6969972492,0.9228904194,170.0810103,-0.9090953203,0.1589730317,-0.1748694863,3.204474571e-08,
36755555,-0.6999523831,0.9225764848,169.053475,-0.9057900586,0.175190582,-0.1934119063,3.206004535e-08,
36844444,-0.7034830806,0.9222015461,168.0281875,-0.9021434481,0.191292683,-0.2120424234,3.1936658e-08,
36933333,-0.7089220548,0.921624258,167.0093567,-0.8980369324,0.2071736976,-0.2306961887,3.189087194e-08,
37022222,-0.7127621272,0.9212168937,165.9931978,-0.8938263502,0.2229686544,-0.2494541074,3.812761357e-08,
37111111,-0.7182335382,0.9206367839,164.9684239,-0.8891353945,0.2387683778,-0.2685399539,3.500803569e-08,
37200000,-0.3982150013,0.9551888625,162.9482281,-0.9131989333,0.280095468,-0.3067190048,3.195052566e-08,
37288888,-0.7262344081,0.9197891444,162.9305488,-0.8792721149,0.2699863294,-0.3070566266,2.879118623e-08,
37377777,-0.7309271144,0.9192923462,161.9000449,-0.8738020606,0.2856017797,-0.3268495149,2.612242952e-08,
37466666,-0.7344759559,0.9189168226,160.8859718,-0.8682558064,0.3008986232,-0.3465552674,3.292567411e-08,
37555555,-0.7400682112,0.9183253848,159.7909227,-0.861791718,0.3172326388,-0.3681082472,3.424192255e-08,
37644444,-0.7421433553,0.918106014,158.7169955,-0.8554902077,0.3332493923,-0.3895420302,3.515369546e-08,
37733333,-0.7442101042,0.9178875829,157.5058186,-0.8480532182,0.35117425,-0.4140945904,3.452130711e-08,
37822222,-0.7474000322,0.9175505469,156.4039255,-0.8408342895,0.367282866,-0.436807669,3.298368619e-08,
37911111,-0.7523257728,0.9170303543,155.4240416,-0.8339572187,0.3813922236,-0.4573282839,3.15278201e-08,
38000000,-0.7588037546,0.9163466833,154.4804876,-0.8269466354,0.39477906,-0.4773936347,3.156587541e-08,
38088888,-0.7584134597,0.9163878597,153.42308,-0.8195573073,0.4099908894,-0.5002589639,3.273387972e-08,
38177777,-0.7620226702,0.9160071561,152.3538599,-0.8114268036,0.42503606,-0.5238131869,3.384344329e-08,
38266666,-0.7638418849,0.9158153232,151.249987,-0.8029196974,0.4404970667,-0.5486190813,3.396768337e-08,
38355555,-0.7683281235,0.9153424292,150.1520764,-0.7939217695,0.4555655678,-0.5738166974,3.377752353e-08,
38444444,-0.7722987959,0.9149240846,149.0891357,-0.7849751419,0.4700001142,-0.5987452202,3.321729418e-08,
38533333,-0.7747923927,0.9146614605,148.0298751,-0.7759295348,0.4842922097,-0.6241445749,3.282075697e-08,
38622222,-0.7781078694,0.9143123932,146.996314,-0.7667748563,0.4980195499,-0.649499062,3.225634294e-08,
38711111,-0.7859446074,0.913487838,145.9471596,-0.7568443232,0.5115141256,-0.6758511756,3.175661063e-08,
38800000,-0.8047933201,0.9115076838,144.9694721,-0.746384712,0.5232170861,-0.7010018797,3.131480934e-08,
38888888,-0.7966860882,0.9123588636,143.962232,-0.7377601681,0.5367575154,-0.7275501426,3.11418962e-08,
38977777,-0.8015579935,0.9118472661,142.978402,-0.7280266949,0.5490378568,-0.7541452266,3.134853915e-08,
39066666,-0.8080791401,0.9111629311,141.9600411,-0.7176147859,0.5614685263,-0.7824093612,3.14149847e-08,
39155555,-0.8142350312,0.9105173976,140.954795,-0.7071526096,0.5735652693,-0.811091215,3.150089191e-08,
39244444,-0.8196989958,0.9099448057,139.9476316,-0.6965232708,0.5855381137,-0.8406583647,3.143026095e-08,
39333333,-0.8259565501,0.9092894924,138.9444577,-0.685670878,0.5972125485,-0.8709901027,3.140477715e-08,
39422222,-0.8312557977,0.9087349055,137.9363617,-0.6746458527,0.6088120416,-0.9024172301,3.147814474e-08,
39511111,-0.8393234104,0.9078912478,136.9356594,-0.6632938942,0.6199255825,-0.9346167483,3.147004406e-08,
39600000,-0.8449856194,0.9072995992,135.9155213,-0.6517267239,0.6312248729,-0.9685422582,3.152478946e-08,
39688888,-0.8512866979,0.9066416478,134.9196645,-0.64019294,0.6419907143,-1.002808176,3.158293444e-08,
39777777,-0.85865989,0.9058723534,133.9003865,-0.628137949,0.6527230942,-1.039139723,3.160778898e-08,
39866666,-0.8634500978,0.9053729088,132.8900078,-0.6161905599,0.6633319666,-1.076504591,3.1635095e-08,
39955555,-0.8756635203,0.9041007385,131.8730971,-0.6034718689,0.6732160492,-1.115571552,3.143290293e-08,
40044444,-0.8821030888,0.9034307022,130.8716877,-0.5911754498,0.6831534391,-1.155584927,3.152989949e-08,
40133333,-0.8895436423,0.9026571319,129.8802758,-0.5787706602,0.6926863798,-1.196823591,3.168962441e-08,
40222222,-0.8974349889,0.9018374179,128.8416283,-0.56560526,0.7024253827,-1.241900372,3.198886513e-08,
40311111,-0.9057668153,0.9009727569,127.8177806,-0.5524334577,0.7117367375,-1.288366458,3.207982656e-08,
40400000,-0.9097519339,0.9005594821,126.7847105,-0.5392639333,0.7212501584,-1.337471531,3.183909568e-08,
40488888,-0.9225672054,0.8992317649,125.775956,-0.5257064136,0.7295550244,-1.387761316,3.148605941e-08,
40577777,-0.9308276329,0.8983769869,124.7682789,-0.5123074371,0.7379852982,-1.440512561,3.123576693e-08,
40666666,-0.9497727766,0.896419636,123.7882773,-0.4985218938,0.7450128088,-1.49444351,3.111725157e-08,
40755555,-0.9526382411,0.8961239571,122.7808209,-0.4851855353,0.7534143234,-1.552837561,2.78243597e-08,
40844444,-0.9634916994,0.8950049042,121.7909185,-0.4715074501,0.7607328723,-1.613405837,2.949893717e-08,
40933333,-0.9881681864,0.8924658166,121.3150551,-0.4638534078,0.7624534412,-1.643737932,3.120907918e-08,
41022222,-0.9894365038,0.8923355079,119.8013243,-0.4434854095,0.7743276762,-1.746004851,4.073725976e-08,
41111111,-1.002040358,0.8910416035,118.7821591,-0.4290194101,0.7809593363,-1.820335672,3.804522336e-08,
41200000,-1.544628053,0.8370831451,116.5393968,-0.3740196888,0.7488774694,-2.002240769,3.116542469e-08,
41288888,-1.033335832,0.8878369354,116.8587755,-0.4011184602,0.7920595967,-1.974627636,2.547943262e-08,
41377777,-1.039407007,0.887216581,115.7765419,-0.3858171795,0.7989357707,-2.070762561,2.25586499e-08,
41466666,-1.22452708,0.8685076457,115.0869181,-0.3682408586,0.7865775236,-2.136040869,3.153352445e-08,
41555555,-1.073087151,0.883782998,113.815937,-0.3568713805,0.8085265644,-2.265596539,3.09115319e-08,
41644444,-1.09099959,0.8819622983,112.7937077,-0.3416848454,0.8130860729,-2.379637505,3.250008374e-08,
41733333,-1.123220568,0.8786966519,111.9772958,-0.3288426933,0.8148437207,-2.477913414,3.12201761e-08,
41822222,-1.126692518,0.8783454868,110.8062188,-0.3119957172,0.821066055,-2.631658096,3.108069577e-08,
41911111,-1.145562599,0.8764393539,109.8144471,-0.297091163,0.8245500482,-2.775410887,3.155420202e-08,
42000000,-1.169642588,0.8740129562,108.9022146,-0.2831399805,0.8268799182,-2.920392651,3.043346852e-08,
42088888,-1.189566575,0.8720104134,107.8806193,-0.2677374707,0.8298908409,-3.099643986,3.054866019e-08,
42177777,-1.210263555,0.8699350363,106.9037716,-0.2529468155,0.8323490109,-3.290608777,3.090263099e-08,
42266666,-1.241223125,0.866839801,105.9259318,-0.2378560477,0.8335680783,-3.504506554,3.095065172e-08,
42355555,-1.258836497,0.8650837917,104.9351312,-0.2229539651,0.8358597347,-3.749023859,3.079308293e-08,
42444444,-1.282642901,0.8627160047,103.9128291,-0.2074360858,0.8374062187,-4.036936079,3.060464821e-08,
42533333,-1.311803802,0.8598244882,102.9834236,-0.193176034,0.8378431658,-4.337200367,3.024089657e-08,
42622222,-1.340829141,0.8569560377,102.0050358,-0.1782448506,0.8382138293,-4.702597727,3.01290921e-08,
42711111,-1.374609738,0.8536296925,101.0504784,-0.1636184026,0.8378022858,-5.12046489,3.012657217e-08,
42800000,-1.402364552,0.8509063652,100.0586409,-0.1486159149,0.8378275193,-5.637535658,2.994726241e-08,
42888888,-1.437793516,0.8474426634,99.13636341,-0.1345609364,0.8366913542,-6.217936474,2.999832331e-08,
42977777,-1.471462725,0.8441640706,98.17052527,-0.1199723809,0.8355953602,-6.964897705,3.003166387e-08,
43066666,-1.506200471,0.8407947214,97.19485246,-0.1053045781,0.834174268,-7.921538483,3.023072465e-08,
43155555,-1.543524977,0.8371894583,96.22432418,-0.09076925304,0.8322542471,-9.168900472,3.008123462e-08,
43244444,-1.583257983,0.8333685385,95.27254196,-0.07658106222,0.829842432,-10.83613113,3.002128349e-08,
43333333,-1.622827203,0.8295807002,94.31867696,-0.06247056229,0.8272252215,-13.24184049,2.988535303e-08,
43422222,-1.664971566,0.8255652833,93.34426471,-0.04815959312,0.8241593842,-17.1130886,2.961200828e-08,
43511111,-1.710086793,0.8212883461,92.40680035,-0.03448937809,0.820563849,-23.79178444,2.910736452e-08,
43600000,-1.753776745,0.8171676449,91.49055302,-0.02125626571,0.8168911378,-38.43060436,2.860926793e-08,
43688888,-1.800200463,0.812811757,90.58834866,-0.008346309405,0.812768904,-97.38063431,2.791189627e-08,
43777777,-1.847310415,0.8084152161,89.67600196,0.004571428333,0.8084022907,176.8380103,2.696457891e-08,
43866666,-1.894089507,0.8040730842,88.84821713,0.0161627128,0.803910624,49.73859487,2.559203615e-08,
43955555,-1.950315334,0.7988849383,88.04628076,0.02723576568,0.7984205394,29.31514938,2.405062651e-08,
44044444,-2.004211447,0.7939431895,87.30847836,0.03728249181,0.7930673388,21.27184371,2.289509834e-08,
44133333,-2.061027254,0.788766827,86.5977663,0.04680959642,0.7873766374,16.82083798,2.243697283e-08,
44222222,-2.113303779,0.7840338458,85.90925405,0.0559301074,0.7820363767,13.98238647,2.251760554e-08,
44311111,-2.168889948,0.7790323681,85.15597277,0.06578425378,0.7762498712,11.79993428,2.26339269e-08,
44400000,-2.212374238,0.7751420338,84.42655373,0.07528307423,0.7714775637,10.24768943,2.23215869e-08,
44488888,-2.272586072,0.7697872195,83.71768363,0.08423591577,0.765164475,9.083589441,2.145573623e-08,
44577777,-2.324943953,0.7651609582,83.05694026,0.09249487254,0.7595498604,8.211805039,2.080837136e-08,
44666666,-2.37349828,0.7608956232,82.40789604,0.1005293682,0.7542254276,7.502538225,2.041535366e-08,
44755555,-2.420764588,0.7567662767,81.75210394,0.1085628758,0.7489387822,6.898663809,1.995805897e-08,
44844444,-2.469867053,0.7525002479,81.10364112,0.1163723586,0.7434474408,6.388522583,1.935225461e-08,
44933333,-2.517467233,0.7483876952,80.51577429,0.1233163773,0.7381579868,5.985887707,1.87014319e-08,
45022222,-2.560842757,0.744659719,79.92969626,0.1302085453,0.7331874466,5.630870424,1.833825053e-08,
45111111,-2.602096303,0.7411313508,79.34684353,0.1370079094,0.7283574067,5.316170504,1.808564378e-08,
45200000,-2.641323631,0.7377917905,78.75398275,0.1438857376,0.7236253317,5.0291665,1.779247308e-08,
45288888,-2.67697189,0.734769982,78.20992443,0.1501329753,0.7192683896,4.790875476,1.742882369e-08,
45377777,-2.711759402,0.7318330691,77.65135656,0.1565096808,0.7149016441,4.567779069,1.765473527e-08,
45466666,-2.741000045,0.7293735294,77.10957272,0.162713938,0.710992208,4.369583926,1.860480721e-08,
45555555,-2.768674908,0.7270533077,76.47939743,0.1699814253,0.7069036903,4.158711395,1.812786004e-08,
45644444,-2.794550874,0.7248905803,75.81913112,0.1775863572,0.7028011377,3.95751762,1.729805511e-08,
45733333,-2.820875169,0.7226969828,75.39611613,0.1822171714,0.6993481475,3.837992557,1.567886134e-08,
45822222,-2.844947969,0.720696813,74.88352109,0.187944885,0.6957590218,3.701931137,1.346114023e-08,
45911111,-2.867762344,0.7188063131,74.43858149,0.1928350257,0.6924573407,3.590931357,1.472384327e-08,
46000000,-2.899960273,0.7161466857,74.14411331,0.195664646,0.6888987021,3.520813373,1.583504052e-08,
46088888,-2.909029201,0.7153993479,73.41000215,0.204261586,0.6856190134,3.356573435,1.751423273e-08,
46177777,-2.92613321,0.7139919898,72.86420111,0.210368783,0.6822972495,3.243338863,1.880993231e-08,
46266666,-2.941675866,0.7127155047,72.27628837,0.2169700496,0.6788868744,3.128942799,1.777253332e-08,
46355555,-2.958592363,0.7113287824,71.70137726,0.2233356373,0.6753590377,3.023964495,1.770229294e-08,
46444444,-2.97514385,0.7099745931,71.14780519,0.2294126218,0.6718882138,2.928732554,1.762059095e-08,
46533333,-2.98892882,0.7088487192,70.59607229,0.235497826,0.6685860309,2.839032709,1.804317291e-08,
