Frequency,S11_Magnitude,S11_Magnitude (linear),S11_Phase,S11_Real,S11_Imaginary,S11_Quality Factor,S11_Group delay,
30000000,-0.6686220682,0.9259102601,-116.3694666,-0.4112502492,-0.8295679853,-2.017185368,2.867561349e-08,
30088888,-0.7130917088,0.9211819392,-117.3424273,-0.4231057234,-0.8182650622,-1.933949405,2.867561349e-08,
30177777,-0.7066508447,0.9218652783,-118.2598405,-0.4364764309,-0.8119876333,-1.860324122,2.867561349e-08,
30266666,-0.697255563,0.9228629735,-119.1505429,-0.4495320739,-0.8059757951,-1.792921666,2.804754967e-08,
30355555,-0.6921596543,0.9234045651,-120.0535127,-0.4624489711,-0.7992602455,-1.728320951,2.821579405e-08,
30444444,-0.6852533262,0.9241390749,-120.9332047,-0.4750430098,-0.7926961389,-1.668682882,2.829634548e-08,
30533333,-0.6794589991,0.9247557706,-121.8830423,-0.4884440159,-0.7852360655,-1.607627568,2.829819441e-08,
30622222,-0.6740689426,0.9253298088,-122.7631991,-0.5007590714,-0.7781231313,-1.55388724,2.492238054e-08,
30711111,-0.6705464153,0.9257051487,-123.6662323,-0.5131683632,-0.7704467881,-1.501352857,2.6661815e-08,
30800000,-1.580506587,0.8336325633,-124.0291956,-0.4665135158,-0.6908750902,-1.480932635,2.887706269e-08,
30888888,-0.6616859625,0.9266499398,-125.5159397,-0.5383182129,-0.7542503647,-1.401123623,3.239185082e-08,
30977777,-0.6527067804,0.9276083748,-126.4586811,-0.551224719,-0.7460620659,-1.353462644,3.344554876e-08,
31066666,-0.6345549825,0.9295489205,-127.6341338,-0.5675984288,-0.7361339683,-1.296927424,2.926117366e-08,
31155555,-0.6464703649,0.9282746311,-128.3213931,-0.5755971143,-0.7282731307,-1.265248057,2.875034224e-08,
31244444,-0.6398262789,0.9289849667,-129.2663774,-0.5879793474,-0.7192310861,-1.223225083,2.810736681e-08,
31333333,-0.6336345564,0.9296474282,-130.2426198,-0.6005760967,-0.7096144677,-1.181556295,2.979517632e-08,
31422222,-0.6338730278,0.929621905,-131.1707047,-0.6119744367,-0.6997743744,-1.143469943,2.671910741e-08,
31511111,-0.6288294301,0.9301618613,-132.1364636,-0.6240443682,-0.6897606213,-1.105307021,2.832252986e-08,
31600000,-0.6331835415,0.9296957014,-132.5945181,-0.6292231998,-0.6844065034,-1.087700682,3.010766061e-08,
31688888,-0.6231807321,0.9307669705,-134.0623236,-0.6472929753,-0.6688340284,-1.033278676,3.181761308e-08,
31777777,-0.6194232546,0.9311697033,-135.0250064,-0.6587237198,-0.6581489781,-0.9991274919,3.359510218e-08,
31866666,-0.620670483,0.931036004,-136.0119866,-0.6698665425,-0.6466118279,-0.9652845558,3.067315072e-08,
31955555,-0.6177803049,0.9313458522,-136.9949096,-0.6810868026,-0.6352368564,-0.9326812002,3.095412363e-08,
32044444,-0.6166374873,0.9314683991,-137.9850822,-0.6920536192,-0.6234542218,-0.9008756034,3.092765459e-08,
32133333,-0.6151296359,0.931630114,-138.9911246,-0.7030154849,-0.6113132562,-0.8695587357,3.095075284e-08,
32222222,-0.6159485468,0.9315422835,-139.96231,-0.7132087471,-0.599253126,-0.8402212234,3.15841538e-08,
32311111,-0.6123503188,0.9319282653,-140.9584224,-0.7238185073,-0.5870068655,-0.8109862619,3.115953989e-08,
32400000,-0.5884220489,0.9344991217,-142.0549042,-0.7369463395,-0.5746291858,-0.7797435919,3.088345697e-08,
32488888,-0.612730128,0.9318875157,-142.9303601,-0.7435562607,-0.5617280739,-0.7554614272,3.05576417e-08,
32577777,-0.6135887763,0.931795398,-143.9177005,-0.7530508262,-0.5487778392,-0.7287394423,3.035473118e-08,
32666666,-0.6126737657,0.9318935626,-144.916198,-0.7625799125,-0.5356281259,-0.7023895032,3.122337655e-08,
32755555,-0.6121663833,0.9319480004,-145.9187483,-0.7718800997,-0.5222338433,-0.6765737885,3.129569529e-08,
32844444,-0.6121023768,0.931954868,-146.9255827,-0.7809432016,-0.5085937393,-0.6512557357,3.141840692e-08,
32933333,-0.6128582567,0.9318737691,-147.9203257,-0.7895863191,-0.4949163225,-0.6268045817,3.142406819e-08,
33022222,-0.61422789,0.9317268383,-148.9423608,-0.7981626235,-0.4806779875,-0.6022306399,3.123910233e-08,
33111111,-0.61509371,0.9316339673,-149.9382165,-0.8063159111,-0.4666867263,-0.5787889336,3.146841401e-08,
33200000,-0.6157863385,0.9315596801,-150.9148999,-0.8140887617,-0.4528387413,-0.556252294,3.163927567e-08,
33288888,-0.6181171027,0.9313097397,-151.9690087,-0.822061078,-0.4376681566,-0.532403453,3.198470516e-08,
33377777,-0.6184212576,0.9312771285,-152.9892551,-0.829694695,-0.4229465723,-0.5097616929,3.217161897e-08,
33466666,-0.6198591835,0.9311229708,-154.0185405,-0.8370198221,-0.4079066122,-0.4873320815,3.198707005e-08,
33555555,-0.6205297963,0.9310510842,-155.0375994,-0.8440768804,-0.3929253636,-0.4655089753,3.199612872e-08,
33644444,-0.6215609963,0.9309405552,-156.0627741,-0.8508708569,-0.3777156366,-0.443916528,3.191772782e-08,
33733333,-0.6233152263,0.9307525585,-157.0865253,-0.857310473,-0.3623797427,-0.4226937079,3.194189106e-08,
33822222,-0.6257448262,0.9304922466,-158.1009204,-0.8633500155,-0.3470483708,-0.4019787624,3.193677338e-08,
33911111,-0.6258657504,0.9304792925,-159.1292352,-0.8694271765,-0.3314937383,-0.3812783258,3.209760532e-08,
34000000,-0.6292782424,0.9301137997,-160.1513093,-0.8748581247,-0.3158083945,-0.3609824103,3.241721127e-08,
34088888,-0.6289927641,0.9301443702,-161.1969541,-0.8805045436,-0.2998004304,-0.3404870907,3.275212355e-08,
34177777,-0.6297175783,0.9300667554,-162.2538212,-0.8858105797,-0.2834850725,-0.3200289983,3.293495418e-08,
34266666,-0.6305078351,0.9299821402,-163.3182666,-0.8908429679,-0.2669561531,-0.2996669028,3.195723267e-08,
34355555,-0.6193832735,0.9311739895,-164.3602523,-0.8966979967,-0.2510332676,-0.2799529702,3.20442889e-08,
34444444,-0.5542846311,0.9381791315,-165.2569022,-0.9072910875,-0.2387529379,-0.2631492155,3.255008785e-08,
34533333,-0.6448499284,0.9284478259,-166.4115961,-0.9024592444,-0.21813454,-0.2417112367,3.312781796e-08,
34622222,-0.6352967824,0.9294695378,-167.5006153,-0.9074395588,-0.2011642832,-0.2216833962,3.354089265e-08,
34711111,-0.640623761,0.9288996772,-168.5388533,-0.9103771149,-0.1845755099,-0.2027462102,3.2769735e-08,
34800000,-0.6429778767,0.9286479539,-169.5598232,-0.913273858,-0.1682791802,-0.1842592764,3.258594749e-08,
34888888,-0.6421161458,0.92874009,-170.6251563,-0.9163356297,-0.1512850574,-0.1650978665,3.285205805e-08,
34977777,-0.6451696614,0.9284136498,-171.6712219,-0.9186218178,-0.134483683,-0.1463972229,3.308117079e-08,
35066666,-0.6474466819,0.9281702965,-172.7394306,-0.9207279048,-0.1173039837,-0.1274035283,3.305607358e-08,
35155555,-0.648688942,0.9280375586,-173.7956799,-0.9226018738,-0.1002970223,-0.1087110542,3.342261501e-08,
35244444,-0.6507476135,0.9278176274,-174.8519056,-0.9240749003,-0.083253398,-0.090093777,3.354933392e-08,
35333333,-0.6520582913,0.9276776327,-175.9626095,-0.9253754297,-0.06531542292,-0.07058262067,3.363961938e-08,
35422222,-0.6533071651,0.9275442591,-177.023866,-0.926293232,-0.04815808169,-0.05199010424,3.340677858e-08,
35511111,-0.6562569408,0.9272293134,-178.0920456,-0.9267152606,-0.03087111012,-0.03331240073,3.181641162e-08,
35600000,-0.6477738411,0.928135337,-179.1322788,-0.9280289011,-0.01405569309,-0.01514574931,3.059341741e-08,
35688888,-0.6653457794,0.9262595763,-179.9990353,-0.9262595761,-1.559595866e-05,-1.683756807e-05,2.981562844e-08,
35777777,-0.6690602877,0.9258635474,179.034676,-0.9257321436,0.01559828787,-0.01684967729,2.998387515e-08,
35866666,-0.6722960813,0.9255186955,178.0540242,-0.9249849391,0.03142798273,-0.03397675075,3.090882882e-08,
35955555,-0.6755516597,0.9251718647,177.0437654,-0.9239406647,0.04771401552,-0.05164186115,3.135244255e-08,
36044444,-0.6796704042,0.9247332633,176.0510012,-0.9225377135,0.06368497035,-0.06903237604,3.124406538e-08,
36133333,-0.6796218109,0.9247384368,175.0197904,-0.9212473114,0.08027806481,-0.08714062317,3.125635904e-08,
36222222,-0.6862848498,0.924029332,174.066955,-0.9190796457,0.09551340881,-0.1039228855,3.124755204e-08,
36311111,-0.6874516042,0.9239052177,173.0347648,-0.9170867182,0.1120392908,-0.1221686985,3.120628124e-08,
36400000,-0.6942144975,0.9231861388,172.0438994,-0.9142999284,0.1277821888,-0.1397595962,3.140410019e-08,
36488888,-0.698386697,0.9227428,171.0383069,-0.9114786102,0.1437394103,-0.157699159,3.120254333e-08,
36577777,-0.7001621698,0.9225542025,170.0405216,-0.908651603,0.159557265,-0.1755978468,3.109159026e-08,
36666666,-0.7052596434,0.9220129434,169.0440967,-0.9052081009,0.1752317379,-0.1935817164,3.095557712e-08,
36755555,-0.7093002777,0.9215841272,168.0663438,-0.9016665651,0.1905641857,-0.2113466253,3.067199733e-08,
36844444,-0.7137613998,0.9211109179,167.0724973,-0.8977643659,0.2060690815,-0.2295358217,3.060856962e-08,
36933333,-0.716156294,0.920856982,166.1187956,-0.8939635703,0.2209224213,-0.2471268725,3.062760944e-08,
37022222,-0.7195574368,0.9204964717,165.1204935,-0.8896303736,0.2363716412,-0.2656964602,3.347890936e-08,
37111111,-0.7253907777,0.9198784846,164.1419221,-0.8848692913,0.2513618186,-0.2840666085,3.217324669e-08,
37200000,-0.379126157,0.9572903745,162.7043019,-0.9140046946,0.2846054803,-0.3113829524,3.078994251e-08,
37288888,-0.7300683753,0.9193832374,162.1791656,-0.8752695471,0.2813694316,-0.3214660359,3.008462598e-08,
37377777,-0.7321687601,0.9191609429,161.1754748,-0.869996154,0.2965864647,-0.3409054895,3.111531085e-08,
37466666,-0.7331757087,0.9190543915,160.0928436,-0.8641368525,0.3129352563,-0.3621362235,3.359425496e-08,
37555555,-0.7308030368,0.9193054783,158.7690069,-0.8569104234,0.332907027,-0.3884968812,3.212545212e-08,
37644444,-0.7379941189,0.9185446967,158.007312,-0.8517037182,0.3439842091,-0.4038777826,3.008859546e-08,
37733333,-0.7423400826,0.91808522,157.0781619,-0.8455904798,0.3575712681,-0.4228657685,2.81727018e-08,
37822222,-0.7460997863,0.9176879111,156.1240848,-0.8391560151,0.3714408224,-0.4426361913,2.883442933e-08,
37911111,-0.7475294698,0.9175368736,155.2029826,-0.8329393428,0.3848193934,-0.4620017012,2.855248297e-08,
38000000,-0.7547535132,0.9167740766,154.3313872,-0.8263017215,0.3971148102,-0.4805929842,2.857155906e-08,
38088888,-0.7524148895,0.9170209457,153.4061077,-0.8200019293,0.4105170531,-0.5006293747,2.911332704e-08,
38177777,-0.7569442364,0.9165428803,152.4510671,-0.812621727,0.4239065702,-0.5216530104,2.979287519e-08,
38266666,-0.7591500866,0.9163101466,151.4850569,-0.8051549787,0.4374354181,-0.5432934399,3.0124957e-08,
38355555,-0.7622800992,0.9159800082,150.5250466,-0.7974255159,0.4507015887,-0.5651958455,3.041218117e-08,
38444444,-0.765098003,0.9156828913,149.5491188,-0.7893772088,0.4640676455,-0.5878908591,3.064693585e-08,
38533333,-0.7642516633,0.9157721183,148.5530811,-0.7812670461,0.4777660258,-0.6115271702,3.103776255e-08,
38622222,-0.7668335903,0.9154999407,147.5675238,-0.7727039898,0.4909874595,-0.6354146814,3.127998123e-08,
38711111,-0.768206348,0.9153552623,146.5497959,-0.7637405734,0.5045548461,-0.6606364303,3.119003971e-08,
38800000,-0.7811295034,0.9139943789,145.5459581,-0.7536617131,0.5170877555,-0.6861006026,3.079766614e-08,
38888888,-0.7705805559,0.9151050926,144.5734513,-0.7456818873,0.5304487284,-0.7113606183,3.025658676e-08,
38977777,-0.7713164509,0.9150275654,143.6280633,-0.7367658808,0.5426338382,-0.7365078274,2.963168585e-08,
39066666,-0.7765610403,0.9144752333,142.6677378,-0.7271286437,0.5545709042,-0.7626860928,2.923196698e-08,
39155555,-0.778399626,0.9142816822,141.7577392,-0.718077334,0.5659292684,-0.7881174376,2.908914718e-08,
39244444,-0.7817634722,0.9139276704,140.8314928,-0.7085605999,0.5772396929,-0.8146652424,2.90579759e-08,
39333333,-0.7845914047,0.9136301643,139.8919165,-0.6987722314,0.5885893694,-0.8423193467,2.943765444e-08,
39422222,-0.7855646466,0.9135277991,138.9513672,-0.6889392226,0.5999131498,-0.8707780455,2.960405619e-08,
39511111,-0.7906899098,0.9129889148,137.9877714,-0.6783525865,0.6110536204,-0.9007905808,2.953315295e-08,
39600000,-0.7940563541,0.9126351306,137.0469104,-0.6679684546,0.6218689775,-0.9309855476,2.949293709e-08,
39688888,-0.7941890608,0.912621187,136.1188345,-0.6577981961,0.6325969999,-0.9616885599,2.94859996e-08,
39777777,-0.7968273248,0.9123440283,135.1669599,-0.6470018003,0.6432420201,-0.9941889184,2.975620703e-08,
39866666,-0.7952765875,0.9125069284,134.2100339,-0.6362825412,0.6540744776,-1.027962321,2.988411262e-08,
39955555,-0.8050179336,0.9114841129,133.2403116,-0.6244211399,0.6640041627,-1.063391548,2.97233738e-08,
40044444,-0.8060272387,0.9113782041,132.3006946,-0.6133771079,0.674076223,-1.098958886,2.945990803e-08,
40133333,-0.8121815714,0.9107326815,131.3658838,-0.601871446,0.6835091657,-1.135639795,2.932213258e-08,
40222222,-0.8120591284,0.9107455199,130.4336567,-0.5906796098,0.6932207446,-1.173598569,2.96212573e-08,
40311111,-0.8137795684,0.9105651437,129.4822835,-0.5789733723,0.7027935082,-1.213861538,2.950345709e-08,
40400000,-0.8173164727,0.910194436,128.5030876,-0.5666477447,0.7122950546,-1.257033247,2.95938085e-08,
40488888,-0.8205915213,0.9098513084,127.6106092,-0.5552748462,0.7207629628,-1.298029197,2.848510458e-08,
40577777,-0.8228749448,0.9096121501,126.6344785,-0.5427727318,0.7299260408,-1.344809711,2.916412917e-08,
40666666,-0.8432478064,0.9074811436,125.8590169,-0.5315959131,0.7354779475,-1.38352822,3.001531114e-08,
40755555,-0.8327814849,0.9085752992,124.7126173,-0.5173977959,0.7468658481,-1.443504116,2.935108697e-08,
40844444,-0.8352656925,0.9083154793,123.7690841,-0.5048845687,0.7550685944,-1.495527178,2.908967941e-08,
40933333,-0.85222827,0.906543371,122.9832652,-0.4935168214,0.7604354216,-1.540850055,2.711581483e-08,
41022222,-0.8486400053,0.9069179543,122.0693385,-0.4815237079,0.7685278749,-1.596033305,4.44938206e-08,
41111111,-0.852641841,0.9065002077,121.2239543,-0.4699157261,0.7751914841,-1.649639374,3.612304786e-08,
41200000,-1.136912533,0.8773126133,117.5297193,-0.4055014728,0.7779755633,-1.918551757,2.734948387e-08,
41288888,-0.8646068639,0.9052523415,119.4733799,-0.4454014712,0.7880985542,-1.769411655,1.2945124e-08,
41377777,-0.8654961214,0.9051596669,118.5687028,-0.4328583937,0.7949513404,-1.836515941,7.204136507e-09,
41466666,-1.007076916,0.8905250782,118.6332634,-0.4267409498,0.7816182423,-1.831598872,2.798116709e-08,
41555555,-0.8804207748,0.9036056988,116.7971142,-0.4073748921,0.8065661512,-1.979911297,2.987068585e-08,
41644444,-0.8877173267,0.9028469467,115.8821818,-0.3941125706,0.8122855969,-2.061049704,3.362719904e-08,
41733333,-0.9129835601,0.900224487,115.1649279,-0.3827982688,0.8147819416,-2.128489097,2.82248878e-08,
41822222,-0.902620428,0.9012991855,114.068998,-0.3675826859,0.8229357149,-2.238777142,2.847235256e-08,
41911111,-0.9096787927,0.9005670654,113.1877184,-0.3545936714,0.8278190427,-2.334556732,2.895634875e-08,
42000000,-0.9153081096,0.8999835979,112.3152045,-0.3417252723,0.8325829176,-2.436410137,2.8004612e-08,
42088888,-0.9283870961,0.8986294458,111.4088031,-0.3280175679,0.836623784,-2.55054566,2.861388126e-08,
42177777,-0.9347661147,0.8979697241,110.4777122,-0.314148416,0.8412255334,-2.677796514,2.900879177e-08,
42266666,-0.949911905,0.8964052775,109.5282893,-0.2996434005,0.8448409638,-2.819487973,2.87689982e-08,
42355555,-0.9533020759,0.8960554718,108.6140488,-0.2860134614,0.8491829652,-2.969031461,2.783947251e-08,
42444444,-0.9624589929,0.8951113219,107.7375893,-0.2727028214,0.8525593526,-3.126331251,2.675823633e-08,
42533333,-0.9763231146,0.8936837152,106.918741,-0.2600754958,0.8550036955,-3.28752116,2.626015702e-08,
42622222,-0.9902243479,0.8922545732,106.0946201,-0.2473547723,0.8572828239,-3.465802644,2.674043265e-08,
42711111,-1.006596716,0.8905743123,105.2339031,-0.2340074422,0.8592805844,-3.672022464,2.702619272e-08,
42800000,-1.016543192,0.8895550723,104.3015337,-0.2197422986,0.8619869772,-3.922717577,2.717481503e-08,
42888888,-1.033579965,0.8878119815,103.491088,-0.2071213102,0.8633138927,-4.168155812,2.70860184e-08,
42977777,-1.048144138,0.886324579,102.6180518,-0.1936182302,0.8649180541,-4.467131289,2.70096983e-08,
43066666,-1.062875643,0.8848226226,101.7419244,-0.1800647281,0.8663069705,-4.811086432,2.750052772e-08,
43155555,-1.079460421,0.8831347602,100.8545584,-0.166308923,0.8673340457,-5.2151985,2.74800952e-08,
43244444,-1.097094966,0.881343593,99.97274477,-0.1526308114,0.8680267071,-5.68710013,2.741446073e-08,
43333333,-1.115390604,0.8794891171,99.1058209,-0.1391865244,0.8684055611,-6.239149696,2.744807912e-08,
43422222,-1.133963864,0.8776104923,98.22997395,-0.1256270545,0.8685724031,-6.913896108,2.720119501e-08,
43511111,-1.153941778,0.8755942705,97.33424561,-0.111776123,0.8684304376,-7.769373409,2.632453677e-08,
43600000,-1.173841736,0.8735905213,96.50633577,-0.0989892346,0.8679640145,-8.768266751,2.510403997e-08,
43688888,-1.200673208,0.8708960877,95.75570885,-0.08733972835,0.8665054919,-9.921092134,2.401832419e-08,
43777777,-1.225723417,0.8683880315,95.00259092,-0.07572412295,0.8650801295,-11.42410233,2.382759772e-08,
43866666,-1.248558313,0.8661080683,94.2432246,-0.06408382252,0.8637340156,-13.47819124,2.41760243e-08,
43955555,-1.27713852,0.8632628943,93.45015749,-0.05195135368,0.8616982543,-16.58663718,2.434030718e-08,
44044444,-1.300678349,0.8609265131,92.66375684,-0.04001119899,0.8599962586,-21.49388872,2.422598705e-08,
44133333,-1.329081734,0.8581158293,91.89787078,-0.02841911176,0.8576451076,-30.17846282,2.403945948e-08,
44222222,-1.351399164,0.855913826,91.14320518,-0.01707665386,0.8557434577,-50.11189338,2.352475336e-08,
44311111,-1.381955569,0.852908066,90.364115,-0.005420198996,0.8528908432,-157.3541569,2.345554051e-08,
44400000,-1.404757775,0.8506719473,89.66666949,0.00494893896,0.8506575515,171.8868546,2.320378717e-08,
44488888,-1.43581555,0.8476356665,88.88324746,0.01652022822,0.8474746634,51.29921042,2.2856718e-08,
44577777,-1.465073987,0.8447852076,88.17102836,0.0269622965,0.8443548315,31.31613182,2.279390941e-08,
44666666,-1.491386418,0.8422299463,87.45489725,0.03739990804,0.8413991498,22.49735879,2.223402921e-08,
44755555,-1.518090301,0.8396445723,86.73381453,0.04783859902,0.8382806668,17.52310235,2.184603108e-08,
44844444,-1.546968635,0.8368576071,86.04440525,0.05772921855,0.8348640559,14.46172453,2.144323651e-08,
44933333,-1.574678131,0.8341921399,85.38090502,0.06717842456,0.8314827633,12.37722928,2.096702498e-08,
45022222,-1.602189139,0.8315541648,84.70042987,0.07680493445,0.8279995961,10.78055208,2.07240477e-08,
45111111,-1.629150063,0.8289770299,84.05107402,0.08591675046,0.8245127216,9.596646954,2.046688933e-08,
45200000,-1.653461362,0.8266600156,83.39346897,0.09510755079,0.8211707101,8.634127399,1.999040754e-08,
45288888,-1.68001856,0.824136354,82.75967908,0.103867047,0.8175649005,7.871263541,1.948144995e-08,
45377777,-1.702584738,0.8219980042,82.14765814,0.1123018615,0.8142904953,7.250908258,1.919072166e-08,
45466666,-1.72874515,0.8195260115,81.55697862,0.1203275598,0.8106442882,6.736979368,1.956996732e-08,
45555555,-1.747719491,0.8177377095,80.9242999,0.1289893557,0.8075002834,6.260208675,1.967729874e-08,
45644444,-1.768382195,0.8157947202,80.24015952,0.1382925171,0.8039876897,5.813674569,2.020557565e-08,
45733333,-1.787960274,0.8139579818,79.65769596,0.1461287473,0.8007334047,5.479643256,1.976878247e-08,
45822222,-1.801523084,0.8126879976,78.95738444,0.1556614943,0.7976410726,5.12420285,1.756571239e-08,
45911111,-1.820946051,0.8108727343,78.40267829,0.1630114735,0.7943184819,4.872776528,1.707811327e-08,
46000000,-1.84588342,0.8085480406,78.05715086,0.1673176279,0.7910466139,4.727813943,1.649988603e-08,
46088888,-1.861132371,0.8071297986,77.37531121,0.1764093109,0.7876155578,4.464705144,1.710776393e-08,
46177777,-1.879990373,0.8053793338,76.83108292,0.1834836708,0.7841999833,4.27394972,1.814480082e-08,
46266666,-1.895781643,0.8039164545,76.2784974,0.1906911883,0.7809728142,4.095484544,1.74071371e-08,
46355555,-1.913434975,0.802284222,75.702386,0.1981310358,0.7774342837,3.923838992,1.73959478e-08,
46444444,-1.926961626,0.8010357864,75.15451425,0.2052359544,0.7742974455,3.772718322,1.750850909e-08,
46533333,-1.940138079,0.7998215402,74.60971936,0.2122666936,0.7711402901,3.632884071,1.772144625e-08,
