Frequency,S11_Magnitude,S11_Magnitude (linear),S11_Phase,S11_Real,S11_Imaginary,S11_Quality Factor,S11_Group delay,
30000000,-0.7206361841,0.9203821574,-117.228064,-0.4211056844,-0.8183967975,-1.943447519,3.183080157e-08,
30088888,-0.7081680029,0.9217042708,-118.647843,-0.441887907,-0.8088719556,-1.830491269,3.183080157e-08,
30177777,-0.7009489256,0.9224706426,-119.5713907,-0.455246313,-0.8023109627,-1.762366745,3.183080157e-08,
30266666,-0.6919474292,0.9234271272,-120.4903568,-0.4685407733,-0.7957306096,-1.698316678,2.845007247e-08,
30355555,-0.6869495835,0.9239586185,-121.3997417,-0.4813877841,-0.7886477858,-1.638279599,2.845539875e-08,
30444444,-0.6793438978,0.9247680251,-122.2856848,-0.4939566535,-0.781794554,-1.582718946,2.846426481e-08,
30533333,-0.6749537801,0.9252355496,-123.2265962,-0.5069842842,-0.7739688353,-1.526613072,2.861862333e-08,
30622222,-0.6690536034,0.9258642599,-124.1312176,-0.5194932518,-0.7663885366,-1.475261775,3.920482585e-08,
30711111,-0.6639382409,0.9264096877,-125.0559608,-0.532107702,-0.7583510421,-1.425183359,3.41155461e-08,
30800000,-0.8480406295,0.906980539,-127.6437825,-0.5539387391,-0.7181682055,-1.296475864,2.914613211e-08,
30888888,-0.6545547382,0.9274110434,-126.9288079,-0.5572091671,-0.7413563162,-1.330481191,2.32179254e-08,
30977777,-0.6475571814,0.9281584886,-127.858181,-0.5696193111,-0.7328110401,-1.28649262,1.869969375e-08,
31066666,-0.7308700073,0.9192983902,-128.6635924,-0.5743285619,-0.7178135087,-1.24983077,2.972531724e-08,
31155555,-0.6403896375,0.9289247155,-129.768345,-0.5942193347,-0.7140059589,-1.201586548,3.046002386e-08,
31244444,-0.6349624535,0.9295053147,-130.7297826,-0.6064951514,-0.7043747308,-1.161385593,3.09375218e-08,
31333333,-0.6295594283,0.9300836899,-131.6986958,-0.6187040958,-0.6944500789,-1.122426833,2.996391254e-08,
31422222,-0.6286422942,0.9301819017,-132.6484267,-0.6301962676,-0.6841717873,-1.085648745,2.779086511e-08,
31511111,-0.623989965,0.9306802584,-133.603255,-0.6418535825,-0.6739359925,-1.049984001,2.900844883e-08,
31600000,-0.6634652008,0.9264601421,-134.224047,-0.6461743833,-0.6639179627,-1.027459429,3.039127616e-08,
31688888,-0.6197408982,0.931135651,-135.5522433,-0.664727735,-0.652035765,-0.9809065136,3.190797309e-08,
31777777,-0.6173125071,0.9313960132,-136.5365428,-0.6760195683,-0.6406996775,-0.9477531532,3.314720355e-08,
31866666,-0.617965454,0.9313259998,-137.5522317,-0.687218851,-0.6285685076,-0.9146555085,3.103338067e-08,
31955555,-0.6155021361,0.9315901612,-138.527612,-0.6980171844,-0.6169540005,-0.8838664925,3.107333222e-08,
32044444,-0.6134825125,0.9318067977,-139.5220558,-0.7087843495,-0.6048873069,-0.853415157,3.0936023e-08,
32133333,-0.6109483518,0.9320786976,-140.5233702,-0.7194566023,-0.5925815521,-0.823651559,3.105895217e-08,
32222222,-0.6112779648,0.9320433277,-141.5041225,-0.7294664558,-0.5801581289,-0.7953184473,3.150346337e-08,
32311111,-0.608516849,0.9323396575,-142.5060172,-0.7397343841,-0.5674947383,-0.7671601463,3.145735097e-08,
32400000,-0.5912897043,0.9341906468,-143.5712927,-0.7516464049,-0.5547430455,-0.7380372498,3.138443422e-08,
32488888,-0.6100332119,0.932176906,-144.5229675,-0.7591166158,-0.5410136298,-0.7126884309,3.130073479e-08,
32577777,-0.6089577979,0.9322923275,-145.5171631,-0.7684846688,-0.5278260108,-0.6868400011,3.1134935e-08,
32666666,-0.6091100201,0.932275989,-146.5411495,-0.7777810813,-0.5139991335,-0.660853222,3.144703352e-08,
32755555,-0.6098083742,0.9322010361,-147.5437975,-0.7865930215,-0.5002701173,-0.6359961296,3.145698148e-08,
32844444,-0.6110318479,0.9320697377,-148.5411819,-0.795069929,-0.4864337612,-0.6118125506,3.144195606e-08,
32933333,-0.6124056113,0.9319223329,-149.5502702,-0.8033861374,-0.4722816414,-0.5878638171,3.15678781e-08,
33022222,-0.6152482203,0.9316173949,-150.5686324,-0.8113874437,-0.4577787531,-0.5641925527,3.160616492e-08,
33111111,-0.6148088512,0.9316645213,-151.5809391,-0.8193899054,-0.4433948164,-0.5411279947,3.186789563e-08,
33200000,-0.6158772842,0.9315499262,-152.5828402,-0.8269159262,-0.428946752,-0.5187307904,3.203002799e-08,
33288888,-0.617833125,0.9313401886,-153.642036,-0.8345159514,-0.4134944663,-0.4954901888,3.21965513e-08,
33377777,-0.6183409577,0.9312857381,-154.6628948,-0.8417012653,-0.3985374585,-0.4734903878,3.223685611e-08,
33466666,-0.6197678289,0.931132764,-155.6923085,-0.8485860062,-0.3832884218,-0.4516789329,3.209351787e-08,
33555555,-0.6214456716,0.9309529156,-156.7156074,-0.855130612,-0.3680013146,-0.4303451537,3.212708204e-08,
33644444,-0.6220535928,0.9308877609,-157.750649,-0.8615783201,-0.3524696041,-0.4090975781,3.21338967e-08,
33733333,-0.6252007548,0.9305505331,-158.7740641,-0.8674219946,-0.3369026237,-0.3883952976,3.220504818e-08,
33822222,-0.627539804,0.9302999761,-159.80451,-0.8731053195,-0.3211621812,-0.3678389927,3.223023974e-08,
33911111,-0.6277875062,0.9302734464,-160.841491,-0.8787495754,-0.3052996378,-0.3474250758,3.227707434e-08,
34000000,-0.6314749582,0.9298785979,-161.8737804,-0.8837319411,-0.2892958056,-0.3273569644,3.246368315e-08,
34088888,-0.6316293644,0.9298620679,-162.9037673,-0.8887736449,-0.273358507,-0.3075681964,3.264112659e-08,
34177777,-0.6324828552,0.9297707025,-163.9675677,-0.8936077519,-0.2567854064,-0.2873580784,3.307871921e-08,
34266666,-0.6336811177,0.9296424448,-165.0171254,-0.8980375233,-0.2403407618,-0.2676288635,3.190995006e-08,
34355555,-0.6225314443,0.9308365499,-166.109703,-0.9036162363,-0.2234600187,-0.2472952673,3.199136101e-08,
34444444,-0.5551864843,0.9380817257,-166.938298,-0.9138109713,-0.2120066813,-0.2320027751,3.255205072e-08,
34533333,-0.6508462643,0.9278070897,-168.1256055,-0.9079529831,-0.1909119593,-0.2102663496,3.326963854e-08,
34622222,-0.6404523493,0.9289180087,-169.2175088,-0.9125174652,-0.1737830334,-0.1904435148,3.407613899e-08,
34711111,-0.6457516574,0.9283514437,-170.2932464,-0.915060795,-0.1565252197,-0.1710544485,3.28999179e-08,
34800000,-0.6514083851,0.9277470472,-171.3066666,-0.9170886067,-0.1402250728,-0.152902426,3.252702668e-08,
34888888,-0.6506901746,0.927823763,-172.34502,-0.9195551583,-0.1235930663,-0.1344052776,3.231088301e-08,
34977777,-0.6560995694,0.9272461132,-173.3959527,-0.9210935053,-0.1066400904,-0.1157755318,3.233594995e-08,
35066666,-0.6579931001,0.9270439948,-174.418293,-0.9226484202,-0.09016906951,-0.09772852534,3.231777262e-08,
35155555,-0.6615866536,0.9266605346,-175.4437886,-0.923732176,-0.0736112321,-0.07968893367,3.274564894e-08,
35244444,-0.6638646997,0.9264175314,-176.4919522,-0.9246816229,-0.05668631937,-0.06130360761,3.293707425e-08,
35333333,-0.6648777041,0.926309493,-177.5984335,-0.9254959013,-0.03881511888,-0.04193980635,3.287444645e-08,
35422222,-0.6697575938,0.9257892217,-178.610909,-0.925517154,-0.02244283118,-0.02424896296,3.249700542e-08,
35511111,-0.6759646602,0.9251278753,-179.6442282,-0.9251100405,-0.00574444171,-0.006209468559,3.199757604e-08,
35600000,-0.6715156758,0.9256018548,179.3314178,-0.9255388384,0.01080056655,-0.01166949036,3.22171192e-08,
35688888,-0.6793185512,0.9247707237,178.3107845,-0.9243688427,0.02726048482,-0.029490917,3.219827209e-08,
35777777,-0.6862231062,0.9240359005,177.2568391,-0.9229770536,0.0442233422,-0.04791380461,3.211395326e-08,
35866666,-0.6874360727,0.9239068698,176.2413891,-0.9219196225,0.06056495519,-0.06569439863,3.187850458e-08,
35955555,-0.6899749224,0.9236368551,175.2278766,-0.9204350252,0.07684012261,-0.08348239746,3.125656128e-08,
36044444,-0.6912366273,0.9235026981,174.2246987,-0.9188151638,0.09292969498,-0.1011407937,3.115925784e-08,
36133333,-0.7076026767,0.9217642625,173.2641283,-0.9154017014,0.1081160516,-0.1181077679,3.152765425e-08,
36222222,-0.7016514195,0.9223960384,172.2377758,-0.9139442194,0.1245809597,-0.1363113383,3.180608239e-08,
36311111,-0.7040533209,0.9221410043,171.176907,-0.9112289783,0.1414417932,-0.1552209122,3.200940205e-08,
36400000,-0.7093044763,0.9215836817,170.1793298,-0.9080791897,0.1571899093,-0.1731015434,3.150479824e-08,
36488888,-0.712968407,0.9211950161,169.1718405,-0.9047931746,0.1730594375,-0.1912696099,3.101946025e-08,
36577777,-0.7158949107,0.9208846936,168.199535,-0.901422467,0.1883245999,-0.2089193545,3.097920928e-08,
36666666,-0.7198337544,0.9204671891,167.2037404,-0.8976062961,0.2038695252,-0.2271257745,3.095019918e-08,
36755555,-0.7239899638,0.9200268497,166.2067001,-0.8934952693,0.2193527023,-0.2454995676,3.10872029e-08,
36844444,-0.7267069125,0.9197391101,165.2162199,-0.8892917577,0.2346917131,-0.2639085667,3.080146589e-08,
36933333,-0.731098256,0.9192742331,164.2193366,-0.8846266307,0.2500016798,-0.2826070017,3.067489078e-08,
37022222,-0.7345604291,0.9189078858,163.2691815,-0.8800084839,0.2645312288,-0.300600771,3.664949384e-08,
37111111,-0.738143915,0.9185288557,162.2722307,-0.874911608,0.2796872124,-0.3196748218,3.340300672e-08,
37200000,-0.3967521377,0.9553497474,160.3258465,-0.8995788318,0.3216380967,-0.3575429805,3.054968936e-08,
37288888,-0.74463947,0.9178422105,160.3465163,-0.8643723117,0.3086986073,-0.357136159,2.746467952e-08,
37377777,-0.7492637839,0.917353687,159.3440823,-0.8583822572,0.3236011241,-0.3769895305,2.419072348e-08,
37466666,-0.7487075636,0.9174124337,158.368808,-0.8528045255,0.3381863611,-0.3965578875,3.043430329e-08,
37555555,-0.7560931207,0.9166326952,157.4441801,-0.8465160395,0.351605024,-0.4153554187,3.141721529e-08,
37644444,-0.7580181967,0.9164295621,156.4269728,-0.8399545214,0.3664963087,-0.4363287528,3.291697394e-08,
37733333,-0.7578463954,0.9164476886,155.2882392,-0.8325215948,0.38312421,-0.4601973238,3.41306216e-08,
37822222,-0.7593410936,0.9162899967,154.1800561,-0.8248142175,0.3990850343,-0.4838483938,3.37338626e-08,
37911111,-0.7615853873,0.9160532727,153.1067322,-0.8169827376,0.414358305,-0.5071812242,3.220274929e-08,
38000000,-0.7643702928,0.9157596111,152.1203015,-0.8094686527,0.4282244336,-0.5290191686,3.076367705e-08,
38088888,-0.7641264101,0.9157853242,151.1656701,-0.8022443094,0.4416637046,-0.5505351667,2.959358801e-08,
38177777,-0.7684221413,0.9153325214,150.2283926,-0.7945192643,0.454502765,-0.5720475078,2.88999173e-08,
38266666,-0.7727271421,0.9148789661,149.3177599,-0.7868055011,0.4668411144,-0.5933373798,2.83800769e-08,
38355555,-0.7781152008,0.9143116215,148.4202641,-0.7789132264,0.4788109511,-0.6147166781,2.800557007e-08,
38444444,-0.7824468903,0.9138557641,147.5289164,-0.770985844,0.4906253011,-0.636360972,2.780662993e-08,
38533333,-0.7830401954,0.9137933437,146.6419176,-0.7632462295,0.5024673802,-0.6583293317,2.798941673e-08,
38622222,-0.7867968097,0.913398217,145.7578668,-0.7550761779,0.5139613491,-0.6806748301,2.694143001e-08,
38711111,-0.792699517,0.9127777059,144.8274766,-0.7461238811,0.5257968187,-0.7047044492,2.797264523e-08,
38800000,-0.8251604939,0.9093728321,144.1255027,-0.7368671317,0.53290316,-0.7232011541,2.875499598e-08,
38888888,-0.795749733,0.9124572229,142.9824708,-0.7285527033,0.5493533855,-0.7540338304,2.960229814e-08,
38977777,-0.7961758288,0.9124124624,142.0795646,-0.7197702029,0.5607382246,-0.7790517339,3.054391325e-08,
39066666,-0.8001311694,0.9119970668,141.1141253,-0.7098966366,0.5725254713,-0.806491314,2.94648812e-08,
39155555,-0.8033500217,0.9116591578,140.1726432,-0.700133999,0.5838962267,-0.8339778207,2.986238922e-08,
39244444,-0.8081193987,0.9111587079,139.2215446,-0.6899664617,0.595110471,-0.8625208673,3.002368062e-08,
39333333,-0.8119732049,0.9107545294,138.2478667,-0.6794525526,0.6064800421,-0.8926010209,3.024560768e-08,
39422222,-0.8133296738,0.9106123086,137.2727186,-0.6689281586,0.6178591225,-0.9236554249,3.050937134e-08,
39511111,-0.8170872525,0.9102184563,136.3077529,-0.658143126,0.6287648718,-0.9553619068,3.02526785e-08,
39600000,-0.8188425999,0.9100345272,135.310096,-0.6469648464,0.6399994751,-0.9892337716,2.998543764e-08,
39688888,-0.8219258659,0.9097115458,134.3887434,-0.6363641116,0.6500890816,-1.021567794,2.986104066e-08,
39777777,-0.8258363539,0.9093020754,133.4345474,-0.6251683506,0.6602990214,-1.056193937,2.984404425e-08,
39866666,-0.8244985985,0.9094421321,132.4678085,-0.6140333766,0.6708561724,-1.09254024,2.990810212e-08,
39955555,-0.8343851659,0.9084075638,131.4955104,-0.6018757503,0.6804042058,-1.130472868,2.962782385e-08,
40044444,-0.8371163299,0.9081219719,130.5729596,-0.5906568885,0.6897897911,-1.167835006,2.94554394e-08,
40133333,-0.8406954103,0.9077478511,129.6415141,-0.5791268836,0.6990123131,-1.207010645,2.944786336e-08,
40222222,-0.8451415606,0.9072833102,128.6819304,-0.5670488919,0.7082503507,-1.249011083,2.929173673e-08,
40311111,-0.8485855207,0.9069236432,127.7293609,-0.5549759782,0.7172950287,-1.292479417,2.939136393e-08,
40400000,-0.8577935593,0.9059627096,126.8423524,-0.5432291259,0.7250314117,-1.334669621,2.937984443e-08,
40488888,-0.8577793961,0.9059641869,125.858679,-0.5307029604,0.7342516434,-1.383545407,2.778816564e-08,
40577777,-0.861090588,0.9056188855,124.9164904,-0.5183598578,0.7425958683,-1.43258753,2.785359544e-08,
40666666,-0.8819049799,0.903451308,124.2462299,-0.5084177078,0.7468170461,-1.468904475,2.752842935e-08,
40755555,-0.8748668732,0.904183664,123.1919961,-0.494992026,0.7566577777,-1.528626196,2.525951456e-08,
40844444,-0.8801601259,0.9036328149,122.3163719,-0.4830765513,0.7636683245,-1.580843289,2.745207507e-08,
40933333,-0.862010832,0.905522943,121.839892,-0.4777062767,0.7692649176,-1.610330354,2.775905647e-08,
41022222,-0.8970589307,0.9018764641,120.5299444,-0.4581429678,0.7768437279,-1.69563604,3.918495838e-08,
41111111,-0.9035912284,0.9011984552,119.6437553,-0.4457379226,0.7832473172,-1.757192461,3.536150207e-08,
41200000,-1.307896763,0.8602113368,117.1448391,-0.3924640587,0.7654642426,-1.950405969,2.80864491e-08,
41288888,-0.9075312914,0.9007897494,117.8745973,-0.4211533843,0.7962738219,-1.890697906,1.918423231e-08,
41377777,-0.9168060995,0.8998283978,116.920686,-0.4074032938,0.8023177063,-1.969345164,1.557332181e-08,
41466666,-1.077704034,0.8833133583,116.6863854,-0.3967019502,0.7892211677,-1.989456233,2.728952309e-08,
41555555,-0.9452388244,0.8968876807,115.2472105,-0.3825447529,0.8112133036,-2.120570985,2.741658732e-08,
41644444,-0.9533963395,0.8960457474,114.3450059,-0.3693770633,0.8163691362,-2.210124064,3.02974141e-08,
41733333,-0.9835278326,0.8929427354,113.7047163,-0.3589836493,0.8176047139,-2.277554188,2.73090401e-08,
41822222,-0.9732824286,0.8939966236,112.6100402,-0.3437033443,0.8252866012,-2.401159648,2.756293577e-08,
41911111,-0.9842888917,0.892864499,111.7452414,-0.3307887039,0.8293285519,-2.507124766,2.874789984e-08,
42000000,-0.991781756,0.8920946035,110.9146681,-0.3184573887,0.8333172704,-2.616730841,2.699002902e-08,
42088888,-1.007928919,0.8904377304,109.9527326,-0.3038572518,0.8369887229,-2.75454582,2.705252155e-08,
42177777,-1.021651645,0.88903205,109.1878845,-0.292195449,0.8396426654,-2.873565171,2.673609046e-08,
42266666,-1.037023932,0.8874600326,108.280273,-0.278365639,0.8426730567,-3.027216505,2.601743377e-08,
42355555,-1.048729486,0.8862648511,107.473118,-0.2661083798,0.8453707568,-3.176791191,2.619980974e-08,
42444444,-1.05994861,0.8851208466,106.6473213,-0.2535692074,0.848022152,-3.344342006,2.573558958e-08,
42533333,-1.074132545,0.8836766363,105.8123856,-0.2407914941,0.850237528,-3.531011471,2.598756495e-08,
42622222,-1.088231904,0.882243373,104.9929398,-0.2282363761,0.8522097898,-3.733891172,2.629710256e-08,
42711111,-1.105576912,0.8804833632,104.1422932,-0.2151292587,0.8537976077,-3.968765629,2.652536715e-08,
42800000,-1.117455842,0.8792800264,103.2748258,-0.2019021497,0.8557855379,-4.238615285,2.708720289e-08,
42888888,-1.131375552,0.8778720508,102.4273785,-0.1889198223,0.8573031193,-4.53792042,2.632556382e-08,
42977777,-1.139903252,0.8770105897,101.5164392,-0.1750943613,0.8593541406,-4.907948688,2.499876607e-08,
43066666,-1.160318481,0.8749516933,100.8094384,-0.164091175,0.859426874,-5.237496009,2.376278871e-08,
43155555,-1.177715943,0.8732009566,100.0839883,-0.1528901466,0.8597118783,-5.623069225,2.290451182e-08,
43244444,-1.194538087,0.8715114467,99.34155305,-0.1414632878,0.8599536848,-6.078988395,2.336267431e-08,
43333333,-1.208992149,0.8700623833,98.5856554,-0.1298896932,0.8603122796,-6.62340682,2.374247716e-08,
43422222,-1.226020521,0.8683583284,97.82057228,-0.1181586429,0.8602817687,-7.280735016,2.393127057e-08,
43511111,-1.241799783,0.8667822532,97.0456776,-0.1063200197,0.8602369022,-8.091015265,2.392126563e-08,
43600000,-1.253997434,0.8655658796,96.28253388,-0.09472000426,0.8603676032,-9.08327243,2.375061488e-08,
43688888,-1.26853026,0.8641188659,95.52726732,-0.08323145838,0.8601011213,-10.33384658,2.339913173e-08,
43777777,-1.283041316,0.8626764335,94.77967429,-0.07188193727,0.8596764601,-11.95956165,2.321280055e-08,
43866666,-1.295124726,0.8614771522,94.05328375,-0.06089278451,0.8593223799,-14.11205591,2.299437823e-08,
43955555,-1.311175992,0.8598866381,93.30547293,-0.04958053812,0.8584560563,-17.31437554,2.281904147e-08,
44044444,-1.322011275,0.8588146342,92.58526288,-0.03873772744,0.8579405367,-22.14741528,2.254712307e-08,
44133333,-1.335718111,0.8574604439,91.86263352,-0.02787034711,0.8570073842,-30.74979227,2.239510811e-08,
44222222,-1.347104055,0.8563371738,91.16715925,-0.01744304277,0.8561595035,-49.08315107,2.219653302e-08,
44311111,-1.360988065,0.8549694501,90.43130297,-0.00643585588,0.8549452265,-132.8409527,2.218153659e-08,
44400000,-1.365506616,0.8545247958,89.74947844,0.003736334606,0.8545166273,228.7045239,2.219385045e-08,
44488888,-1.383355913,0.8527705707,89.02242364,0.0145492026,0.852646449,58.60434226,2.202924432e-08,
44577777,-1.397101143,0.8514221471,88.32057841,0.0249528326,0.8510564193,34.10660556,2.208277228e-08,
44666666,-1.407739946,0.8503799318,87.62110914,0.03529718761,0.8496470662,24.07123977,2.190633766e-08,
44755555,-1.418004213,0.8493756166,86.91688771,0.04568323933,0.8481462019,18.56580694,2.185081434e-08,
44844444,-1.43001739,0.8482016843,86.21925058,0.05592927338,0.8463557252,15.1326072,2.174104563e-08,
44933333,-1.442652984,0.8469686798,85.52537302,0.0660784725,0.8443871032,12.77855058,2.14647868e-08,
45022222,-1.452917064,0.8459684115,84.83829483,0.07610918917,0.8425378001,11.07011925,2.138889142e-08,
45111111,-1.463845246,0.8449047227,84.1729954,0.08577911443,0.8405390735,9.798877956,2.133828005e-08,
45200000,-1.475286838,0.8437924946,83.47321249,0.09591197433,0.8383237245,8.740553308,2.133783743e-08,
45288888,-1.48542514,0.8428081818,82.79378512,0.1057225727,0.8361509247,7.908915789,2.125864736e-08,
45377777,-1.495919225,0.8417905359,82.11384172,0.1154980819,0.8338294187,7.219422215,2.132600089e-08,
45466666,-1.508139805,0.8406070146,81.45133122,0.124955777,0.831267831,6.652496195,2.175777276e-08,
45555555,-1.516571736,0.8397913813,80.73227503,0.1352466336,0.8288292419,6.128280018,2.198512239e-08,
45644444,-1.52694681,0.8387888708,80.00332047,0.1456062867,0.8260542228,5.673204377,2.178518328e-08,
45733333,-1.5374567,0.8377745535,79.32022311,0.1552561967,0.8232628474,5.302608624,2.128084556e-08,
45822222,-1.546564573,0.8368965381,78.6717235,0.1643916467,0.8205919826,4.991689048,1.955075258e-08,
45911111,-1.555228997,0.836062126,77.99313397,0.173925089,0.8177713262,4.701859467,2.009541483e-08,
46000000,-1.57646095,0.8340209357,77.53874072,0.1799645695,0.8143731792,4.525186159,2.063053682e-08,
46088888,-1.581398916,0.8335469259,76.67144411,0.19216152,0.8110945863,4.220900139,2.122346824e-08,
46177777,-1.593527187,0.832383841,76.03167841,0.2009252976,0.8077696971,4.020248853,2.1925451e-08,
46266666,-1.604855119,0.8312989731,75.35094416,0.2102336853,0.8042759354,3.825628297,2.072396893e-08,
46355555,-1.617432091,0.8300961421,74.69091415,0.2191669675,0.8006406469,3.653108203,2.099952019e-08,
46444444,-1.629282155,0.8289644232,74.02598707,0.2281321182,0.7969553009,3.493393684,2.129123064e-08,
46533333,-1.639972823,0.8279447542,73.33422953,0.2374448257,0.7931661054,3.340422783,2.139539277e-08,
