Frequency,S11_Magnitude,S11_Magnitude (linear),S11_Phase,S11_Real,S11_Imaginary,S11_Quality Factor,S11_Group delay,
30000000,-0.6625755082,0.9265550439,-116.7457092,-0.4169790173,-0.8274253734,-1.984333357,2.925250866e-08,
30088888,-0.6981607884,0.9227667996,-117.737632,-0.4294773291,-0.8167299372,-1.901683469,2.925250866e-08,
30177777,-0.6902848641,0.9236038972,-118.6690001,-0.4430979043,-0.8103754724,-1.828885816,2.925250866e-08,
30266666,-0.6826019236,0.9244212151,-119.5847256,-0.4563960462,-0.8039012576,-1.761411529,2.867561796e-08,
30355555,-0.676859341,0.9250325884,-120.5025696,-0.4695252707,-0.7970139959,-1.697489029,2.896440719e-08,
30444444,-0.6701813748,0.925744054,-121.4089518,-0.4824450177,-0.7900942085,-1.63768757,2.885892557e-08,
30533333,-0.6682888916,0.9259457772,-122.3911979,-0.4960264478,-0.7818780886,-1.576283063,2.881918786e-08,
30622222,-0.6582253885,0.9270192031,-123.2578453,-0.508384501,-0.7751837215,-1.524798101,4.689107802e-08,
30711111,-0.6551831264,0.9273439515,-124.1891987,-0.5211000197,-0.7670864188,-1.472052178,3.778841703e-08,
30800000,-0.5670538239,0.9368009205,-128.0125333,-0.5769137042,-0.7380830188,-1.279364684,2.934523432e-08,
30888888,-0.6472431605,0.9281920449,-126.0600082,-0.5463637686,-0.7503513208,-1.37335483,2.143188011e-08,
30977777,-0.6415715808,0.9287983195,-127.0176839,-0.5591936977,-0.741598764,-1.326192994,1.210041882e-08,
31066666,-0.689077943,0.9237322427,-128.1156899,-0.5701749705,-0.7267611432,-1.274628282,2.987602192e-08,
31155555,-0.6343237299,0.9295736691,-128.9207619,-0.5840000314,-0.7232227663,-1.238395081,2.976273875e-08,
31244444,-0.6293437081,0.9301067895,-129.8886387,-0.5964751555,-0.7136638065,-1.19646862,2.928847361e-08,
31333333,-0.6223442537,0.9308566106,-130.8932536,-0.6093869654,-0.7036629562,-1.154706281,3.012959443e-08,
31422222,-0.6217485721,0.9309204513,-131.8156056,-0.6206777039,-0.693809826,-1.117826243,2.369672798e-08,
31511111,-0.6197413296,0.9311356048,-132.7780196,-0.6323898458,-0.6834446557,-1.080733127,2.682476428e-08,
31600000,-0.6444337685,0.9284923109,-132.737737,-0.6301153299,-0.681947683,-1.082258518,3.039892436e-08,
31688888,-0.6130238763,0.9318560007,-134.7241556,-0.6557417654,-0.6620863562,-1.009675441,3.391376461e-08,
31777777,-0.6107436376,0.9321006656,-135.7063716,-0.6671700632,-0.6509191637,-0.9756420434,3.729719306e-08,
31866666,-0.6135824653,0.931796075,-136.7198503,-0.6783571572,-0.6388078684,-0.9416984278,3.103797233e-08,
31955555,-0.6126316542,0.9318980807,-137.707448,-0.6893423201,-0.6270894662,-0.9096923952,3.105275594e-08,
32044444,-0.6111183612,0.9320604542,-138.6896992,-0.7001129828,-0.6152873324,-0.8788400552,3.086602532e-08,
32133333,-0.6093211576,0.9322533274,-139.6898943,-0.7108937263,-0.6030973192,-0.8483649481,3.097131892e-08,
32222222,-0.6077122452,0.9324260274,-140.6671974,-0.7212105189,-0.5909938105,-0.81944702,3.174093537e-08,
32311111,-0.6047603418,0.9327429666,-141.6741161,-0.7317334058,-0.5784251591,-0.7904861997,3.155008366e-08,
32400000,-0.5870734625,0.934644225,-142.7761443,-0.7442367445,-0.5653949906,-0.7596977638,3.138070935e-08,
32488888,-0.6072545005,0.9324751673,-143.6834405,-0.7513485301,-0.5522547636,-0.7350180928,3.114479732e-08,
32577777,-0.6067069791,0.9325339484,-144.6834549,-0.76092037,-0.5390916022,-0.7084730854,3.091106664e-08,
32666666,-0.6056288396,0.9326497068,-145.7035785,-0.7704931564,-0.5255242825,-0.6820622327,3.158772757e-08,
32755555,-0.6063578575,0.9325714316,-146.7118522,-0.7795559635,-0.5118417478,-0.6565811458,3.164292077e-08,
32844444,-0.6077417774,0.9324228571,-147.7232847,-0.7883438711,-0.4979220073,-0.6316050972,3.161740038e-08,
32933333,-0.607949885,0.9324005172,-148.7364755,-0.7970060715,-0.4838925981,-0.607137907,3.150067162e-08,
33022222,-0.6095958924,0.9322238407,-149.7500572,-0.8052885215,-0.4696293073,-0.5831814247,3.134568801e-08,
33111111,-0.6088282717,0.9323062302,-150.7385796,-0.8133426466,-0.4557067544,-0.5602887742,3.156172502e-08,
33200000,-0.6082684728,0.9323663185,-151.737549,-0.8212169339,-0.4414857861,-0.5375994672,3.182728958e-08,
33288888,-0.6111380274,0.9320583438,-152.792612,-0.828933009,-0.4261488272,-0.5140932048,3.210376614e-08,
33377777,-0.6120608667,0.9319593218,-153.8154138,-0.8363189642,-0.4112405228,-0.4917268894,3.220604178e-08,
33466666,-0.6117577886,0.9319918414,-154.8361985,-0.8435419681,-0.3962899702,-0.4697928322,3.207391866e-08,
33555555,-0.6118831005,0.9319783956,-155.8687288,-0.8505339041,-0.3810194323,-0.4479767714,3.21926784e-08,
33644444,-0.6129846172,0.9318602125,-156.8977878,-0.8571309397,-0.3656364424,-0.4265817805,3.244431386e-08,
33733333,-0.6150724774,0.9316362447,-157.935454,-0.8634043774,-0.3499699609,-0.4053372557,3.285075438e-08,
33822222,-0.6167281496,0.9314586766,-158.9939326,-0.8695562348,-0.333897021,-0.3839855407,3.316652993e-08,
33911111,-0.6147831973,0.931667273,-160.0767838,-0.875907106,-0.3174754308,-0.3624533111,3.339502904e-08,
34000000,-0.617936526,0.9313291015,-161.1337744,-0.8812945031,-0.3011542696,-0.3417180846,3.329757822e-08,
34088888,-0.6143493498,0.9317138096,-162.2087444,-0.8871555625,-0.2846851434,-0.320896532,3.27440579e-08,
34177777,-0.6155785343,0.9315819673,-163.2555714,-0.8920823146,-0.2683917023,-0.300859795,3.229869157e-08,
34266666,-0.6192194841,0.9311915488,-164.2548821,-0.8962517168,-0.2526866847,-0.2819371835,3.041245877e-08,
34355555,-0.6109630356,0.9320771219,-165.2785027,-0.9014793368,-0.2368602255,-0.2627461505,3.045783735e-08,
34444444,-0.5570045902,0.9378853897,-166.0632783,-0.9102762164,-0.225889827,-0.2481552554,3.135649345e-08,
34533333,-0.6379459154,0.9291860996,-167.2246334,-0.9061836474,-0.2054702044,-0.2267423441,3.225298885e-08,
34622222,-0.6256116853,0.9305065097,-168.298862,-0.9111694517,-0.1887129959,-0.207110758,3.349098224e-08,
34711111,-0.6314746865,0.929878627,-169.3211955,-0.9137744432,-0.1723093957,-0.1885688497,3.262836708e-08,
34800000,-0.6314858385,0.9298774331,-170.3735611,-0.9167838079,-0.1554975567,-0.1696120235,3.253124404e-08,
34888888,-0.6334181968,0.9296705854,-171.4078291,-0.919236711,-0.1388930037,-0.1510960149,3.265058923e-08,
34977777,-0.6351167109,0.9294888073,-172.4605508,-0.9214531503,-0.1219571018,-0.1323530141,3.258516957e-08,
35066666,-0.6375125304,0.9292324628,-173.5017427,-0.9232624214,-0.1051640194,-0.1139047978,3.256150977e-08,
35155555,-0.637277004,0.9292576601,-174.540238,-0.9250418634,-0.08841577881,-0.09558029999,3.273915288e-08,
35244444,-0.6385285047,0.9291237783,-175.5778336,-0.9263577738,-0.0716398652,-0.07733498571,3.281321207e-08,
35333333,-0.6424541093,0.9287039539,-176.6607763,-0.9271271774,-0.05409464698,-0.05834652278,3.279828247e-08,
35422222,-0.6425485786,0.9286938532,-177.691594,-0.9279402149,-0.03740628967,-0.04031109878,3.271210203e-08,
35511111,-0.6458557641,0.9283403168,-178.7310895,-0.9281126623,-0.02055796257,-0.02215028779,3.231608381e-08,
35600000,-0.6416814957,0.9287865662,-179.7766199,-0.9287795074,-0.003621068605,-0.003898738695,3.22059353e-08,
35688888,-0.6480585305,0.9281049169,179.2111567,-0.9280169546,0.01277766338,-0.01376878226,3.217582228e-08,
35777777,-0.6514904649,0.9277382802,178.1843268,-0.9272724912,0.02939461925,-0.03170008766,3.222893538e-08,
35866666,-0.6521691692,0.9276657907,177.1403571,-0.9265106105,0.04628075033,-0.04995166791,3.233809292e-08,
35955555,-0.6571111155,0.9271381337,176.1021439,-0.9249934992,0.06302495896,-0.06813556962,3.242034505e-08,
36044444,-0.6597996486,0.9268512022,175.0781469,-0.9234335727,0.07952098962,-0.08611446667,3.188290958e-08,
36133333,-0.6585428747,0.9269853193,174.0281702,-0.9219547257,0.09644307156,-0.1046071666,3.167348036e-08,
36222222,-0.6633664041,0.9264706801,173.076072,-0.9197140068,0.1116873615,-0.1214370562,3.146339393e-08,
36311111,-0.6649134785,0.9263056778,172.0354181,-0.9173704509,0.1283497743,-0.1399105173,3.139115589e-08,
36400000,-0.6716629525,0.9255861605,171.0403736,-0.9142924612,0.1441493533,-0.1576621917,3.16952882e-08,
36488888,-0.6718216198,0.9255692528,170.0234282,-0.9115734195,0.1603506859,-0.1759053988,3.150423692e-08,
36577777,-0.6737665305,0.9253620261,169.0108145,-0.90839383,0.1763959435,-0.194184436,3.143724556e-08,
36666666,-0.6774818475,0.9249662948,168.0095701,-0.9047856713,0.1921601822,-0.2123819909,3.120252072e-08,
36755555,-0.6797536735,0.9247243982,167.0173371,-0.9010866743,0.2077450792,-0.2305494966,3.095881164e-08,
36844444,-0.6836959329,0.9243047893,166.0277574,-0.8969572109,0.2231750554,-0.2488134916,3.092985167e-08,
36933333,-0.6871857107,0.9239335009,165.0483048,-0.8926525198,0.2383790951,-0.2670457874,3.092233611e-08,
37022222,-0.6887004374,0.9237723908,164.0453038,-0.8881880704,0.2539239679,-0.2858898654,3.925871666e-08,
37111111,-0.6923330901,0.9233861272,163.0609839,-0.8833253947,0.2690319441,-0.3045672022,3.524154968e-08,
37200000,-0.53011444,0.9407934346,160.7400153,-0.8881386866,0.3103255711,-0.3494111627,3.196567539e-08,
37288888,-0.6980958023,0.9227737036,161.0622941,-0.872825796,0.2994769405,-0.3431119267,2.795426347e-08,
37377777,-0.6996141599,0.9226124101,159.9301342,-0.8665866489,0.3166089688,-0.3653517732,2.322124684e-08,
37466666,-0.7017530924,0.9223852413,158.993287,-0.8610820721,0.3306541978,-0.3839984695,3.056269372e-08,
37555555,-0.7065131048,0.9218798973,158.0591147,-0.8551080074,0.3444602165,-0.4028265594,2.957621884e-08,
37644444,-0.7101509748,0.9214938715,157.1077667,-0.8489153046,0.358460264,-0.4222568046,2.996067052e-08,
37733333,-0.7124614974,0.9212487787,156.1406934,-0.8425202125,0.3726378991,-0.4422895659,3.07297518e-08,
37822222,-0.7143624349,0.9210471822,155.1587844,-0.8358277627,0.3869365102,-0.4629380926,3.112445199e-08,
37911111,-0.7164994391,0.9208206033,154.1168395,-0.828449514,0.4019726187,-0.4852107605,3.157481982e-08,
38000000,-0.7189594676,0.9205598443,153.1397752,-0.8212419299,0.4159232134,-0.5064563782,3.217039529e-08,
38088888,-0.7201014197,0.9204388243,152.0982206,-0.8134388208,0.4307260314,-0.5295125096,3.277561052e-08,
38177777,-0.7230726171,0.920124022,151.0208241,-0.804920679,0.4457924589,-0.5538340242,3.379097456e-08,
38266666,-0.7196288435,0.9204889043,149.9322697,-0.7966221559,0.4611864739,-0.5789275009,3.412259584e-08,
38355555,-0.7211524807,0.9203274507,148.8161879,-0.7873498759,0.4765320446,-0.6052354349,3.358118472e-08,
38444444,-0.7213901343,0.9203022701,147.7409165,-0.7782473692,0.4912100371,-0.6311746837,3.216728989e-08,
38533333,-0.7219260666,0.9202454878,146.7435045,-0.7695313549,0.5046516141,-0.6557908405,3.049793439e-08,
38622222,-0.7258192001,0.9198331137,145.8218386,-0.7609731111,0.5167328917,-0.6790422475,2.918829993e-08,
38711111,-0.7297698064,0.9194148408,144.8960512,-0.7521825551,0.5287202033,-0.7029147376,2.870798366e-08,
38800000,-0.7374313675,0.9186042103,143.9945093,-0.743114671,0.5400132229,-0.7266889538,2.8724589e-08,
38888888,-0.7333122527,0.9190399439,143.063886,-0.7345941873,0.5522733005,-0.7518073381,2.915416949e-08,
38977777,-0.7352765695,0.9188321262,142.1419813,-0.7254491732,0.5638935832,-0.7773026754,2.973335932e-08,
39066666,-0.739704522,0.918363837,141.1576948,-0.7152907163,0.5759785833,-0.8052370458,3.014771051e-08,
39155555,-0.7413927902,0.9181853528,140.1902615,-0.7053267706,0.5878592424,-0.8334565862,3.049448492e-08,
39244444,-0.7454072339,0.9177610841,139.2161062,-0.6949091501,0.5994886826,-0.8626864137,3.074125578e-08,
39333333,-0.746726203,0.9176217309,138.2336519,-0.6844240884,0.6112227975,-0.8930468812,3.104476097e-08,
39422222,-0.7478916056,0.91749862,137.2173925,-0.6733853404,0.623182077,-0.9254464564,3.127914559e-08,
39511111,-0.7536949464,0.9168858125,136.2224504,-0.6620203257,0.6343569038,-0.9582136366,3.111677197e-08,
39600000,-0.756679781,0.9165707863,135.2170374,-0.6505638273,0.6456537098,-0.99245252,3.070487789e-08,
39688888,-0.7593091318,0.9162933684,134.2551397,-0.6394396455,0.6562853623,-1.026344499,3.026415755e-08,
39777777,-0.7625276382,0.9159539041,133.2882612,-0.6280414104,0.6667349857,-1.061609911,2.968714154e-08,
39866666,-0.7633447879,0.9158677372,132.3446216,-0.6169178196,0.6769240104,-1.097267722,2.924519083e-08,
39955555,-0.7710381831,0.9150568803,131.4223478,-0.6054056499,0.6861582131,-1.133385876,2.875328213e-08,
40044444,-0.7750258536,0.9146368764,130.50886,-0.5941166764,0.6954034732,-1.170483006,2.849028139e-08,
40133333,-0.7758257674,0.9145526482,129.6056112,-0.5830268061,0.7046178323,-1.208551348,2.852557123e-08,
40222222,-0.7819948383,0.9139033264,128.6945393,-0.5713433637,0.7132924021,-1.248447864,2.892578631e-08,
40311111,-0.7831325146,0.9137836314,127.7654111,-0.5596284486,0.7223686902,-1.290800516,2.898116626e-08,
40400000,-0.7872475348,0.9133508205,126.8008285,-0.54712927,0.7313407436,-1.336687294,2.941318552e-08,
40488888,-0.7892045121,0.9131450609,125.9154742,-0.5356427725,0.7395408863,-1.380660627,2.905350341e-08,
40577777,-0.7930167371,0.9127443707,124.9133922,-0.5223978843,0.7484669243,-1.432752595,2.889330384e-08,
40666666,-0.8086270775,0.9111054534,124.0606152,-0.5102825198,0.7548012303,-1.479183003,2.911157856e-08,
40755555,-0.8012586439,0.9118786924,123.1053235,-0.4980497163,0.7638515757,-1.533685395,2.671578696e-08,
40844444,-0.8062930685,0.911350312,122.1616501,-0.4851206771,0.7715032857,-1.59033272,2.841198405e-08,
40933333,-0.8624555724,0.905476579,121.5883435,-0.4743000554,0.7713153004,-1.626218027,2.940971841e-08,
41022222,-0.8167067557,0.9102583305,120.2731821,-0.4588825674,0.7861278634,-1.713135166,3.416990885e-08,
41111111,-0.8214506191,0.9097613219,119.3439967,-0.4458303175,0.7930327804,-1.778777148,3.311758094e-08,
41200000,-1.091501447,0.8819113414,117.8166312,-0.4115380959,0.7800025703,-1.895335032,2.891860339e-08,
41288888,-0.8236392342,0.9095321149,117.5177993,-0.4202257998,0.8066343318,-1.91952596,3.191070726e-08,
41377777,-0.831019229,0.9087596562,116.5592985,-0.406328061,0.8128601476,-2.00050212,2.695429264e-08,
41466666,-0.6803285222,0.9246632002,114.867001,-0.38883321,0.8389343053,-2.157568551,2.77541751e-08,
41555555,-0.8491547982,0.9068642049,114.8293382,-0.3808075631,0.8230360175,-2.161291154,2.455382955e-08,
41644444,-0.8559601302,0.9061539616,113.9421059,-0.3677293753,0.8281848276,-2.252158471,2.242028571e-08,
41733333,-0.8766237356,0.9040007967,113.0931284,-0.3545733369,0.8315618974,-2.345246556,2.788011806e-08,
41822222,-0.8677652105,0.9049232352,112.1478557,-0.3411542545,0.838152633,-2.456814247,2.744145557e-08,
41911111,-0.876109097,0.9040543603,111.2656388,-0.3278936597,0.8424963112,-2.569419342,2.75063863e-08,
42000000,-0.8898364352,0.9026267048,110.4652123,-0.3155931436,0.845657103,-2.679580086,2.74027867e-08,
42088888,-0.8938647374,0.9022081857,109.5334227,-0.3016593337,0.8502830451,-2.818686346,2.804820626e-08,
42177777,-0.9011170925,0.901455194,108.6295124,-0.2879675643,0.8542225405,-2.966384573,2.827364499e-08,
42266666,-0.9120574029,0.900320481,107.6958207,-0.2736646275,0.8577206073,-3.134203405,2.76513216e-08,
42355555,-0.9198768151,0.8995103385,106.8602245,-0.2608920811,0.8608450331,-3.299621167,2.709508458e-08,
42444444,-0.9290656398,0.8985592474,105.9938497,-0.2475837762,0.8637771673,-3.488827825,2.67488954e-08,
42533333,-0.9418773425,0.8972348479,105.1452789,-0.2344182227,0.8660707067,-3.694553678,2.686412198e-08,
42622222,-0.951768719,0.8962136702,104.2734648,-0.2209616685,0.8685475714,-3.930761283,2.699481741e-08,
42711111,-0.9679197566,0.8945487479,103.422152,-0.2076462216,0.8701152275,-4.190373515,2.680418407e-08,
42800000,-0.9774840549,0.8935642751,102.536237,-0.1939544106,0.872260741,-4.497246226,2.636709808e-08,
42888888,-0.9915616206,0.892117213,101.725218,-0.1812945155,0.8735018148,-4.818137011,2.612083311e-08,
42977777,-1.004851656,0.8907532533,100.9031909,-0.1684860928,0.8746735361,-5.191369337,2.601186909e-08,
43066666,-1.018627185,0.8893416682,100.0593836,-0.1553402219,0.8756700396,-5.637110781,2.64218316e-08,
43155555,-1.033750887,0.8877945112,99.20724993,-0.1420525319,0.8763561903,-6.169240198,2.675550218e-08,
43244444,-1.050441178,0.8860902158,98.34569016,-0.1286117825,0.8767068381,-6.816691449,2.709909842e-08,
43333333,-1.064642118,0.8846426918,97.47915188,-0.1151498947,0.8771164084,-7.617170736,2.714832631e-08,
43422222,-1.080925101,0.8829858519,96.58757144,-0.1012976081,0.8771560917,-8.659198455,2.69513036e-08,
43511111,-1.098972946,0.8811530579,95.74257165,-0.08816735023,0.8767309906,-9.943941701,2.697128971e-08,
43600000,-1.114313574,0.8795981784,94.90176631,-0.07515958699,0.876381191,-11.66027151,2.70604593e-08,
43688888,-1.130654968,0.8779448823,94.0066427,-0.06134387702,0.8757991465,-14.2768796,2.705386874e-08,
43777777,-1.146813746,0.8763131176,93.12585702,-0.04778486117,0.8750093069,-18.31143348,2.666838099e-08,
43866666,-1.163024976,0.8746791036,92.30195058,-0.03513219398,0.8739732623,-24.87670604,2.591055137e-08,
43955555,-1.184062848,0.8725631291,91.48716607,-0.02264565716,0.8722692179,-38.5181676,2.522613916e-08,
44044444,-1.201227735,0.8708404895,90.68029477,-0.01033958029,0.8707791059,-84.21803218,2.451669856e-08,
44133333,-1.223190578,0.8686412936,89.90049762,0.001508520092,0.8686399837,575.8226145,2.387218859e-08,
44222222,-1.240574062,0.8669045789,89.17260814,0.01251828443,0.8668141909,69.24384852,2.339356393e-08,
44311111,-1.26521582,0.8644486671,88.42145444,0.02381325455,0.864120609,36.28737967,2.298930177e-08,
44400000,-1.27473967,0.8635013413,87.67684145,0.03500259376,0.8627916231,24.64936253,2.273361461e-08,
44488888,-1.30514658,0.8604837456,86.97008808,0.04548284331,0.8592808548,18.89241728,2.234334065e-08,
44577777,-1.328728236,0.8581507536,86.26090843,0.05596271175,0.8563240572,15.30168983,2.21998141e-08,
44666666,-1.348872946,0.8561627975,85.5545222,0.06636152258,0.8535870689,12.8626806,2.215131659e-08,
44755555,-1.367293941,0.8543489754,84.8326497,0.07694699688,0.8508768016,11.05795984,2.196049946e-08,
44844444,-1.387777141,0.8523366102,84.14000236,0.08702189495,0.8478825902,9.743324835,2.18688696e-08,
44933333,-1.408110468,0.8503436572,83.45448405,0.09693277782,0.8448007883,8.715326304,2.171691075e-08,
45022222,-1.426083144,0.8485859616,82.74458151,0.1071702826,0.8417913427,7.854708619,2.174126714e-08,
45111111,-1.444377526,0.846800535,82.05565006,0.1170373275,0.8386736016,7.165864255,2.262069788e-08,
45200000,-1.461020928,0.8451794981,81.36081226,0.1269557421,0.8355899853,6.581742356,2.193135426e-08,
45288888,-1.473512653,0.8439648658,80.52705249,0.1389013478,0.8324560711,5.993146102,2.112225024e-08,
45377777,-1.494046709,0.8419720298,79.99985923,0.1462089458,0.8291802236,5.671200343,2.039495656e-08,
45466666,-1.512721033,0.8401637673,79.35660033,0.1551747518,0.8257093631,5.321157941,2.002119948e-08,
45555555,-1.5243788,0.8390368979,78.68284121,0.1646524392,0.8227226083,4.996722869,2.173393787e-08,
45644444,-1.537778351,0.8377435301,77.98216558,0.174431731,0.8193825684,4.697439873,2.258435716e-08,
45733333,-1.548432568,0.8367165737,77.2096422,0.1852359869,0.8159548112,4.404947575,2.279986326e-08,
45822222,-1.557907817,0.8358043154,76.47969817,0.1954026012,0.8126417889,4.158807427,2.101838697e-08,
45911111,-1.570117562,0.8346302516,75.78609223,0.204937364,0.8090786944,3.947931594,2.041637643e-08,
46000000,-1.588048071,0.8329090797,75.33099444,0.2109214469,0.8057603107,3.820191463,2.015762278e-08,
46088888,-1.5989252,0.8318667007,74.51736976,0.2220636797,0.8016794434,3.610133113,2.033981172e-08,
46177777,-1.612058834,0.8306098142,73.88883573,0.2304957675,0.7979876971,3.462049242,2.111635265e-08,
46266666,-1.624126719,0.829456594,73.25283425,0.2390070048,0.7942757034,3.323231903,2.019250709e-08,
46355555,-1.637573281,0.8281735118,72.58464155,0.2478694922,0.7902101495,3.188008909,2.042534838e-08,
46444444,-1.64964988,0.8270228444,71.93866168,0.2564060077,0.786271419,3.066509346,2.042054721e-08,
46533333,-1.662154985,0.8258330335,71.2778622,0.2650750179,0.7821351763,2.950618216,2.023184397e-08,
