Frequency,S11_Magnitude,S11_Magnitude (linear),S11_Phase,S11_Real,S11_Imaginary,S11_Quality Factor,S11_Group delay
30000000,-0.7943418402,0.912605134748796,-115.4140622,-0.391650724,-0.8242923282,-2.104661826,3.377092074E-08
30088888,-0.7932031801,0.912724778816677,-117.2419143,-0.4177983538,-0.8114869422,-1.942293297,3.377092074E-08
30177777,-0.7845923098,0.913630069125714,-118.1443931,-0.4309549331,-0.8056039653,-1.869346197,3.377092074E-08
30266666,-0.7736824724,0.914778347352428,-119.0320737,-0.4439411534,-0.7998347811,-1.801668476,2.778152635E-08
30355555,-0.7675801923,0.915421251568203,-119.9223366,-0.4566356088,-0.7933977493,-1.737485501,2.770244665E-08
30444444,-0.7578326012,0.916449144071731,-120.7979924,-0.4692336618,-0.7872095047,-1.677649259,2.784575997E-08
30533333,-0.7528915565,0.916970622535875,-121.6938307,-0.4817580604,-0.78022067,-1.619528004,2.803448858E-08
30622222,-0.742626097,0.918054989232401,-122.6016538,-0.4946435307,-0.7734033494,-1.563556989,1.241400835E-08
30711111,-0.7348905777,0.918872959023025,-123.5060296,-0.5072406045,-0.7661817565,-1.510489795,2.052463655E-08
30800000,-1.664555836,0.825604798015873,-121.8781367,-0.4360137333,-0.7010815265,-1.607934505,2.861342595E-08
30888888,-0.7223733653,0.920198098992975,-125.3395352,-0.5322615712,-0.7506411667,-1.410286234,3.729895737E-08
30977777,-0.7136478229,0.921122962438856,-126.2630549,-0.5448381359,-0.7427105207,-1.363176459,4.534167128E-08
31066666,-0.7671040724,0.915471432060792,-127.2813441,-0.5545279212,-0.7284138436,-1.313574693,2.944918526E-08
31155555,-0.7040401943,0.922142397863743,-128.1619088,-0.5697787,-0.7250509189,-1.272513204,2.959801239E-08
31244444,-0.6942504006,0.923182322797465,-129.1019838,-0.582253562,-0.7164121654,-1.230412679,2.930950202E-08
31333333,-0.6859190107,0.924068251829582,-130.0884229,-0.5950713615,-0.7069598353,-1.188025304,2.977404762E-08
31422222,-0.6814872745,0.924539852530222,-131.0076132,-0.6066454275,-0.697678482,-1.150059739,2.426303816E-08
31511111,-0.6763156723,0.92509048997005,-131.9729476,-0.6186816977,-0.6877683997,-1.111667603,2.706183349E-08
31600000,-0.899012101,0.901673684600504,-132.0418124,-0.6038262944,-0.6696336608,-1.108983936,0.0000000301978344
31688888,-0.6663705614,0.926150300405062,-133.9012221,-0.6422085453,-0.6673249308,-1.039109392,3.326670551E-08
31777777,-0.6628190541,0.926529064381529,-134.8751355,-0.6537256528,-0.6565812044,-1.004368119,3.632410393E-08
31866666,-0.6624473021,0.92656872023926,-135.8789057,-0.665155923,-0.6450559599,-0.9697815768,3.094135531E-08
31955555,-0.6583373593,0.927007252813355,-136.8648345,-0.6764768467,-0.633815054,-0.9369353246,3.107108791E-08
32044444,-0.6557107489,0.927287621915915,-137.8569956,-0.6875582078,-0.6221945392,-0.9049336219,3.096766396E-08
32133333,-0.6510351421,0.927786914404566,-138.8574708,-0.698693346,-0.6104229409,-0.8736635957,3.100920452E-08
32222222,-0.6497528827,0.927923889585977,-139.83742,-0.7091355963,-0.5984725983,-0.8439466321,3.126647741E-08
32311111,-0.6439089549,0.928548413390913,-140.8361012,-0.7199431106,-0.5864162972,-0.8145314381,0.0000000314162312
32400000,-0.6312630528,0.929901283952152,-141.8703231,-0.7314745929,-0.5741614039,-0.7849369062,3.162479882E-08
32488888,-0.6432410876,0.928619813211785,-142.8676225,-0.7403355833,-0.560569337,-0.7571827556,3.175529761E-08
32577777,-0.6408289382,0.928877735068641,-143.8816334,-0.7503483367,-0.5475319354,-0.7297036705,3.156266873E-08
32666666,-0.6392762376,0.929043797267825,-144.9112429,-0.7602017299,-0.5340559026,-0.7025186626,3.164892042E-08
32755555,-0.6393989733,0.929030669535385,-145.8985462,-0.7692802314,-0.5208703395,-0.677087904,3.182151117E-08
32844444,-0.6378501499,0.929196344301808,-146.9229997,-0.7786088018,-0.5071234366,-0.6513199381,3.190866853E-08
32933333,-0.6381967523,0.929159266320078,-147.9672032,-0.7876897734,-0.4928303593,-0.6256655551,3.213447226E-08
33022222,-0.6398561338,0.928981773571201,-148.9823077,-0.7961450183,-0.4787068472,-0.6012809679,3.213013523E-08
33111111,-0.6392490907,0.929046700908042,-150.0104142,-0.8046624639,-0.4643771007,-0.5771079446,3.220200435E-08
33200000,-0.6391909455,0.92905292016586,-151.0422223,-0.8128996901,-0.4498148756,-0.5533461029,3.233808736E-08
33288888,-0.640151032,0.92895023386557,-152.089573,-0.8208951693,-0.4348329081,-0.5297057705,3.247858359E-08
33377777,-0.6399063654,0.928976401167467,-153.1168288,-0.8285822738,-0.4200578168,-0.5069596949,3.253457338E-08
33466666,-0.6405026361,0.928912630797399,-154.1696324,-0.8361030803,-0.4047348696,-0.4840729321,3.255455966E-08
33555555,-0.6403986403,0.928923752696768,-155.2077308,-0.8433086278,-0.3895252196,-0.4619011436,3.256064592E-08
33644444,-0.6408161414,0.928879103572254,-156.2528581,-0.8502323664,-0.3740605729,-0.4399509919,3.253265261E-08
33733333,-0.6431812682,0.928626208604042,-157.2849258,-0.8565987355,-0.3585878437,-0.4186182267,3.261036717E-08
33822222,-0.6449858226,0.928433300045738,-158.3362658,-0.8628547318,-0.3427391201,-0.397215322,3.269343423E-08
33911111,-0.6445457325,0.928480342395138,-159.3836922,-0.8690198626,-0.3269254115,-0.3762001601,3.281392733E-08
34000000,-0.6482710228,0.928082211941196,-160.4344309,-0.8744936928,-0.3108011799,-0.355407,3.304129185E-08
34088888,-0.647686258,0.928144695820297,-161.4860782,-0.8801099855,-0.2947184925,-0.3348655252,3.331007134E-08
34177777,-0.6489137961,0.928013534532361,-162.5716861,-0.8854106928,-0.2779514802,-0.3139237898,3.356983197E-08
34266666,-0.6481453668,0.928095638308193,-163.6446227,-0.8905389257,-0.2613463903,-0.2934699233,3.247037216E-08
34355555,-0.6387003173,0.929105399814439,-164.7263384,-0.8962881121,-0.2447538846,-0.2730750094,3.269256741E-08
34444444,-0.5818320196,0.935208400075574,-165.6040181,-0.9058434166,-0.2325133461,-0.2566816095,3.335148867E-08
34533333,-0.6615131059,0.926668381133439,-166.8228058,-0.9022689409,-0.2112464127,-0.234127989,3.396065219E-08
34622222,-0.6525437312,0.927625787825241,-167.9326339,-0.9071275496,-0.193930944,-0.2137857505,3.463963988E-08
34711111,-0.6544323238,0.927424113981262,-168.9957417,-0.9103715663,-0.1770285245,-0.1944574403,3.359045177E-08
34800000,-0.6564891054,0.927204529908086,-170.0598995,-0.9132860346,-0.1600526764,-0.1752492322,3.343372255E-08
34888888,-0.6593948024,0.926894403376298,-171.133652,-0.9158185368,-0.1428623208,-0.1559941353,0.0000000336188492
34977777,-0.6597430254,0.926857244317938,-172.2130811,-0.9183105078,-0.1255793077,-0.1367503765,3.347587989E-08
35066666,-0.6616059452,0.926658476473393,-173.298113,-0.9203264397,-0.1081442387,-0.1175063912,3.336699642E-08
35155555,-0.6648311261,0.92631446031015,-174.3338165,-0.9217885027,-0.09145728896,-0.09921721599,3.343638552E-08
35244444,-0.6679494241,0.925981966321554,-175.4120104,-0.9230148126,-0.07406927606,-0.08024711527,3.352993145E-08
35333333,-0.6694587572,0.925821073901047,-176.5059607,-0.924100106,-0.05642388705,-0.06105819779,0.0000000337033397
35422222,-0.6719767298,0.92555272439063,-177.5768366,-0.9247251128,-0.03913197473,-0.04231741324,3.373044939E-08
35511111,-0.6768873408,0.925029606432265,-178.6439445,-0.9247705377,-0.02189121831,-0.02367205422,3.332055766E-08
35600000,-0.66527212,0.926267431315578,-179.7398972,-0.9262578869,-0.004204916337,-0.004539682087,3.336336851E-08
35688888,-0.6823733781,0.924445539070191,179.2442737,-0.9243651256,0.01219300181,-0.01319067701,3.337442027E-08
35777777,-0.6844361525,0.924226022560523,178.1409087,-0.9237395411,0.02998334395,-0.03245865595,3.352842245E-08
35866666,-0.6857819903,0.924082829173466,177.0757988,-0.9228795791,0.04714188775,-0.05108129903,3.371767407E-08
35955555,-0.689187444,0.923720597485188,175.979786,-0.9214476703,0.06476058294,-0.07028134644,3.348897652E-08
36044444,-0.6931726954,0.923296874116476,174.9300005,-0.9196844516,0.08159428456,-0.08871986954,3.305752351E-08
36133333,-0.7106361819,0.921442396921509,173.8555649,-0.9161489253,0.09862675892,-0.1076536316,3.271511031E-08
36222222,-0.6996160211,0.922612212360056,172.8486989,-0.9154350927,0.1148559333,-0.1254659497,3.244064406E-08
36311111,-0.7031406658,0.922237901762135,171.7860126,-0.9127770154,0.1317606455,-0.1443514059,3.243914324E-08
36400000,-0.7091936263,0.921595443106864,170.7742671,-0.9096740153,0.1477543453,-0.1624255973,0.0000000326142749
36488888,-0.7113862522,0.921362829167053,169.7025114,-0.9065223223,0.1647019795,-0.18168552,3.257779933E-08
36577777,-0.7128404704,0.92120858469756,168.672159,-0.9032628235,0.1809462024,-0.2003250856,0.0000000325907438
36666666,-0.7189020902,0.920565925347204,167.6246709,-0.8991762541,0.1972908692,-0.2194128996,3.231633104E-08
36755555,-0.7219145674,0.920246706115943,166.5986619,-0.8951888166,0.2132861521,-0.2382582849,3.225499223E-08
36844444,-0.7257350909,0.919842020907906,165.5686406,-0.8908181553,0.2292430099,-0.2573398494,3.224344959E-08
36933333,-0.7290833814,0.919487502847516,164.5393689,-0.88621479,0.2451134713,-0.2765847219,3.238046879E-08
37022222,-0.7335965527,0.919009863037093,163.4953589,-0.8811436478,0.2610842781,-0.2963016062,3.757487608E-08
37111111,-0.737772655,0.918568117067418,162.4544212,-0.8758339744,0.2769155738,-0.3161735921,3.508913603E-08
37200000,-0.785854966,0.913497265593236,160.5991268,-0.8616266943,0.3034414177,-0.3521727213,3.278331593E-08
37288888,-0.7443727094,0.917870399617954,160.3732162,-0.8645426233,0.3083052433,-0.3566108078,3.040986583E-08
37377777,-0.7489702189,0.917384692173235,159.2906243,-0.8581089599,0.3244128332,-0.3780555249,2.885881961E-08
37466666,-0.7504798624,0.917225260779391,158.2431425,-0.8518868991,0.339986603,-0.399098288,3.538920007E-08
37555555,-0.7531606075,0.916942219222887,157.0467467,-0.8443417953,0.3575891023,-0.4235122604,3.607303749E-08
37644444,-0.7527091293,0.916989881603951,155.832876,-0.8366204659,0.3754152886,-0.448728311,3.546848249E-08
37733333,-0.754972631,0.916750949517655,154.7240644,-0.8289830117,0.3914325864,-0.4721840868,3.386704506E-08
37822222,-0.7580995384,0.916420979932004,153.7295194,-0.8217680601,0.4056164049,-0.4935898882,3.249816982E-08
37911111,-0.7621719916,0.915991408876489,152.679691,-0.8138167848,0.4204075427,-0.5165874563,3.187596293E-08
38000000,-0.7655494212,0.915635303143332,151.655349,-0.8058576127,0.4347200437,-0.5394501918,3.171473647E-08
38088888,-0.7674393203,0.915436098437514,150.6609892,-0.7980184797,0.4485418112,-0.562069454,3.112284596E-08
38177777,-0.7712313313,0.915036532444248,149.6645061,-0.7897523272,0.4621505355,-0.5851841388,3.101682962E-08
38266666,-0.7752208562,0.914616342580049,148.6955069,-0.7814647455,0.4752219541,-0.6081169456,0.0000000310653572
38355555,-0.781191716,0.913987832480106,147.6753912,-0.7723491931,0.4887233183,-0.6327750747,3.127086778E-08
38444444,-0.7853042415,0.913555187267938,146.6850833,-0.7634255448,0.5017614151,-0.6572499683,3.162251267E-08
38533333,-0.7878546131,0.91328698639514,145.6663728,-0.754162635,0.5151037173,-0.6830141052,3.197565974E-08
38622222,-0.7921058278,0.912840097333056,144.6404077,-0.7444540796,0.5282661892,-0.7096021146,3.205131076E-08
38711111,-0.7976666495,0.912255872035056,143.581617,-0.7340953667,0.5415854213,-0.7377589423,3.253375254E-08
38800000,-0.8193006883,0.909986533822517,142.599245,-0.7228993242,0.5527133605,-0.76457861,3.278225425E-08
38888888,-0.8021920202,0.911780708185807,141.4815472,-0.7133841815,0.5678266192,-0.7959618869,3.297301688E-08
38977777,-0.8058494806,0.911396855758386,140.4452753,-0.7027021933,0.5803911234,-0.8259418128,3.313381866E-08
39066666,-0.8114110811,0.9108134724811,139.3829719,-0.6913783475,0.5929394254,-0.8576193159,3.235531358E-08
39155555,-0.8169023798,0.910237829873787,138.3471151,-0.6801160142,0.6049587706,-0.8894934951,3.203529333E-08
39244444,-0.8215956123,0.909746135410499,137.3537707,-0.6691644141,0.6163254155,-0.9210373452,3.177180355E-08
39333333,-0.8268946629,0.909191290624214,136.3342226,-0.657690504,0.6277515463,-0.9544786531,3.177458472E-08
39422222,-0.8300686081,0.908859120141348,135.3059233,-0.6460826707,0.6392199019,-0.9893778783,3.220480949E-08
39511111,-0.8372566538,0.908107300957069,134.2870989,-0.6340896621,0.650068589,-1.025199791,3.222507897E-08
39600000,-0.8415671501,0.907656751595075,133.2245566,-0.6216173259,0.6613869358,-1.063977641,3.225987401E-08
39688888,-0.84649102,0.907142363612325,132.2188868,-0.6095676915,0.6718143325,-1.102116044,3.239242765E-08
39777777,-0.8541487593,0.90634295229968,131.178443,-0.5967419318,0.6821705168,-1.143158341,3.254794815E-08
39866666,-0.8542840174,0.90632883868826,130.1274191,-0.5841195217,0.6929908717,-1.186385399,3.265430301E-08
39955555,-0.8685052021,0.904846143807854,129.0626123,-0.5702062363,0.7025748302,-1.23214161,0.0000000322975189
40044444,-0.8731247816,0.904365030473289,128.0521072,-0.5574305919,0.7121427129,-1.277545085,3.198361808E-08
40133333,-0.8814103608,0.903502756646334,127.0484895,-0.5443520024,0.7211089576,-1.324710765,3.161848338E-08
40222222,-0.888729415,0.902741752234144,126.0170952,-0.5308361731,0.7301750671,-1.375518671,3.111567743E-08
40311111,-0.895755805,0.902011780865964,125.0211546,-0.5176454765,0.738693721,-1.427026323,3.040848316E-08
40400000,-0.9049710201,0.90105530719487,124.08726,-0.505000824,0.7462404668,-1.477701484,2.981149602E-08
40488888,-0.9127395902,0.900249772906701,123.1480437,-0.4922603688,0.753743579,-1.531188832,2.942449368E-08
40577777,-0.9212368409,0.899369505277885,122.1838054,-0.4790375456,0.7611757595,-1.588968895,3.053508452E-08
40666666,-0.9334108142,0.898109849502713,121.26501,-0.4661165018,0.7676826874,-1.646975991,3.157704686E-08
40755555,-0.941567326,0.897266872504812,120.1431572,-0.4505735586,0.7759325414,-1.722099592,0.0000000299796249
40844444,-0.9522774699,0.896161178622632,119.1160339,-0.4360540006,0.7829187484,-1.795462826,3.073251168E-08
40933333,-1.018358963,0.889369131711427,118.4615474,-0.4238456309,0.7818774416,-1.844722193,3.052932645E-08
41022222,-0.9799431948,0.893311325916965,117.1886069,-0.4081727582,0.7946068993,-1.946741627,0.0000000459814046
41111111,-0.9914142424,0.892132350171694,116.2221724,-0.3941913929,0.8003207332,-2.030284648,3.927006844E-08
41200000,-1.193532476,0.871612352010136,112.8786875,-0.3388665545,0.8030426828,-2.369790327,3.082665733E-08
41288888,-1.024303072,0.888760708302132,114.3332883,-0.3662083448,0.8098067948,-2.211328077,2.995712876E-08
41377777,-1.028235942,0.888358378862307,113.2007776,-0.3499726779,0.8165168302,-2.333087357,1.942179385E-08
41466666,-0.9341867991,0.898029617243172,111.2680347,-0.3257435253,0.8368681791,-2.569101499,0.0000000311142662
41555555,-1.066169839,0.884487109822771,111.3038234,-0.3213460214,0.8240474392,-2.564361729,2.771992555E-08
41644444,-1.084710202,0.88260115186392,110.3034766,-0.3062560333,0.8277632725,-2.702847234,0.0000000247724097
41733333,-1.092807164,0.881778776908816,109.247863,-0.2906831646,0.832488504,-2.863903402,3.076238698E-08
41822222,-1.12090056,0.878931383796198,108.3324244,-0.2764500218,0.8343235361,-3.017990488,3.037001801E-08
41911111,-1.140740969,0.876926009842582,107.3673615,-0.2617599242,0.836947411,-3.197385595,2.970133026E-08
42000000,-1.158549957,0.875129859285879,106.3845184,-0.2468585871,0.8395910365,-3.401101199,2.985971468E-08
42088888,-1.181786089,0.872791876784617,105.4695972,-0.2327971664,0.841172479,-3.613327826,2.998690297E-08
42177777,-1.201305656,0.870832677243766,104.5037462,-0.2180942129,0.8430803438,-3.865670403,3.082893022E-08
42266666,-1.2309969,0.867860965130248,103.5098911,-0.2027437969,0.84384691,-4.162134295,2.969915007E-08
42355555,-1.242113352,0.866750962102396,102.4317365,-0.1865909219,0.8464284129,-4.536278638,2.794538259E-08
42444444,-1.269642447,0.864008226687178,101.7537321,-0.1760032481,0.8458918798,-4.806115166,2.652580657E-08
42533333,-1.295843408,0.861405875333423,100.9105589,-0.1630438046,0.845834972,-5.187777444,2.593900858E-08
42622222,-1.320437366,0.858970268152585,100.0263455,-0.1495475742,0.8458519046,-5.656072384,2.746097658E-08
42711111,-1.347683469,0.856280051576675,99.1451832,-0.1360943156,0.8453956849,-6.211836851,2.745286989E-08
42800000,-1.369022191,0.854179000712985,98.2426582,-0.1224600628,0.8453551315,-6.903108754,2.704056481E-08
42888888,-1.393989729,0.851727193806405,97.40993786,-0.1098452107,0.8446142565,-7.689131382,2.671210319E-08
42977777,-1.417525529,0.849422427430909,96.56747244,-0.09715114535,0.8438483959,-8.685933581,2.659000473E-08
43066666,-1.4398182,0.847245147218294,95.70888231,-0.08427887021,0.8430429476,-10.00301672,2.668506869E-08
43155555,-1.463357921,0.844952127791964,94.8387799,-0.07127364457,0.841940714,-11.81279166,2.665327747E-08
43244444,-1.485538816,0.842797151688739,94.00466781,-0.05885905141,0.8407393478,-14.28394321,2.661565622E-08
43333333,-1.506115182,0.840802977361424,93.15504997,-0.0462762699,0.8395285306,-18.1416638,2.644667747E-08
43422222,-1.527733208,0.83871293239337,92.29223696,-0.03354550686,0.8380418139,-24.98223734,2.634729633E-08
43511111,-1.549166904,0.836645837723496,91.46352164,-0.02136834771,0.8363729142,-39.1407387,0.0000000260077922
43600000,-1.566397696,0.83498777143588,90.63485929,-0.00925179656,0.8349365142,-90.24587914,2.562608005E-08
43688888,-1.584449777,0.833254199539247,89.82248685,0.002581574841,0.8332502005,322.7681751,2.570338411E-08
43777777,-1.601790375,0.831592341847047,89.01257642,0.01433078056,0.8314688519,58.01978815,2.563971106E-08
43866666,-1.614060503,0.83041842171539,88.16216274,0.02663219233,0.8299912538,31.16496169,2.509191491E-08
43955555,-1.635410597,0.828379742870425,87.36266245,0.03811704135,0.82750232,21.70951078,2.432684978E-08
44044444,-1.652129292,0.826786802063641,86.63273243,0.04856221643,0.8253593927,16.99591686,0.0000000235310347
44133333,-1.670181822,0.825070214077389,85.88499074,0.05920599272,0.8229431988,13.89966051,2.349238652E-08
44222222,-1.682760927,0.823876193243826,85.13602833,0.06985678488,0.820909259,11.7513175,2.355276056E-08
44311111,-1.698914184,0.822345444257049,84.35222795,0.08092920752,0.8183535257,10.11196762,2.400226731E-08
44400000,-1.712367913,0.821072684721651,83.63066743,0.09108734405,0.8160045646,8.958484552,2.428871582E-08
44488888,-1.724657525,0.819911775488978,82.79730363,0.1028004752,0.8134416893,7.91282032,2.461179061E-08
44577777,-1.73840097,0.818615477388204,82.02729111,0.1135431136,0.8107029426,7.140045017,2.501211206E-08
44666666,-1.747846526,0.81772574980603,81.21606899,0.1248738157,0.8081348477,6.47161171,2.492859732E-08
44755555,-1.759485038,0.816630785668961,80.41934181,0.1359166687,0.8052406468,5.924517241,2.494082698E-08
44844444,-1.774085294,0.815259250473698,79.61269772,0.1469921924,0.8018983357,5.455380472,2.493121448E-08
44933333,-1.786719147,0.814074296614597,78.83843944,0.1575854006,0.7986762811,5.068212398,2.500038245E-08
45022222,-1.797863945,0.813030433992848,78.01752088,0.1687953351,0.7953154226,4.711714469,0.0000000251151861
45111111,-1.810314701,0.811865833455072,77.21686404,0.1796346273,0.79174335,4.407520766,2.559127906E-08
45200000,-1.821039007,0.810864056411576,76.40505062,0.1905988135,0.788145044,4.135099425,2.573609744E-08
45288888,-1.834188237,0.809637449590848,75.5500648,0.2020320272,0.7840254204,3.880698676,2.606566256E-08
45377777,-1.845043735,0.808626208580994,74.73313976,0.2129234974,0.7800896932,3.66370881,2.611003943E-08
45466666,-1.857593611,0.807458702283218,73.88235517,0.2241590319,0.7757204937,3.46058103,2.543711748E-08
45555555,-1.870152268,0.806292066526674,73.06129391,0.2349119853,0.7713126835,3.28341137,2.483457999E-08
45644444,-1.88566859,0.804853006158066,72.31604384,0.2444872091,0.7668209479,3.136446077,2.444485692E-08
45733333,-1.900907989,0.803442129091359,71.54275765,0.2543672636,0.7621132134,2.996113583,2.467517899E-08
45822222,-1.914042195,0.802228137151256,70.7304413,0.2647456371,0.7572844457,2.860422759,2.318798866E-08
45911111,-1.929330494,0.80081735291057,69.90606161,0.275129083,0.7520720845,2.733524484,2.321070518E-08
46000000,-1.957592985,0.798215856477894,69.42430904,0.2805285503,0.747296652,2.663888047,2.345113543E-08
