Frequency,S11_Magnitude,S11_Magnitude (linear),S11_Phase,S11_Real,S11_Imaginary,S11_Quality Factor,S11_Group delay,
30000000,-0.638888741,0.9290852449,-117.2584667,-0.4255259495,-0.8259098368,-1.940915326,3.206987444e-08,
30088888,-0.6899495662,0.9236395514,-118.8072538,-0.4450692154,-0.8093351682,-1.818447873,3.206987444e-08,
30177777,-0.6829792411,0.9243810589,-119.7021788,-0.4580231428,-0.8029291019,-1.753031729,3.206987444e-08,
30266666,-0.6745559788,0.9252779251,-120.5891459,-0.4708539016,-0.7965148097,-1.691638971,2.797582377e-08,
30355555,-0.6700933912,0.9257534313,-121.498707,-0.4836870261,-0.7893454734,-1.631934352,2.807652312e-08,
30444444,-0.662588187,0.9265536914,-122.3851271,-0.4962692046,-0.7824440042,-1.576652343,2.797934511e-08,
30533333,-0.6624880985,0.9265643683,-123.2964375,-0.508656828,-0.774460948,-1.522560802,2.795037397e-08,
30622222,-0.65169918,0.9277159876,-124.1669814,-0.5210114701,-0.7675962492,-1.473280903,3.946326582e-08,
30711111,-0.6474655546,0.9281682797,-125.0798453,-0.5334344783,-0.7595683069,-1.423920534,3.410794339e-08,
30800000,-0.7533308444,0.916924248,-127.8075537,-0.5620848518,-0.7244381934,-1.28884134,2.882043446e-08,
30888888,-0.6387196344,0.9291033335,-126.9334292,-0.5582858345,-0.7426640771,-1.330257784,2.466781737e-08,
30977777,-0.6318547168,0.9298379433,-127.8514648,-0.570563948,-0.7342039103,-1.286803894,1.838753131e-08,
31066666,-0.6223536786,0.9308556006,-129.0047011,-0.5858657637,-0.7233626035,-1.234690006,2.909112462e-08,
31155555,-0.6262662093,0.9304363941,-129.7139264,-0.5945068099,-0.7157328667,-1.203910291,2.861225426e-08,
31244444,-0.6200123884,0.9311065475,-130.6567841,-0.6066404858,-0.7063616098,-1.164382573,2.802379682e-08,
31333333,-0.6141283636,0.9317375145,-131.6033897,-0.6186461784,-0.6967149359,-1.126192903,2.948307434e-08,
31422222,-0.6126227009,0.9318990413,-132.5437825,-0.6301067056,-0.6865867481,-1.089635679,2.568389282e-08,
31511111,-0.6072405036,0.93247667,-133.487725,-0.6417296575,-0.6765321771,-1.054232369,2.769675281e-08,
31600000,-0.5518457556,0.938442596,-133.8240444,-0.6498208242,-0.6770579018,-1.04191475,2.980557377e-08,
31688888,-0.6013621785,0.9331079532,-135.3947447,-0.6643370687,-0.6552455352,-0.9863148785,3.203606382e-08,
31777777,-0.5985119223,0.9334142008,-136.3591704,-0.6754934201,-0.6441822022,-0.9536468944,3.421980182e-08,
31866666,-0.5991770572,0.933342726,-137.3458809,-0.6864338254,-0.6324059198,-0.921291895,3.060516789e-08,
31955555,-0.597782468,0.9334925937,-138.3236514,-0.6972374948,-0.6206998456,-0.8902272902,3.06458431e-08,
32044444,-0.597811064,0.9334895204,-139.3093372,-0.7078096497,-0.6086116862,-0.8598522024,3.045514592e-08,
32133333,-0.5954572788,0.9337425206,-140.2807833,-0.7182209955,-0.5966855925,-0.8307827205,3.038656604e-08,
32222222,-0.5958343574,0.9337019851,-141.2401444,-0.7280791508,-0.5845512357,-0.8028677035,3.016479439e-08,
32311111,-0.5948237147,0.9338106319,-142.2201045,-0.7380559336,-0.5720801824,-0.7751176522,3.054631434e-08,
32400000,-0.5983901002,0.9334272923,-143.1660498,-0.7470930667,-0.5595877588,-0.7490201472,3.093571727e-08,
32488888,-0.5933910004,0.9339646741,-144.2052471,-0.7575549843,-0.5462604308,-0.7210835412,3.115935893e-08,
32577777,-0.5928249748,0.934025539,-145.1972941,-0.7669491567,-0.5330972692,-0.6950881484,3.133772288e-08,
32666666,-0.59153019,0.9341647823,-146.1899299,-0.7761850782,-0.5198082001,-0.6696962036,3.105739976e-08,
32755555,-0.5928596287,0.9340218125,-147.1877503,-0.7849993499,-0.5061351271,-0.6447586577,3.120667149e-08,
32844444,-0.5932566035,0.9339791255,-148.1792091,-0.7936033902,-0.4924537196,-0.6205287499,3.133005842e-08,
32933333,-0.5948433795,0.9338085177,-149.1957281,-0.8020684159,-0.4782097907,-0.5962206979,3.122309145e-08,
33022222,-0.5973396942,0.9335401808,-150.1987566,-0.8100838496,-0.4639627417,-0.5727342199,3.116550586e-08,
33111111,-0.5973155341,0.9335427775,-151.1736774,-0.8178630693,-0.4501134494,-0.550353068,3.119228104e-08,
33200000,-0.5974320489,0.9335302548,-152.1767217,-0.8256061447,-0.4357215055,-0.5277595235,3.153611117e-08,
33288888,-0.6003673337,0.9332148335,-153.1975168,-0.8329560892,-0.4208017097,-0.505190748,3.170271735e-08,
33377777,-0.6003026931,0.9332217785,-154.232621,-0.8404281977,-0.4056887138,-0.4827166853,3.174250285e-08,
33466666,-0.6021746396,0.9330206762,-155.2181118,-0.8470988268,-0.391089708,-0.4616813241,3.164354517e-08,
33555555,-0.6008432181,0.9331637057,-156.245231,-0.8541041665,-0.3758996867,-0.4401098853,3.155878513e-08,
33644444,-0.6038394053,0.9328418675,-157.2541854,-0.860294026,-0.3606773333,-0.4192489107,3.171925705e-08,
33733333,-0.6048365741,0.9327347804,-158.2639961,-0.866417379,-0.345420173,-0.3986764132,3.158730991e-08,
33822222,-0.6057398185,0.9326377905,-159.2838167,-0.8723373049,-0.3299104039,-0.3781913281,3.13894265e-08,
33911111,-0.6089827359,0.9322896508,-160.2843912,-0.8776375978,-0.3145095228,-0.3583592175,3.13363231e-08,
34000000,-0.6132263411,0.9318342797,-161.2663024,-0.8824671442,-0.2992772363,-0.3391369732,3.15103934e-08,
34088888,-0.6130748498,0.931850532,-162.2865713,-0.887671682,-0.283521426,-0.3193989757,3.198804471e-08,
34177777,-0.61391077,0.9317608561,-163.3243959,-0.8925754324,-0.2673712596,-0.2995503236,3.261960945e-08,
34266666,-0.6162560867,0.9315093011,-164.3733804,-0.8970784098,-0.2509181234,-0.2797058993,3.10639607e-08,
34355555,-0.6082821838,0.9323648467,-165.4420418,-0.9024302202,-0.2343584969,-0.2596970842,3.144469933e-08,
34444444,-0.5751656631,0.9359264412,-166.1979882,-0.9089024112,-0.2232816837,-0.2456607892,3.199033254e-08,
34533333,-0.627475387,0.9303068755,-167.4432502,-0.9080550059,-0.2022547624,-0.2227340427,3.271327669e-08,
34622222,-0.6205330513,0.9310507353,-168.4912358,-0.9123312128,-0.1857612174,-0.2036115994,3.376996981e-08,
34711111,-0.6229544595,0.9307912179,-169.5295488,-0.9152923901,-0.1691512105,-0.1848056559,3.247375596e-08,
34800000,-0.6264486872,0.9304168472,-170.5580408,-0.9178118289,-0.1526334051,-0.1663014142,3.25080774e-08,
34888888,-0.6272014541,0.9303362157,-171.6056551,-0.9203692881,-0.1358154914,-0.147566301,3.351576689e-08,
34977777,-0.6299285766,0.9300441624,-172.6544816,-0.9224114607,-0.1189085413,-0.1289105203,3.353591695e-08,
35066666,-0.6257286069,0.9304939841,-173.8437975,-0.9251280388,-0.09978560174,-0.107861396,3.241553866e-08,
35155555,-0.6306115164,0.9299710393,-174.804723,-0.9261505939,-0.08420933013,-0.09092401461,3.134932145e-08,
35244444,-0.6368262033,0.9293058902,-175.7170271,-0.9267106841,-0.06940277697,-0.07489152565,3.039943997e-08,
35333333,-0.6384447205,0.9291327407,-176.7337645,-0.9276234257,-0.05293798113,-0.05706839614,3.108164954e-08,
35422222,-0.6417616482,0.9287779955,-177.7431933,-0.9280576029,-0.03657390625,-0.03940909071,3.232966136e-08,
35511111,-0.64623927,0.9282993289,-178.7647101,-0.9280835874,-0.02001246821,-0.02156321746,3.20120686e-08,
35600000,-0.6373513736,0.9292497038,-179.8743066,-0.9292474677,-0.00203855297,-0.002193767582,3.188008056e-08,
35688888,-0.6497868208,0.9279202639,179.2098548,-0.9278320286,0.01279620496,-0.01379151028,3.163049611e-08,
35777777,-0.6516553457,0.9277206695,178.168705,-0.9272468405,0.02964687721,-0.03197301507,3.132904789e-08,
35866666,-0.6535507672,0.9275182458,177.1529553,-0.9263734016,0.04606969876,-0.04973124086,3.19107628e-08,
35955555,-0.6571682743,0.9271320326,176.1414892,-0.9250304734,0.06238933507,-0.06744570786,3.146942933e-08,
36044444,-0.6620215466,0.9266141389,175.1177342,-0.9232520926,0.07886276653,-0.08541845414,3.127826459e-08,
36133333,-0.680565161,0.924638009,174.1512006,-0.9198245999,0.09422395155,-0.1024368685,3.13582296e-08,
36222222,-0.6681358367,0.9259620935,173.1435711,-0.9193399959,0.110543071,-0.1202417729,3.129450113e-08,
36311111,-0.6710114834,0.925655585,172.1112478,-0.9168955749,0.1270463174,-0.1385613814,3.137107438e-08,
36400000,-0.6775059597,0.9249637271,171.1305842,-0.9139032964,0.1426136787,-0.1560489816,3.108957564e-08,
36488888,-0.6790691646,0.9247972758,170.1383158,-0.9111325465,0.1583902904,-0.1738389118,3.076263132e-08,
36577777,-0.6822730918,0.9244562127,169.1556987,-0.9079473413,0.1739279003,-0.1915616604,3.072893834e-08,
36666666,-0.6862985697,0.9240278725,168.1767188,-0.904423895,0.1893275659,-0.2093349888,3.074770354e-08,
36755555,-0.6904190759,0.9235896261,167.1947465,-0.9006190619,0.2047024738,-0.2272908519,3.061764584e-08,
36844444,-0.6936131459,0.9232500561,166.1991532,-0.8965965237,0.2202392786,-0.2456392288,3.052285879e-08,
36933333,-0.6959806857,0.9229984373,165.245652,-0.8925640546,0.2350649349,-0.263359177,3.056467424e-08,
37022222,-0.699797671,0.9225929178,164.2676025,-0.88803128,0.2501562264,-0.2816975393,3.379214073e-08,
37111111,-0.7045722174,0.9220859171,163.2701679,-0.8830565516,0.2654309045,-0.3005820001,3.296867075e-08,
37200000,-0.3696552309,0.9583347547,161.780146,-0.9102874584,0.2996368556,-0.3291672898,3.103708888e-08,
37288888,-0.7096282476,0.9215493298,161.2143863,-0.8724585329,0.2967646805,-0.3401476051,2.874698145e-08,
37377777,-0.7170030282,0.9207672177,160.3295528,-0.8670351942,0.3099390927,-0.3574700252,2.692528146e-08,
37466666,-0.7187564765,0.9205813582,159.3959934,-0.8616963072,0.3239591198,-0.3759550982,2.97464172e-08,
37555555,-0.7230797501,0.9201232664,158.3812921,-0.8553983344,0.3389992845,-0.3963057571,3.043357335e-08,
37644444,-0.7242392872,0.9200004413,157.429084,-0.8495331647,0.3531206791,-0.4156643834,3.083455358e-08,
37733333,-0.7278332122,0.9196198552,156.4436297,-0.8429854704,0.3675271074,-0.4359827308,3.096510849e-08,
37822222,-0.7313515109,0.9192474302,155.4312899,-0.8360218097,0.3822085447,-0.4571753276,3.14101151e-08,
37911111,-0.7328004828,0.919094095,154.4257656,-0.8290474517,0.3967546827,-0.4785669166,3.151971321e-08,
38000000,-0.737597214,0.9185866709,153.4123914,-0.8214470976,0.4111278848,-0.500492224,3.15784315e-08,
38088888,-0.733316116,0.9190395351,152.4099186,-0.8145298219,0.4256463747,-0.5225669623,3.182712853e-08,
38177777,-0.7361208365,0.9187428202,151.386658,-0.8065381218,0.4399825312,-0.5455198202,3.215107756e-08,
38266666,-0.736973261,0.9186526601,150.3463426,-0.7983385334,0.4545088514,-0.5693184438,3.220143599e-08,
38355555,-0.7415535335,0.9181683608,149.3000005,-0.7894891549,0.468764347,-0.5937565375,3.18027296e-08,
38444444,-0.742059742,0.9181148521,148.3010111,-0.7811508295,0.4824295422,-0.6175882096,3.113419404e-08,
38533333,-0.7430223473,0.9180131085,147.3208807,-0.7726986189,0.4956661293,-0.6414740718,3.060765392e-08,
38622222,-0.7472992086,0.9175611976,146.3544253,-0.7638520738,0.5083783638,-0.66554557,2.913520992e-08,
38711111,-0.7517429249,0.9170918918,145.3760627,-0.7546740558,0.5210802313,-0.6904705777,2.950201884e-08,
38800000,-0.7687487857,0.9152980997,144.6117807,-0.7461939251,0.5300615412,-0.7103536003,2.977839157e-08,
38888888,-0.7566532581,0.9165735851,143.471874,-0.7365262429,0.5455604737,-0.7407210251,2.991581483e-08,
38977777,-0.757363222,0.9164986697,142.541971,-0.7275157865,0.5573962611,-0.7661638022,2.935412941e-08,
39066666,-0.7638880968,0.9158104507,141.624485,-0.7179576893,0.5685468653,-0.791894667,2.649873254e-08,
39155555,-0.7684791139,0.9153265175,140.8388086,-0.7097189264,0.5780325936,-0.8144528378,2.568542024e-08,
39244444,-0.7724002097,0.9149134023,140.0836527,-0.7017222082,0.5870710999,-0.8366146789,2.607749603e-08,
39333333,-0.7772439917,0.914403333,139.2027148,-0.6922271111,0.5974571801,-0.8630941645,2.762528777e-08,
39422222,-0.7779361372,0.9143304706,138.2701274,-0.6823568262,0.6085962301,-0.8919031901,2.914904944e-08,
39511111,-0.782204053,0.9138813138,137.3255197,-0.6719006909,0.619458245,-0.9219491115,2.967586357e-08,
39600000,-0.7864075952,0.9134391473,136.3583965,-0.661029353,0.6304056395,-0.9536726874,2.975454202e-08,
39688888,-0.7883253282,0.9132374939,135.4104361,-0.6503656678,0.6411140448,-0.9857747364,2.972185576e-08,
39777777,-0.7921865963,0.912831609,134.4669365,-0.6394363099,0.651446661,-1.018782717,2.973957285e-08,
39866666,-0.7921985023,0.9128303578,133.5158003,-0.6285335276,0.6619704425,-1.0531983,2.958375859e-08,
39955555,-0.8010318227,0.9119025053,132.5473768,-0.6166281248,0.6718154024,-1.089498476,2.93504945e-08,
40044444,-0.8042565401,0.9115640158,131.6368087,-0.605649044,0.6812768824,-1.12487073,2.909150739e-08,
40133333,-0.806086047,0.9113720336,130.7103474,-0.5944290197,0.6908350918,-1.162182647,2.891102065e-08,
40222222,-0.8121650224,0.9107344167,129.779668,-0.5827216009,0.6999090752,-1.201103707,2.878172326e-08,
40311111,-0.8156298315,0.9103711963,128.850178,-0.5710631909,0.7089869866,-1.241521075,2.889476495e-08,
40400000,-0.8253654079,0.9093513787,127.9618119,-0.5593748812,0.7169516527,-1.281701551,2.908626217e-08,
40488888,-0.8245491341,0.9094368409,126.9961073,-0.5472634061,0.7263457385,-1.327232427,2.795475059e-08,
40577777,-0.8290701388,0.9089636023,126.0528956,-0.5349540656,0.7348734435,-1.373713167,2.873306738e-08,
40666666,-0.8576542411,0.905977241,125.3319208,-0.5239377123,0.7391102995,-1.410683526,2.917505798e-08,
40755555,-0.8419123565,0.907620679,124.1966086,-0.5101140629,0.7507056279,-1.471642683,2.878308056e-08,
40844444,-0.8454055531,0.9072557354,123.2562357,-0.4975247487,0.7586712686,-1.524891517,3.000853048e-08,
40933333,-0.8638766305,0.9053284503,122.4854395,-0.4862385675,0.7636698622,-1.570566206,2.896842682e-08,
41022222,-0.857582047,0.9059847712,121.3861344,-0.4718396386,0.7734182317,-1.63915485,3.483606804e-08,
41111111,-0.8617683034,0.9055482275,120.4967052,-0.4595555953,0.7802731875,-1.697886383,3.135261225e-08,
41200000,-1.090110275,0.8820526037,118.676825,-0.4232694101,0.7738603247,-1.828292587,2.682077763e-08,
41288888,-0.8752382909,0.904145001,118.82367,-0.4359024569,0.792128292,-1.817214561,2.878093443e-08,
41377777,-0.8778053338,0.9038778279,117.9313222,-0.4233880142,0.7985848216,-1.886177206,2.34513677e-08,
41466666,-0.7610286977,0.9161119856,116.2645531,-0.4053946522,0.8215329246,-2.026501633,2.73545134e-08,
41555555,-0.8967344154,0.9019101599,116.2041599,-0.3982573684,0.8092175264,-2.031895931,2.569090691e-08,
41644444,-0.904806038,0.9010724222,115.3105235,-0.3852300042,0.8145731115,-2.114511078,2.284135477e-08,
41733333,-0.896047174,0.9019815233,114.2977868,-0.3711465925,0.8220832532,-2.214982624,2.74188031e-08,
41822222,-0.9237409805,0.8991102547,113.5631184,-0.3594274896,0.8241426635,-2.292931641,2.639434998e-08,
41911111,-0.9328958866,0.8981630939,112.6908485,-0.3464742156,0.8286450152,-2.391649877,2.640787332e-08,
42000000,-0.948131,0.8965890902,111.8908913,-0.3342845221,0.8319410165,-2.488721318,2.809468721e-08,
42088888,-0.954478193,0.8959341492,110.9086352,-0.3197398973,0.8369375112,-2.617557328,2.912547447e-08,
42177777,-0.960744944,0.895287978,109.9590694,-0.3056054456,0.8415140374,-2.753596343,2.913192846e-08,
42266666,-0.9724876295,0.8940784322,108.9967302,-0.2910352202,0.8453843762,-2.904749383,2.758463095e-08,
42355555,-0.9846098729,0.8928315044,108.1857295,-0.2786511964,0.8482344051,-3.04407236,2.621373652e-08,
42444444,-0.9970103246,0.8915577587,107.3817587,-0.2663412685,0.8508452067,-3.194567674,2.540041218e-08,
42533333,-1.013891832,0.8898266497,106.5723521,-0.2538016052,0.8528635364,-3.360355171,2.575689208e-08,
42622222,-1.026157784,0.88857095,105.7393479,-0.2410350981,0.8552545906,-3.548257484,2.605788038e-08,
42711111,-1.043390613,0.8868097705,104.8858271,-0.2278158769,0.8570481289,-3.762021069,2.601819287e-08,
42800000,-1.058176535,0.8853014453,104.0557552,-0.2150096091,0.8587953872,-3.994218633,2.573580285e-08,
42888888,-1.075678859,0.8835193329,103.2512323,-0.2025214737,0.8599950374,-4.246438769,2.562123972e-08,
42977777,-1.091499383,0.8819115509,102.4389116,-0.1899624876,0.861209752,-4.533577986,2.571427242e-08,
43066666,-1.108345391,0.880202769,101.5948915,-0.1769124658,0.8622406241,-4.873826275,2.579375097e-08,
43155555,-1.125929226,0.8784226767,100.7696369,-0.1641427102,0.8629505025,-5.257318474,2.564389429e-08,
43244444,-1.145491748,0.8764465031,99.9588644,-0.1515736123,0.8632403563,-5.695188913,2.533522591e-08,
43333333,-1.163923623,0.8745886134,99.15389694,-0.1391355359,0.8634503723,-6.205822019,2.5129652e-08,
43422222,-1.184077037,0.8725617038,98.34912023,-0.1266998667,0.8633140047,-6.81385093,2.501182661e-08,
43511111,-1.205937084,0.8703684619,97.55375962,-0.1144154958,0.8628153648,-7.541070887,2.496327376e-08,
43600000,-1.224866177,0.8684737398,96.7570358,-0.1021840498,0.8624413352,-8.440077845,2.49475404e-08,
43688888,-1.245821546,0.8663810063,95.95581037,-0.08989690844,0.8617044702,-9.585473907,2.574540401e-08,
43777777,-1.26536071,0.8644342473,95.15648341,-0.07769204121,0.8609358366,-11.08139036,2.591146652e-08,
43866666,-1.279259673,0.8630521054,94.23481237,-0.06373134247,0.8606957956,-13.50506301,2.506698132e-08,
43955555,-1.304123844,0.8605850709,93.47169497,-0.05211310556,0.8590057557,-16.48348811,2.362207492e-08,
44044444,-1.327755088,0.8582469043,92.78748256,-0.04173788487,0.8572314143,-20.53844887,2.192033105e-08,
44133333,-1.350974082,0.8559557149,92.1006116,-0.03137452257,0.8553805148,-27.26353884,2.167327184e-08,
44222222,-1.371309459,0.8539540982,91.4130967,-0.02105909714,0.8536943927,-40.53803386,2.150339991e-08,
44311111,-1.396442382,0.8514867238,90.69116007,-0.01027125135,0.8514247719,-82.89396717,2.151604024e-08,
44400000,-1.423182268,0.848869416,90.05166004,-0.0007653725894,0.8488690709,-1109.092594,2.142466924e-08,
44488888,-1.438185606,0.8474044098,89.33875919,0.009779532549,0.8473479772,86.6450388,2.123553942e-08,
44577777,-1.460348894,0.8452448928,88.66134578,0.01974644056,0.8450142051,42.79324177,2.138415025e-08,
44666666,-1.481038418,0.8432339412,87.98866487,0.02959515942,0.8427144274,28.47473857,2.097818052e-08,
44755555,-1.497331905,0.8416536376,87.30523888,0.03957044367,0.8407229184,21.24623432,2.080026105e-08,
44844444,-1.51817686,0.8396362049,86.66029956,0.04891365156,0.8382102429,17.1365297,2.055925638e-08,
44933333,-1.537960507,0.8377259616,85.99748251,0.05847352779,0.8356827348,14.29164216,2.020335838e-08,
45022222,-1.554405781,0.8361413686,85.35305792,0.06774045456,0.833392836,12.30273463,2.033295813e-08,
45111111,-1.573404672,0.8343144518,84.72631832,0.07668451131,0.8307828177,10.83377599,2.043151895e-08,
45200000,-1.588669438,0.8328494976,84.04260429,0.0864405522,0.8283515658,9.582904605,1.969411522e-08,
45288888,-1.602261209,0.8315472652,83.38366221,0.09581121213,0.8260091197,8.621215632,1.902543983e-08,
45377777,-1.621848569,0.8296741738,82.8733236,0.1029322687,0.8232643456,7.998117173,1.849117894e-08,
45466666,-1.633606942,0.8285517767,82.26691872,0.1114885468,0.8210166567,7.364134524,1.868173333e-08,
45555555,-1.647982535,0.8271816151,81.6423837,0.1202318314,0.8183970498,6.806825115,1.927854693e-08,
45644444,-1.661096388,0.8259336884,81.01005109,0.1290613874,0.8157877272,6.32092792,1.926890614e-08,
45733333,-1.673285348,0.8247754637,80.41718606,0.1373028346,0.8132665597,5.923159285,1.950159916e-08,
45822222,-1.685710453,0.8235964716,79.79648871,0.1458960423,0.8105710906,5.555812741,1.805610914e-08,
45911111,-1.694182028,0.822793588,79.12890512,0.1551788962,0.8080277214,5.207072232,1.831284256e-08,
46000000,-1.719179859,0.8204290074,78.76521048,0.1598441369,0.8047071568,5.034323889,1.843075026e-08,
46088888,-1.721764358,0.8201849239,78.0027667,0.1704872945,0.8022701489,4.705747436,1.87476559e-08,
46177777,-1.731791912,0.8192385956,77.41063419,0.1785629695,0.7995418329,4.477646374,1.978142306e-08,
46266666,-1.742022587,0.8182742235,76.80659832,0.186761885,0.796676034,4.265731382,1.884097814e-08,
46355555,-1.753519045,0.8171918897,76.19826302,0.1949516657,0.7935971475,4.070737969,1.897724971e-08,
46444444,-1.762532753,0.8163442956,75.59439201,0.2030939615,0.7906774638,3.893160869,1.902404987e-08,
46533333,-1.771454019,0.8155062598,74.9803736,0.2113383684,0.7876462111,3.72694375,1.945992943e-08,
