Frequency,S11_Magnitude,S11_Magnitude (linear),S11_Phase,S11_Real,S11_Imaginary,S11_Quality Factor,S11_Group delay,
30000000,-0.823835668,0.9095115458,-116.3967436,-0.4043545269,-0.8146831706,-2.014774453,3.2821134e-08,
30088888,-0.7625407694,0.9159525193,-118.1398684,-0.4319866394,-0.8076859297,-1.869701181,3.2821134e-08,
30177777,-0.7566315269,0.9165758783,-119.0140649,-0.4445615789,-0.8015462203,-1.80300381,3.2821134e-08,
30266666,-0.7497952142,0.9172975621,-119.9008419,-0.4572732736,-0.795195555,-1.738994166,2.722354382e-08,
30355555,-0.7451508585,0.9177881734,-120.7676448,-0.4695016294,-0.7886084904,-1.679671467,2.725544236e-08,
30444444,-0.7377905543,0.9185662241,-121.6188509,-0.4815731355,-0.7822091941,-1.624279131,2.725791767e-08,
30533333,-0.736399434,0.9187133522,-122.5159366,-0.493839823,-0.7746976525,-1.568722522,2.753256145e-08,
30622222,-0.7269488632,0.9197134905,-123.3879683,-0.506123315,-0.7679271415,-1.517272805,1.726346577e-08,
30711111,-0.7223508238,0.9202004871,-124.2883014,-0.5184017219,-0.7602819156,-1.46658833,2.256064555e-08,
30800000,-0.09384285649,0.9892540961,-123.4948264,-0.5459314342,-0.8249742637,-1.51113164,2.816017015e-08,
30888888,-0.7110210004,0.9214015744,-126.0722154,-0.5425253626,-0.7447463274,-1.372740113,3.411466994e-08,
30977777,-0.7026151985,0.9222936958,-127.0016442,-0.5550713387,-0.7365605679,-1.326965592,3.937989069e-08,
31066666,-0.7701293857,0.915152627,-127.9931851,-0.5633384377,-0.7212171208,-1.280255478,2.883237667e-08,
31155555,-0.6929381509,0.9233218062,-128.8351319,-0.5789980774,-0.7192248495,-1.242188666,2.873955298e-08,
31244444,-0.6862491945,0.9240331251,-129.7686575,-0.5910941306,-0.7102428776,-1.20157322,2.861896682e-08,
31333333,-0.6835137484,0.9243241766,-130.7122422,-0.6029000362,-0.7006330921,-1.16210491,2.921026658e-08,
31422222,-0.676026253,0.9251213151,-131.6336704,-0.6146187301,-0.6914428857,-1.124994817,2.216033274e-08,
31511111,-0.669733689,0.9257917696,-132.576274,-0.6263639522,-0.6817320589,-1.088396062,2.594974896e-08,
31600000,-0.7927883363,0.9127683722,-132.3822993,-0.6152736289,-0.6742287912,-1.09581942,2.981923508e-08,
31688888,-0.6628814029,0.9265224136,-134.4898928,-0.649291558,-0.6609570755,-1.017966532,3.367094868e-08,
31777777,-0.6585255636,0.9269871668,-135.4479446,-0.6605834321,-0.6503343269,-0.984484768,3.740549512e-08,
31866666,-0.657283856,0.9271196955,-136.4307493,-0.6717370279,-0.6389994484,-0.9512642923,3.028324035e-08,
31955555,-0.6522288193,0.92765942,-137.3967578,-0.682811864,-0.6279490091,-0.9196515793,3.04735369e-08,
32044444,-0.6503496082,0.9278601429,-138.3608107,-0.693430527,-0.6165051087,-0.8890654286,3.047118923e-08,
32133333,-0.6447906031,0.9284541673,-139.3586858,-0.7045127468,-0.6047221927,-0.8583552186,3.066756385e-08,
32222222,-0.6425902922,0.9286893932,-140.3251816,-0.7147938567,-0.592902801,-0.8294738342,3.151199397e-08,
32311111,-0.6390700614,0.9290658502,-141.3213887,-0.725288038,-0.5806208883,-0.8005383487,3.121224125e-08,
32400000,-0.6225933984,0.9308299105,-142.4213846,-0.7376988205,-0.5676660748,-0.7695092618,3.103597574e-08,
32488888,-0.6366176286,0.9293282059,-143.3045492,-0.7451568155,-0.5553307435,-0.7452535251,3.084106146e-08,
32577777,-0.634282164,0.9295781176,-144.2993637,-0.7548890518,-0.5424555245,-0.7185897361,3.054046293e-08,
32666666,-0.6305841787,0.9299739663,-145.3169197,-0.7647288596,-0.5291893321,-0.6919960264,3.123307384e-08,
32755555,-0.6310065232,0.9299287481,-146.3016796,-0.77367318,-0.5159431046,-0.666874745,3.124845553e-08,
32844444,-0.6303414076,0.9299999595,-147.3006893,-0.7826110373,-0.5024140611,-0.6419716017,3.128104085e-08,
32933333,-0.6309455626,0.9299352747,-148.307238,-0.7912609867,-0.4885546705,-0.6174380877,3.145155285e-08,
33022222,-0.6322221244,0.9297986125,-149.3191132,-0.7996477599,-0.4744353695,-0.5933054443,3.163566637e-08,
33111111,-0.6302290985,0.9300119845,-150.3247223,-0.8080364646,-0.4604338857,-0.5698182023,3.172339141e-08,
33200000,-0.6313004295,0.9298972824,-151.3536601,-0.8160736982,-0.4457944313,-0.5462673681,3.19152068e-08,
33288888,-0.6319242207,0.9298305028,-152.3657136,-0.8237611844,-0.4312798105,-0.5235495658,3.198579064e-08,
33377777,-0.6309504904,0.9299347471,-153.4050571,-0.8315418424,-0.4163133414,-0.5006523065,3.190973745e-08,
33466666,-0.630675673,0.9299641703,-154.4166991,-0.8387890153,-0.4015798126,-0.4787614111,3.195355106e-08,
33555555,-0.6297712427,0.9300610091,-155.4337316,-0.8458728424,-0.3866686116,-0.4571238042,3.195723015e-08,
33644444,-0.6303678,0.9299971336,-156.4639508,-0.8526297508,-0.3713720191,-0.4355607094,3.212260715e-08,
33733333,-0.6310660936,0.9299223704,-157.4945945,-0.8591026671,-0.3559469377,-0.414324098,3.227900633e-08,
33822222,-0.6316467486,0.9298602068,-158.5258913,-0.8653121852,-0.3404039166,-0.3933885624,3.243737396e-08,
33911111,-0.6328510643,0.9297312888,-159.5674089,-0.8712359081,-0.3245739697,-0.372544298,3.288195916e-08,
34000000,-0.6366358895,0.9293262521,-160.61753,-0.8766559808,-0.3084178565,-0.3518117292,3.332623542e-08,
34088888,-0.6320483169,0.9298172183,-161.7098952,-0.8828425652,-0.2918031264,-0.3305267982,3.327716398e-08,
34177777,-0.6301904218,0.9300161257,-162.7868525,-0.8883611513,-0.2752171122,-0.3098031828,3.272270771e-08,
34266666,-0.630729885,0.929958366,-163.8070406,-0.8930650218,-0.2593403736,-0.2903936078,3.146244467e-08,
34355555,-0.6271434415,0.9303424294,-164.804597,-0.8978153579,-0.2438536836,-0.2716078328,3.104123899e-08,
34444444,-0.6005510966,0.9331950902,-165.7350204,-0.9044214392,-0.2299455081,-0.2542459722,3.171839095e-08,
34533333,-0.6527949231,0.9275989617,-166.7894671,-0.9030518247,-0.2119840456,-0.2347418385,3.261745866e-08,
34622222,-0.6413335368,0.9288237744,-167.8895545,-0.9081528061,-0.1948642721,-0.2145721192,3.330487172e-08,
34711111,-0.6451790604,0.9284126451,-168.9461299,-0.9111881292,-0.1780062719,-0.1953562236,3.312827e-08,
34800000,-0.6468271157,0.9282365054,-169.9854751,-0.9140936157,-0.1614183124,-0.1765883818,3.290589848e-08,
34888888,-0.6457301871,0.9283537385,-171.0420366,-0.917030466,-0.1445537554,-0.157632446,3.302959631e-08,
34977777,-0.6473667867,0.9281788341,-172.1065515,-0.9193845,-0.1274679927,-0.1386449225,3.308217229e-08,
35066666,-0.650758236,0.9278164927,-173.1702742,-0.9212326559,-0.1103351163,-0.1197690025,3.307497218e-08,
35155555,-0.6518878994,0.9276958312,-174.2145104,-0.9229703991,-0.09351576176,-0.1013204344,3.347977047e-08,
35244444,-0.6534581105,0.9275281401,-175.2800593,-0.9243827153,-0.0763219915,-0.08256535982,3.394149957e-08,
35333333,-0.6550618472,0.9273568999,-176.4084289,-0.9255355291,-0.05809306437,-0.06276697386,3.421612796e-08,
35422222,-0.6537220028,0.9274999606,-177.5039617,-0.9266199814,-0.04039290892,-0.04359166619,3.413188666e-08,
35511111,-0.6554956848,0.927310582,-178.5771465,-0.9270246597,-0.02302597995,-0.02483858408,3.244415884e-08,
35600000,-0.6459775388,0.9283273017,-179.6568091,-0.9283106486,-0.005560471192,-0.005989881943,3.103758816e-08,
35688888,-0.6662245333,0.9261658711,179.4769229,-0.9261272751,0.008455237785,-0.009129671496,3.020884253e-08,
35777777,-0.6714548617,0.9256083354,178.5029833,-0.9252924128,0.02418142379,-0.0261338183,3.018138402e-08,
35866666,-0.6744902779,0.925284924,177.5095908,-0.9244110008,0.04020562398,-0.04349323401,3.124916741e-08,
35955555,-0.6781894204,0.924890948,176.4978294,-0.9231637002,0.05649821463,-0.0612006458,3.143506794e-08,
36044444,-0.6811727966,0.9245733267,175.4796268,-0.9216973232,0.07286892878,-0.0790594992,3.148170905e-08,
36133333,-0.6863961654,0.92401749,174.4883481,-0.9197454672,0.08875019644,-0.09649430153,3.146858951e-08,
36222222,-0.6892716084,0.9237116469,173.4772517,-0.9177323062,0.1049315049,-0.1143378131,3.142017312e-08,
36311111,-0.6922171311,0.9233984547,172.4640363,-0.9154228193,0.1211023046,-0.1322911141,3.154387964e-08,
36400000,-0.6977631796,0.9228090415,171.4645487,-0.9125882099,0.1369645441,-0.1500836222,3.144542803e-08,
36488888,-0.6999515204,0.9225765764,170.4476726,-0.909784549,0.1531000123,-0.168281614,3.130127629e-08,
36577777,-0.7028341974,0.9222704421,169.4541588,-0.9066921783,0.1687959186,-0.1861667307,3.130011568e-08,
36666666,-0.7075007057,0.9217750839,168.4610771,-0.9031451259,0.1843859724,-0.2041598488,3.123719744e-08,
36755555,-0.7107789324,0.9214272534,167.4498216,-0.899410744,0.2002211197,-0.2226136623,3.107782437e-08,
36844444,-0.7139536892,0.9210905264,166.4518833,-0.8954598299,0.2157763912,-0.2409671366,3.096164864e-08,
36933333,-0.7186469827,0.9205929631,165.4862976,-0.8912147554,0.2307112121,-0.2588727473,3.092063982e-08,
37022222,-0.7217020267,0.9202692245,164.4889692,-0.8867520857,0.2461019789,-0.2775318861,3.903559745e-08,
37111111,-0.7261285916,0.9198003498,163.4839701,-0.8818496057,0.261484142,-0.2965178419,3.591264102e-08,
37200000,-0.4292953908,0.9517770542,161.2073437,-0.90103835,0.3066096096,-0.3402847499,3.198745804e-08,
37288888,-0.7307958878,0.9193062349,161.3810806,-0.8711925378,0.2935089703,-0.3369048259,2.707822997e-08,
37377777,-0.7362168133,0.9187326684,160.4224143,-0.865619456,0.3078517068,-0.3556432386,2.394112299e-08,
37466666,-0.7401418838,0.9183175957,159.5439614,-0.8604090551,0.3209415282,-0.3730104027,3.209390752e-08,
37555555,-0.7406590083,0.9182629242,158.2953188,-0.8531602494,0.3395944447,-0.398042976,3.165258646e-08,
37644444,-0.7440119218,0.9179085262,157.3095967,-0.8468648971,0.3540846065,-0.4181122723,3.096065257e-08,
37733333,-0.7488451754,0.9173978991,156.4751764,-0.8411504176,0.3661760235,-0.4353276368,2.96981996e-08,
37822222,-0.7529879657,0.9169604447,155.500322,-0.8344006284,0.3802526114,-0.4557194691,3.101932226e-08,
37911111,-0.7547463222,0.9167748356,154.4482383,-0.8271105778,0.3954291228,-0.4780849542,3.314310989e-08,
38000000,-0.7550746393,0.9167401831,153.359968,-0.8194201214,0.4110513691,-0.5016368996,3.360479954e-08,
38088888,-0.7535160737,0.9169046945,152.2424492,-0.8113930495,0.4270310738,-0.5262937292,3.249909946e-08,
38177777,-0.7574326926,0.9164913394,151.2264419,-0.8033311594,0.4411523814,-0.5491538281,3.061326173e-08,
38266666,-0.7609205732,0.9161233897,150.3151975,-0.7958940148,0.4536901832,-0.5700384408,2.86387172e-08,
38355555,-0.7647286757,0.9157218273,149.4254659,-0.7884073662,0.4657899632,-0.5907985937,2.780442103e-08,
38444444,-0.7691082475,0.9152602213,148.5607367,-0.780894129,0.4773946291,-0.6113436013,2.782526551e-08,
38533333,-0.7729458231,0.9148559329,147.6549593,-0.7729082709,0.4894631577,-0.6332745762,2.854165132e-08,
38622222,-0.7773419892,0.9143930165,146.7484027,-0.7646802434,0.5013768182,-0.6556685916,2.935758154e-08,
38711111,-0.7784976608,0.9142713631,145.764963,-0.7558616889,0.5143590503,-0.6804936113,2.974961527e-08,
38800000,-0.7845489132,0.9136346338,144.808516,-0.7466501485,0.526537558,-0.7051998303,2.988485746e-08,
38888888,-0.7850667954,0.9135801615,143.8649583,-0.7378341833,0.5387294584,-0.7301497688,2.977831692e-08,
38977777,-0.7865359724,0.9134256468,142.9168219,-0.7286953523,0.5507717275,-0.7558326339,3.003288511e-08,
39066666,-0.7903090055,0.9130289532,141.946327,-0.7189497431,0.5627904906,-0.7827953149,3.02295402e-08,
39155555,-0.7923188209,0.9128177132,140.962564,-0.70901711,0.5749181814,-0.8108664421,3.01535997e-08,
39244444,-0.7959898567,0.9124319981,140.0053547,-0.6990182718,0.586434657,-0.8389403834,2.981216131e-08,
39333333,-0.7988251107,0.9121342101,139.062726,-0.6890511427,0.5976598864,-0.8673665123,2.952885273e-08,
39422222,-0.7997743397,0.9120345338,138.1262942,-0.6791172848,0.6087747567,-0.8964206483,2.961167439e-08,
39511111,-0.8052798268,0.9114566306,137.1774719,-0.6685194039,0.6195441842,-0.9267407656,2.964769251e-08,
39600000,-0.8084865703,0.9111201921,136.2101079,-0.6577215604,0.6305095982,-0.9586269269,2.981335789e-08,
39688888,-0.810391186,0.9109204263,135.2771824,-0.64722654,0.6409944063,-0.9903710166,3.002227149e-08,
39777777,-0.8139033154,0.9105521711,134.3062958,-0.6360151578,0.6516056901,-1.024512831,3.014442582e-08,
39866666,-0.8162157709,0.9103097859,133.3258626,-0.6246061383,0.662216791,-1.06021499,3.031103579e-08,
39955555,-0.8223289425,0.9096693308,132.3626537,-0.6129542135,0.672149852,-1.096574323,2.984483147e-08,
40044444,-0.8267788087,0.9092034177,131.3992317,-0.6012578622,0.6820116112,-1.134308013,2.977747745e-08,
40133333,-0.8293491537,0.9089344043,130.4944322,-0.5902385082,0.6912165036,-1.171079985,2.994445263e-08,
40222222,-0.8336453604,0.9084849392,129.495571,-0.577813293,0.7010539802,-1.213288079,3.028993021e-08,
40311111,-0.8380495349,0.9080244092,128.5233656,-0.5655482365,0.7103967342,-1.256120501,3.042844508e-08,
40400000,-0.8383231727,0.9079958036,127.5383701,-0.5532351137,0.7199911723,-1.301419875,3.019615264e-08,
40488888,-0.8443794935,0.9073629153,126.6044754,-0.5410492383,0.7284045455,-1.346281436,2.903045453e-08,
40577777,-0.8483218124,0.9069511783,125.6236256,-0.5282611496,0.7372249302,-1.395569087,2.908217176e-08,
40666666,-0.8672225362,0.9049797744,124.8359115,-0.5169499051,0.7427995609,-1.436888862,2.922428322e-08,
40755555,-0.8601692178,0.9057149557,123.7694987,-0.5034445237,0.752903176,-1.495503756,2.619267043e-08,
40844444,-0.865068995,0.905204179,122.8556477,-0.4910953022,0.7604077918,-1.548391501,2.757868406e-08,
40933333,-0.9382336754,0.8976113103,122.422925,-0.4812673934,0.7576857926,-1.574355136,2.78746275e-08,
41022222,-0.8804403262,0.9036036649,121.0966034,-0.4666955403,0.7737537437,-1.657941156,4.86761929e-08,
41111111,-0.8871196962,0.902909069,120.1890749,-0.4540324646,0.7804481456,-1.718925862,4.066859396e-08,
41200000,-1.093970772,0.8816606571,116.1843722,-0.3890425538,0.7911835473,-2.033668398,2.853979912e-08,
41288888,-0.9006288002,0.9015058723,118.3720575,-0.4283912253,0.7932173698,-1.851619088,1.491116788e-08,
41377777,-0.9042278978,0.9011324004,117.4387385,-0.4152417603,0.7997586408,-1.92600725,7.314573121e-09,
41466666,-1.05020106,0.8861147117,117.1761287,-0.404712804,0.7882936183,-1.947785221,2.883163956e-08,
41555555,-0.9258492277,0.8988920483,115.6120034,-0.3885682656,0.8105687,-2.08603937,3.064400674e-08,
41644444,-0.9361317373,0.8978285536,114.672357,-0.37477941,0.8158654948,-2.176921872,3.284556899e-08,
41733333,-0.942307266,0.8971904387,113.7875772,-0.3618789878,0.8209715473,-2.26863558,2.889431882e-08,
41822222,-0.9570580047,0.8956680857,112.8330442,-0.3475614822,0.8254830924,-2.375070699,2.882425979e-08,
41911111,-0.9657491336,0.8947723256,111.908563,-0.3338632177,0.8301523152,-2.486504266,2.873262884e-08,
42000000,-0.9747674838,0.8938437871,110.9999767,-0.3203246262,0.8344751941,-2.605092228,2.84791696e-08,
42088888,-0.9915756907,0.8921157679,110.1068846,-0.3066848965,0.8377439451,-2.731611354,2.874322538e-08,
42177777,-1.001945732,0.8910513108,109.1772106,-0.2927023314,0.8416042916,-2.875290701,2.93923487e-08,
42266666,-1.023490656,0.8888438405,108.221076,-0.27792755,0.8442746294,-3.037750771,3.00655722e-08,
42355555,-1.030732276,0.8881031004,107.2400993,-0.2632129275,0.8482016693,-3.222492441,2.950337295e-08,
42444444,-1.041913816,0.886960561,106.2649426,-0.2484193672,0.8514615991,-3.42751698,2.870591198e-08,
42533333,-1.061997141,0.8849121192,105.4347317,-0.2355109418,0.8529971013,-3.62190009,2.801330595e-08,
42622222,-1.079134664,0.8831678821,104.5308082,-0.2215873025,0.8549178763,-3.858153723,2.768060822e-08,
42711111,-1.101474821,0.880899288,103.625032,-0.2075105663,0.8561091756,-4.125617269,2.750103558e-08,
42800000,-1.121106873,0.8789105071,102.7408896,-0.1938369858,0.8572694456,-4.422630914,2.724421035e-08,
42888888,-1.147085317,0.8762857194,101.9295198,-0.1811355338,0.8573602395,-4.733252617,2.72667097e-08,
42977777,-1.167374526,0.8742412086,101.0194852,-0.167104927,0.8581221558,-5.135229532,2.747317597e-08,
43066666,-1.19118498,0.8718479505,100.1231043,-0.1532392295,0.8582753564,-5.600885355,2.759497104e-08,
43155555,-1.21763571,0.8691969916,99.2483837,-0.1396927534,0.8578982136,-6.141322243,2.699678923e-08,
43244444,-1.248357184,0.8661281241,98.39986963,-0.1265246699,0.8568368778,-6.772093369,2.66665532e-08,
43333333,-1.277917943,0.8631854334,97.56161084,-0.1135884953,0.855679114,-7.533149479,2.646019439e-08,
43422222,-1.310580234,0.859945619,96.69983689,-0.1003280579,0.8540730346,-8.51280342,2.623165582e-08,
43511111,-1.343408236,0.8567016201,95.86476367,-0.08753844421,0.8522175114,-9.735351354,2.609208558e-08,
43600000,-1.376123202,0.8534809656,95.05122304,-0.07514585519,0.8501663715,-11.31354975,2.566227666e-08,
43688888,-1.411613296,0.8500008014,94.21117885,-0.06241792149,0.8477059428,-13.58113059,2.543314171e-08,
43777777,-1.448226849,0.8464253417,93.42065991,-0.05050308395,0.8449173318,-16.7300146,2.541022917e-08,
43866666,-1.484352865,0.8429122331,92.61078326,-0.03839549255,0.8420373026,-21.93062901,2.511223678e-08,
43955555,-1.524492926,0.8390258737,91.78577909,-0.0261462938,0.8386183804,-32.07408234,2.461535016e-08,
44044444,-1.563341987,0.8352815731,91.01065636,-0.01473300237,0.8351516299,-56.68577313,2.349368466e-08,
44133333,-1.607113137,0.8310828935,90.28226241,-0.004094237174,0.8310728085,-202.9859955,2.240871176e-08,
44222222,-1.64647489,0.8273252048,89.60354735,0.005724551697,0.8273053995,144.5188101,2.133580955e-08,
44311111,-1.692944583,0.8229108166,88.90393522,0.01574127371,0.8227602472,52.2677048,2.070752108e-08,
44400000,-1.738518608,0.8186043905,88.28608615,0.02448362133,0.8182381685,33.41981799,2.026155103e-08,
44488888,-1.777463874,0.814942198,87.62778549,0.0337313751,0.814243809,24.1390636,1.956962143e-08,
44577777,-1.822009574,0.810773455,86.99977,0.04243585426,0.8096621478,19.07967123,1.914524184e-08,
44666666,-1.863176372,0.8069398838,86.41598518,0.05044348535,0.805361677,15.96562314,1.844079622e-08,
44755555,-1.903652253,0.8031883256,85.82874378,0.0584222012,0.8010607547,13.71158118,1.769925058e-08,
44844444,-1.94377227,0.7994869635,85.26276752,0.06602653876,0.7967558604,12.06720624,1.718490232e-08,
44933333,-1.982390575,0.7959402575,84.7444952,0.07290597224,0.7925942296,10.8714582,1.653351062e-08,
45022222,-2.018342358,0.7926525883,84.20852167,0.07998524603,0.7886066739,9.859401741,1.597385137e-08,
45111111,-2.05097157,0.7896805138,83.7105017,0.08651117982,0.7849274678,9.073133316,1.550076261e-08,
45200000,-2.081410844,0.7869179607,83.22394485,0.09284764856,0.7814212635,8.416166437,1.489662205e-08,
45288888,-2.109248378,0.784399993,82.75665849,0.09890004149,0.7781401743,7.867945883,1.441566415e-08,
45377777,-2.133798144,0.7821860979,82.30198077,0.1047753344,0.7751369048,7.398085713,1.422745049e-08,
45466666,-2.154419359,0.7803313085,81.86500055,0.1104215365,0.7724791487,6.99572903,1.45178126e-08,
45555555,-2.175434342,0.7784456263,81.3933789,0.116494079,0.7696796233,6.60702784,1.582299071e-08,
45644444,-2.190669053,0.7770814598,80.8881065,0.123060976,0.7672754338,6.23492076,1.61272021e-08,
45733333,-2.197113799,0.7765050956,80.25874611,0.1313839309,0.7653093664,5.824984538,1.574989444e-08,
45822222,-2.208226599,0.7755122638,79.85196138,0.136639137,0.7633799955,5.586832677,1.368011646e-08,
45911111,-2.215253162,0.7748851568,79.3914652,0.142654627,0.7616407707,5.339054096,1.304060206e-08,
46000000,-2.222289307,0.7742577027,79.13292559,0.1459716714,0.7603731067,5.209045695,1.347853945e-08,
46088888,-2.227981455,0.7737504726,78.53176507,0.1538406504,0.7583026098,4.929143292,1.363309536e-08,
46177777,-2.230867339,0.7734934369,78.12524244,0.1591641191,0.7569404733,4.755723072,1.431795362e-08,
46266666,-2.234915497,0.7731330255,77.71403333,0.164515807,0.7554265181,4.591817236,1.351376563e-08,
46355555,-2.235329762,0.7730961525,77.25091601,0.1706082828,0.754036123,4.419692355,1.395717626e-08,
46444444,-2.233840232,0.7732287409,76.80672307,0.1764791213,0.7528199025,4.265773181,1.442644388e-08,
46533333,-2.230531429,0.7735233508,76.34574657,0.1825997464,0.7516619632,4.116445822,1.488007838e-08,
