Frequency,S11_Magnitude,S11_Magnitude (linear),S11_Phase,S11_Real,S11_Imaginary,S11_Quality Factor,S11_Group delay,
30000000,-0.6953684523,0.923063498,-119.4981653,-0.4545124871,-0.8034081282,-1.767626085,3.265627274e-08,
30088888,-0.5967210654,0.933606672,-120.9309637,-0.4798783961,-0.8008359026,-1.668830914,3.265627274e-08,
30177777,-0.5929834205,0.9340085009,-121.8887642,-0.4934103897,-0.7930435467,-1.607269655,3.265627274e-08,
30266666,-0.5864863533,0.9347074029,-122.8408055,-0.5068981028,-0.7853230179,-1.549271961,2.94003638e-08,
30355555,-0.5846011393,0.9349102969,-123.7682545,-0.5196559698,-0.7771839784,-1.495574041,2.93592859e-08,
30444444,-0.5811823696,0.9352783504,-124.6952827,-0.5323715032,-0.7689773568,-1.444437488,2.946638732e-08,
30533333,-0.5832031905,0.935060778,-125.6590173,-0.5451032111,-0.7597375519,-1.393749911,2.96472161e-08,
30622222,-0.5779886631,0.9356223052,-126.610052,-0.5579730628,-0.7510360572,-1.346007733,4.710357914e-08,
30711111,-0.5767034068,0.9357607601,-127.5544304,-0.5703600616,-0.7418474239,-1.300665095,3.850162624e-08,
30800000,-0.1609455004,0.9816410809,-131.2841582,-0.6476808216,-0.7376508422,-1.138911046,2.999330264e-08,
30888888,-0.5753843714,0.9359028751,-129.4822321,-0.5950834567,-0.7223502413,-1.213863758,2.117059918e-08,
30977777,-0.5725756764,0.9362055604,-130.4450856,-0.6073342866,-0.7124787123,-1.173124469,1.282855781e-08,
31066666,-0.6022085871,0.9330170296,-131.3612287,-0.6165415003,-0.7002837681,-1.135825841,3.043147589e-08,
31155555,-0.5730033135,0.9361594688,-132.3972317,-0.6312211634,-0.6913424578,-1.095246005,3.083816434e-08,
31244444,-0.5693314777,0.9365553005,-133.3752012,-0.6432008655,-0.6807558134,-1.058387589,3.108497118e-08,
31333333,-0.5689620451,0.9365951354,-134.3722118,-0.6549766582,-0.6694893761,-1.022157611,3.078222017e-08,
31422222,-0.5685182661,0.9366429891,-135.3473403,-0.6663094704,-0.6582794077,-0.9879484487,3.0061313e-08,
31511111,-0.5660144869,0.936913023,-136.3363236,-0.6777675625,-0.6468671764,-0.9544085794,3.04986756e-08,
31600000,-0.6206587896,0.9310372574,-137.2029614,-0.6831625356,-0.6325498593,-0.9259141512,3.095249908e-08,
31688888,-0.5679605409,0.9367031333,-138.3241954,-0.6996414007,-0.6228279621,-0.8902102726,3.16041937e-08,
31777777,-0.5678006489,0.9367203765,-139.3058104,-0.7102218225,-0.6107618411,-0.8599592716,3.214975948e-08,
31866666,-0.5715272367,0.9363185729,-140.3415195,-0.7208363115,-0.5975679726,-0.8289926064,3.150046174e-08,
31955555,-0.5721591291,0.9362504588,-141.3382673,-0.7310691359,-0.5848955806,-0.8000550862,3.165665133e-08,
32044444,-0.57266604,0.9361958206,-142.3480471,-0.7412199993,-0.5718876875,-0.7715491864,3.158824126e-08,
32133333,-0.5724497972,0.9362191283,-143.3676172,-0.7512974709,-0.5586218457,-0.7435428274,3.182007331e-08,
32222222,-0.5738925841,0.9360636287,-144.3809695,-0.7609330197,-0.54515691,-0.7164321903,3.234135125e-08,
32311111,-0.5731665407,0.9361418764,-145.4130242,-0.7706932414,-0.5314071325,-0.6895183504,3.212272952e-08,
32400000,-0.5553663539,0.9380622999,-146.4999663,-0.7822365475,-0.5177517381,-0.6618864073,3.190772733e-08,
32488888,-0.5771729936,0.9357101712,-147.4477619,-0.7887112495,-0.5034760069,-0.6383527649,3.168035045e-08,
32577777,-0.5783766457,0.9355805137,-148.4688434,-0.7974475813,-0.4892731882,-0.6135490278,3.142810616e-08,
32666666,-0.5801191386,0.9353928439,-149.497391,-0.8059401322,-0.4747844518,-0.5891063527,3.191916649e-08,
32755555,-0.5810711261,0.9352903289,-150.503655,-0.8140646434,-0.4605070638,-0.5656885698,3.202271199e-08,
32844444,-0.5840616808,0.9349683636,-151.5374291,-0.8219574608,-0.4455914873,-0.5421101559,3.2141254e-08,
32933333,-0.5856026155,0.9348025087,-152.5724647,-0.829725209,-0.4305947142,-0.5189606264,3.215654293e-08,
33022222,-0.5888220754,0.9344560846,-153.6055933,-0.8370438611,-0.4154103377,-0.4962826406,3.207371398e-08,
33111111,-0.5894107389,0.9343927564,-154.6146262,-0.8441722398,-0.4005783979,-0.4745221165,3.219147161e-08,
33200000,-0.5905398663,0.9342712974,-155.648149,-0.8511496425,-0.3852364769,-0.452607224,3.245586667e-08,
33288888,-0.5939629521,0.9339031761,-156.7018287,-0.8577517823,-0.3693738246,-0.4306302036,3.278943144e-08,
33377777,-0.5953513535,0.9337539077,-157.7549372,-0.8642575259,-0.3534901542,-0.4090102124,3.284940129e-08,
33466666,-0.5982650307,0.933440733,-158.8074887,-0.8703131242,-0.3374413546,-0.387724079,3.280103349e-08,
33555555,-0.5992457774,0.9333353417,-159.8512298,-0.8762165146,-0.3214956913,-0.3669135264,3.286925922e-08,
33644444,-0.6006662199,0.9331827216,-160.9018543,-0.8818198797,-0.3053255504,-0.3462448029,3.293830526e-08,
33733333,-0.6020830229,0.9330305175,-161.9668424,-0.8871977503,-0.2888357638,-0.3255596215,3.314476929e-08,
33822222,-0.6045832414,0.9327619849,-163.0198178,-0.8920989967,-0.2724046634,-0.3053525051,3.324410709e-08,
33911111,-0.6054272576,0.9326713519,-164.0954177,-0.8969681297,-0.2555856511,-0.2849439602,3.352812541e-08,
34000000,-0.6114406167,0.9320258744,-165.1566304,-0.9009239418,-0.238764071,-0.2650213407,3.397463377e-08,
34088888,-0.6078980383,0.9324060828,-166.2629429,-0.9057352942,-0.2214151757,-0.2444590347,3.399154739e-08,
34177777,-0.6068898896,0.932514311,-167.3720034,-0.9099568398,-0.2038663529,-0.2240395852,3.347709067e-08,
34266666,-0.6100939957,0.9321703827,-168.4263244,-0.9132170574,-0.1870193264,-0.2047917578,3.126205882e-08,
34355555,-0.6143471996,0.9317140402,-169.4312809,-0.9159081,-0.1708900378,-0.1865798958,3.104886529e-08,
34444444,-0.5962003325,0.9336626449,-170.2352398,-0.9201361136,-0.1583523506,-0.1720966585,3.192535583e-08,
34533333,-0.6286728128,0.9301786334,-171.4353704,-0.9198057513,-0.1385267841,-0.15060439,3.319868014e-08,
34622222,-0.6167289866,0.9314585868,-172.532343,-0.9235583131,-0.1210584208,-0.1310782645,3.431420324e-08,
34711111,-0.6245285135,0.9306225555,-173.5945247,-0.9248129232,-0.1038238793,-0.1122647367,3.353191263e-08,
34800000,-0.6263016653,0.9304325961,-174.645942,-0.9263732157,-0.08681866731,-0.09371888763,3.339008134e-08,
34888888,-0.6259104753,0.9304745013,-175.7436836,-0.9279082612,-0.06905835512,-0.07442368821,3.355827274e-08,
34977777,-0.6290642449,0.9301367156,-176.8001833,-0.9286865792,-0.05191866108,-0.05590547149,3.376726427e-08,
35066666,-0.6306782747,0.9299638917,-177.8866741,-0.9293313713,-0.03429347185,-0.03690123126,3.412193719e-08,
35155555,-0.6320650669,0.9298154252,-178.9772158,-0.9296672833,-0.01659720821,-0.01785284747,3.52485232e-08,
35244444,-0.6318013758,0.9298436535,179.8853159,-0.9298417908,0.001861187762,-0.002001617673,3.519792169e-08,
35333333,-0.6312234611,0.9299055226,178.674051,-0.9296565235,0.02151811633,-0.02314630812,3.389161505e-08,
35422222,-0.6353866668,0.9294599194,177.656018,-0.928682235,0.03801378892,-0.04093304199,3.255972999e-08,
35511111,-0.6412093235,0.9288370572,176.7147679,-0.9273106254,0.05322858975,-0.05740103509,3.121226732e-08,
35600000,-0.6306672581,0.9299650712,175.6553941,-0.9272927784,0.07044953366,-0.07597334445,3.163820041e-08,
35688888,-0.6476828624,0.9281450587,174.6803939,-0.9241475671,0.08604954413,-0.09311234178,3.221906398e-08,
35777777,-0.6501534057,0.9278811022,173.6110866,-0.9221184684,0.1032514897,-0.111972044,3.238488181e-08,
35866666,-0.6517749535,0.9277078945,172.581923,-0.9199434225,0.1197749426,-0.1301981619,3.282563659e-08,
35955555,-0.6553025967,0.9273311964,171.523042,-0.9172003129,0.1366994288,-0.1490398846,3.272666106e-08,
36044444,-0.659788402,0.9268524023,170.4723078,-0.9140671365,0.153416575,-0.1678395043,3.251956844e-08,
36133333,-0.6592969177,0.926904849,169.4296219,-0.9111755708,0.1700343441,-0.1866098582,3.247939095e-08,
36222222,-0.6636711727,0.9264381728,168.4254956,-0.9075987086,0.1858824149,-0.2048068306,3.238867562e-08,
36311111,-0.6663853297,0.9261487257,167.3497391,-0.9036664905,0.2028258763,-0.2244477122,3.232864672e-08,
36400000,-0.6702480094,0.925736952,166.3300546,-0.8995138054,0.2187780115,-0.2432180698,3.232609952e-08,
36488888,-0.6744119973,0.9252932631,165.3047524,-0.8950258079,0.2347262787,-0.2622564362,3.220212134e-08,
36577777,-0.6769911179,0.9250185544,164.2758065,-0.8904019532,0.2506864331,-0.2815429955,3.223617278e-08,
36666666,-0.680618066,0.9246323771,163.2245752,-0.8852831489,0.2668684677,-0.3014498446,3.228840261e-08,
36755555,-0.684486087,0.9242207093,162.2123492,-0.8800385769,0.2823402604,-0.3208271408,3.213191296e-08,
36844444,-0.6867736947,0.9239773288,161.1703303,-0.8745281437,0.2982190973,-0.3410057177,3.18776264e-08,
36933333,-0.6909954271,0.9235283434,160.1618165,-0.8687213837,0.3134130799,-0.3607751412,3.19020925e-08,
37022222,-0.6929029151,0.9233255518,159.1494149,-0.8628586204,0.328641257,-0.3808749767,3.6456941e-08,
37111111,-0.6973812638,0.9228496181,158.1184656,-0.8563642227,0.3439356563,-0.4016231029,3.424597935e-08,
37200000,-0.7554961734,0.916695694,156.3588878,-0.8397622152,0.3676008939,-0.4377440271,3.234508529e-08,
37288888,-0.7051876795,0.9220205825,156.0777165,-0.8428156199,0.3738766981,-0.4436043772,3.005541381e-08,
37377777,-0.7064378451,0.921887885,154.9945694,-0.8354772375,0.3896858455,-0.466423055,2.813929753e-08,
37466666,-0.7089726489,0.9216188897,153.9918067,-0.8282877892,0.4041295784,-0.4879096175,3.286999926e-08,
37555555,-0.7118471337,0.9213139421,152.8995495,-0.8201621683,0.419706323,-0.5117357753,3.280431167e-08,
37644444,-0.7150886036,0.9209701829,151.86602,-0.8121551348,0.4342696338,-0.5347126616,3.311985713e-08,
37733333,-0.7166800822,0.9208014529,150.8087663,-0.8038566391,0.4490988971,-0.5586803358,3.32117333e-08,
37822222,-0.7199929487,0.920450319,149.7380146,-0.7950206499,0.4638652348,-0.5834631275,3.344709308e-08,
37911111,-0.7229584468,0.9201361165,148.6496683,-0.7857982002,0.4787187709,-0.6092133715,3.369843111e-08,
38000000,-0.7266089948,0.9197494785,147.5940275,-0.7765187925,0.4929073626,-0.6347655297,3.346637567e-08,
38088888,-0.7244373145,0.9199794666,146.4890042,-0.7670603716,0.5079179121,-0.6621615858,3.274335466e-08,
38177777,-0.724698223,0.9199518325,145.4637198,-0.7578263016,0.5215464225,-0.688213673,3.165804559e-08,
38266666,-0.7287766222,0.9195199769,144.4759377,-0.7483711683,0.534282306,-0.713926897,3.032099948e-08,
38355555,-0.7349324713,0.9188685271,143.5352671,-0.738975054,0.546109183,-0.7390089557,2.954312428e-08,
38444444,-0.738119054,0.9185314847,142.6018646,-0.7297129958,0.5578700854,-0.7645061669,2.930784055e-08,
38533333,-0.7405733135,0.9182719838,141.6738506,-0.7203783344,0.5694545561,-0.7904937294,2.969303114e-08,
38622222,-0.747025903,0.9175900696,140.7173856,-0.7102444113,0.580968512,-0.817983926,2.908460048e-08,
38711111,-0.7509657411,0.9171739537,139.7266156,-0.6997750197,0.5928937368,-0.8472633634,3.002418442e-08,
38800000,-0.7679011626,0.9153874246,138.9219402,-0.6900328304,0.6014888445,-0.8716814882,3.073484206e-08,
38888888,-0.7581400965,0.9164167008,137.7676978,-0.678538547,0.6159586104,-0.9077724665,3.153345017e-08,
38977777,-0.7613851249,0.9160743936,136.7792636,-0.6675624922,0.6273377189,-0.9397438086,3.241473806e-08,
39066666,-0.7669754393,0.9154849898,135.7526523,-0.6557932483,0.6387863351,-0.974066654,3.137544449e-08,
39155555,-0.7673775184,0.915442612,134.7430983,-0.6444067605,0.6502115831,-1.00900801,3.136528835e-08,
39244444,-0.7735820886,0.9147889196,133.7657031,-0.6327695658,0.66063715,-1.044040652,3.13670459e-08,
39333333,-0.7766541104,0.9144654347,132.7542858,-0.6207900475,0.6714661183,-1.081631577,3.148297112e-08,
39422222,-0.7785593113,0.9142648738,131.7283249,-0.6085341367,0.68232431,-1.121258889,3.180423976e-08,
39511111,-0.7850050721,0.9135866535,130.7245057,-0.5960445821,0.6923665429,-1.16160194,3.176698181e-08,
39600000,-0.7904142241,0.9130178931,129.6919084,-0.5831072338,0.7025579171,-1.204852,3.161769636e-08,
39688888,-0.7947875131,0.9125583102,128.6897707,-0.5704432219,0.7122901095,-1.248660835,3.160292101e-08,
39777777,-0.8001238482,0.9119978355,127.6868547,-0.5575457681,0.7217220853,-1.294462494,3.159012823e-08,
39866666,-0.8021644516,0.9117836021,126.6706158,-0.5445298195,0.7313252442,-1.343039845,3.146803988e-08,
39955555,-0.812199443,0.9107308076,125.647059,-0.5307653552,0.7400802265,-1.394364231,3.10364763e-08,
40044444,-0.81520286,0.9104159485,124.6747758,-0.517951587,0.7487211448,-1.445542718,3.079491673e-08,
40133333,-0.8238373123,0.9095113736,123.7189323,-0.5048873171,0.7565049477,-1.498363936,3.087254436e-08,
40222222,-0.827781326,0.9090984843,122.7074863,-0.4912316098,0.7649519983,-1.55721249,3.096899838e-08,
40311111,-0.8338256617,0.9084660811,121.6910905,-0.4772529747,0.7730072565,-1.619701285,3.13548886e-08,
40400000,-0.8375397463,0.9080777042,120.7336508,-0.4640711454,0.7805402545,-1.681940931,3.161245145e-08,
40488888,-0.8450761377,0.907290144,119.6890616,-0.4493743009,0.7881866169,-1.753964602,3.06334768e-08,
40577777,-0.8516276019,0.9066060647,118.6505022,-0.4346863775,0.7956018537,-1.830289365,3.094848447e-08,
40666666,-0.8682217851,0.904875669,117.8313575,-0.4224599321,0.8002047127,-1.894155284,3.06491399e-08,
40755555,-0.8669333792,0.9050099021,116.7107391,-0.4067896771,0.8084337212,-1.98735063,2.902109508e-08,
40844444,-0.8737880442,0.904295975,115.7550746,-0.392939235,0.8144629936,-2.072745404,3.00236643e-08,
40933333,-0.8505002795,0.9067237387,115.0452627,-0.383847075,0.821467809,-2.14009136,2.98036539e-08,
41022222,-0.8917511699,0.9024277499,113.8603035,-0.3650393003,0.8253012498,-2.260855884,3.556717201e-08,
41111111,-0.9008912657,0.9014786315,112.8895341,-0.3506352304,0.8304930211,-2.368538439,3.394252003e-08,
41200000,-1.17145549,0.873830553,111.1421842,-0.3151763508,0.8150114743,-2.585890319,3.058186149e-08,
41288888,-0.9157254698,0.8999403543,110.9735123,-0.3221213374,0.8403157058,-2.608693086,3.067751981e-08,
41377777,-0.9198955208,0.8995084013,109.9252104,-0.3065463902,0.8456622699,-2.758676327,2.636895477e-08,
41466666,-0.8726900011,0.9044103005,108.5896669,-0.2883154925,0.857223523,-2.973213529,2.970572239e-08,
41555555,-0.9481149026,0.8965907518,108.1150689,-0.2787737401,0.852150326,-3.056781194,2.804734918e-08,
41644444,-0.9594176427,0.8954247985,107.1256615,-0.2636742847,0.8557227597,-3.245378141,2.715191146e-08,
41733333,-0.9640440004,0.8949479962,106.1696317,-0.2492269836,0.8595451277,-3.448844564,3.006366895e-08,
41822222,-0.9821623194,0.8930831264,105.2180743,-0.234428592,0.861766039,-3.676027875,2.986028144e-08,
41911111,-0.9947167463,0.8917932127,104.2586694,-0.2196486192,0.8643203216,-3.935013682,2.966718674e-08,
42000000,-1.0028628,0.8909572373,103.3034916,-0.2050173167,0.8670482677,-4.229146503,3.001334321e-08,
42088888,-1.022389355,0.8889565459,102.3801672,-0.1905898309,0.8682852393,-4.555779474,3.091330766e-08,
42177777,-1.032283957,0.8879444604,101.3551845,-0.1748278584,0.870563372,-4.979546051,3.191302932e-08,
42266666,-1.049749421,0.8861607881,100.2867432,-0.158245777,0.8719169779,-5.50989097,3.229710094e-08,
42355555,-1.056325301,0.8854901508,99.2441125,-0.1422461515,0.8739901827,-6.144209692,3.165385005e-08,
42444444,-1.068970136,0.8842020006,98.26816056,-0.1271538149,0.8750114772,-6.881519664,3.056761732e-08,
42533333,-1.083875528,0.8826859699,97.2998535,-0.1121559086,0.8755315949,-7.806379583,2.987904333e-08,
42622222,-1.10231625,0.8808139566,96.36804786,-0.09769523358,0.8753792707,-8.96030685,2.986030608e-08,
42711111,-1.124081585,0.8786095525,95.41351595,-0.08289080297,0.8746907228,-10.55232537,2.948131449e-08,
42800000,-1.140939905,0.8769059255,94.43367439,-0.0677892228,0.8742817758,-12.8970615,2.924347765e-08,
42888888,-1.163531021,0.8746281458,93.55002401,-0.05415694981,0.8729498372,-16.11888853,2.876218642e-08,
42977777,-1.183439224,0.8726257792,92.62083155,-0.03990185216,0.871713022,-21.84643005,2.833219424e-08,
43066666,-1.206854353,0.8702765519,91.71803356,-0.02609162997,0.8698853394,-33.33963192,2.852929862e-08,
43155555,-1.230217401,0.8679388532,90.81651287,-0.01236843736,0.8678507214,-70.16656157,2.879875672e-08,
43244444,-1.255039865,0.8654620056,89.88748987,0.001699482616,0.865460337,509.2493025,2.944818359e-08,
43333333,-1.279685271,0.863009818,88.92829656,0.01614144473,0.8628588527,53.45611046,2.99440581e-08,
43422222,-1.304836685,0.8605144465,87.95042645,0.03077559192,0.8599639386,27.94305113,3.021592396e-08,
43511111,-1.333240635,0.8577050522,86.9939893,0.04497866941,0.8565248834,19.04291289,3.030305408e-08,
43600000,-1.360482615,0.8550192041,86.02008962,0.05934405582,0.8529572805,14.37308705,3.037266189e-08,
43688888,-1.39095715,0.8520246166,85.04497026,0.07359262388,0.8488404284,11.53431395,3.052512214e-08,
43777777,-1.420906254,0.8490918793,84.06530399,0.08779174425,0.8445410761,9.619823404,3.079238862e-08,
43866666,-1.452112703,0.8460467565,83.08741141,0.1018259209,0.839896777,8.24835925,3.114644678e-08,
43955555,-1.488091135,0.842549535,82.07208071,0.1162104886,0.8344967593,7.180907412,3.084924832e-08,
44044444,-1.522194401,0.8392479324,81.05814419,0.1304460443,0.8290482022,6.355487486,3.012431066e-08,
44133333,-1.562108232,0.8354002259,80.1440517,0.1429968359,0.8230707396,5.755866796,2.932415522e-08,
44222222,-1.601957975,0.8315762959,79.23153019,0.1553723206,0.8169324194,5.257901898,2.849200999e-08,
44311111,-1.647251222,0.827251263,78.29351701,0.1678477034,0.8100443202,4.826067345,2.849693908e-08,
44400000,-1.698954979,0.8223415819,77.42468424,0.1790424917,0.8026141436,4.482813751,2.838759406e-08,
44488888,-1.739408475,0.8185205289,76.48795873,0.1912470857,0.7958645667,4.161446767,2.811234438e-08,
44577777,-1.790157605,0.8137520951,75.5922886,0.2024779963,0.7881593325,3.892567818,2.826176955e-08,
44666666,-1.842515512,0.8088616117,74.71178471,0.2132763042,0.7802373516,3.658340548,2.791572859e-08,
44755555,-1.896566513,0.8038438146,73.79088246,0.2243881095,0.7718904421,3.439979257,2.771989898e-08,
44844444,-1.954090399,0.798537802,72.92213964,0.2345073754,0.7633275261,3.255025667,2.760163679e-08,
44933333,-2.015469305,0.7929148193,72.05192176,0.2443406779,0.7543285384,3.08719999,2.717888524e-08,
45022222,-2.076249783,0.7873856777,71.16499766,0.2542027015,0.7452229143,2.931608948,2.701296718e-08,
45111111,-2.142130416,0.7814361157,70.32082638,0.2631509735,0.7357947867,2.796093728,2.671196975e-08,
45200000,-2.207457674,0.7755809196,69.46560717,0.2720501876,0.7263019058,2.669734993,2.62308151e-08,
45288888,-2.277301536,0.7693694248,68.62769649,0.2803787406,0.7164614949,2.555334593,2.540159117e-08,
45377777,-2.350392584,0.7629224079,67.81462694,0.2880828662,0.7064409831,2.452214505,2.384802929e-08,
45466666,-2.425061578,0.7563919899,67.08210256,0.2945478765,0.6966852883,2.36527011,2.332953513e-08,
45555555,-2.509416442,0.7490816836,66.42271469,0.2996219711,0.6865493742,2.29138528,2.343100455e-08,
45644444,-2.585679877,0.7425334217,65.59092233,0.3068509779,0.6761644472,2.203559695,2.333488862e-08,
45733333,-2.664561842,0.735820542,64.81125163,0.3131663964,0.665851844,2.126191863,2.218793757e-08,
45822222,-2.752122251,0.7284401706,64.15424724,0.3175634179,0.6555749826,2.06439075,1.773307272e-08,
45911111,-2.839575148,0.7211427515,63.59097779,0.3207471464,0.6458855441,2.013690695,1.598032629e-08,
46000000,-2.950476617,0.71199373,63.36376407,0.3192042286,0.6364304612,1.993803353,1.541420583e-08,
46088888,-3.026337219,0.7058024134,62.64963781,0.324267127,0.6269034034,1.933293113,1.570733885e-08,
46177777,-3.117197041,0.6984577618,62.15864121,0.3261972718,0.6176071445,1.893354721,1.647738671e-08,
46266666,-3.209737496,0.6910558141,61.68039013,0.3278296432,0.608346828,1.855679743,1.450934813e-08,
46355555,-3.302282077,0.6837319842,61.21200274,0.329264872,0.5992278951,1.819896217,1.426011112e-08,
46444444,-3.392023758,0.6767041067,60.80145844,0.3301215984,0.5907183578,1.789396273,1.444956366e-08,
46533333,-3.477849343,0.6700504957,60.31648642,0.3318148388,0.5821224782,1.75435939,1.358422063e-08,
