Frequency,S11_Magnitude,S11_Phase
1000000,1.03002562,162.4801225
1222000,0.9968974361,157.1688873
1444000,0.9980122214,153.1934716
1666000,0.9998722005,149.2153929
1888000,1.001508018,145.2333219
2110000,1.003098348,141.2503021
2332000,1.003827,137.3048782
2554000,1.004893409,133.4092971
2776000,1.005437985,129.5722708
2998000,1.005333005,125.7638745
3220000,1.005154879,122.0001791
3442000,1.004948132,118.3081498
3664000,1.004613094,114.6633502
3886000,1.003937192,111.0395645
4108000,1.00276518,107.5113346
4330000,1.001877081,104.0240907
4552000,1.000676791,100.6437455
4774000,0.9995166376,97.28883119
4996000,0.9983634065,93.977441
5218000,0.9967435504,90.68111512
5440000,0.9941511898,87.4436306
5662000,0.9910969937,84.26525887
5884000,0.9862621498,81.10345391
6106000,0.9785475291,77.97994428
6328000,0.966010836,74.96648704
6550000,0.9481516695,72.39105023
6772000,0.932346384,70.67509877
6994000,0.9317221511,69.45612234
7216000,0.9431565875,67.70852602
7438000,0.95495345,65.45846441
7660000,0.9634196446,62.95110166
7882000,0.9693044583,60.42092855
8104000,0.9733110902,57.85961121
8326000,0.9759777094,55.35687042
8548000,0.9776312908,52.90397699
8770000,0.9785588644,50.4849588
8992000,0.9788084341,48.09637659
9214000,0.9787928563,45.71892624
9436000,0.9779820932,43.38029652
9658000,0.9767600715,41.05076443
9880000,0.9752361502,38.74822215
10102000,0.9726506722,36.43071595
10324000,0.9693712088,34.16269799
10546000,0.9652145278,31.88840448
10768000,0.9600438573,29.6426364
10990000,0.9537455264,27.4213233
11212000,0.9457731063,25.21456846
11434000,0.9364101857,23.06260441
11656000,0.9249786848,20.96716246
11878000,0.9114614656,19.00581968
12100000,0.8965464725,17.21750272
12322000,0.8809268151,15.75153768
12544000,0.8657593037,14.56870891
12766000,0.8536577173,13.71015798
12988000,0.8458056985,13.09809238
13210000,0.8430596777,12.57461484
13432000,0.8451702926,12.03198311
13654000,0.8511943625,11.36314934
13876000,0.8596144304,10.46236804
14098000,0.8687029837,9.388536535
14320000,0.8777100889,8.133853868
14542000,0.8861983863,6.72914193
14764000,0.8937272403,5.241224868
14986000,0.9006489197,3.719827459
15208000,0.9064014117,2.117268632
15430000,0.9115540776,0.5363861191
15652000,0.9158451306,-1.07369062
15874000,0.9198201524,-2.688427803
16096000,0.9233270642,-4.292840769
16318000,0.926028157,-5.900025385
16540000,0.9285697217,-7.52446833
16762000,0.9314683588,-9.129574246
16984000,0.9335322842,-10.75296488
17206000,0.9358239425,-12.33230253
17428000,0.9379161272,-13.94244859
17650000,0.9396079124,-15.5626183
17872000,0.9413909296,-17.16352512
18094000,0.9427505994,-18.76522586
18316000,0.9442068686,-20.35705308
18538000,0.9452266255,-21.99257255
18760000,0.9459774396,-23.60258179
18982000,0.9469565524,-25.19907836
19204000,0.9476324776,-26.8219343
19426000,0.9481655891,-28.4335614
19648000,0.9488851189,-30.06413324
19870000,0.9493034016,-31.70526096
20092000,0.9496479196,-33.28879143
20314000,0.950355569,-34.92514159
20536000,0.9504719682,-36.57301611
20758000,0.9505604574,-38.20212179
20980000,0.9508986263,-39.87246439
21202000,0.9510008329,-41.55015447
21424000,0.9511641194,-43.22007885
21646000,0.9509607172,-44.8969336
21868000,0.9507073201,-46.59312989
22090000,0.9506299339,-48.30818507
22312000,0.9503524162,-50.02461603
22534000,0.950101122,-51.76553061
22756000,0.949491457,-53.53104932
22978000,0.949044577,-55.29341616
23200000,0.9485681681,-57.07278738
23422000,0.947939194,-58.87959267
23644000,0.947312823,-60.70439632
23866000,0.9462034565,-62.53529882
24088000,0.9453697294,-64.38237184
24310000,0.9446814623,-66.24861991
24532000,0.9434334052,-68.12554475
24754000,0.9427452025,-70.01272828
24976000,0.9415828513,-71.91142358
25198000,0.9414593776,-74.01689631
25420000,0.9392767002,-75.86162343
25642000,0.9373101824,-77.72864935
25864000,0.9374833693,-79.7147391
26086000,0.9357180874,-81.69443348
26308000,0.9343672155,-83.66814415
26530000,0.9328587951,-85.65990702
26752000,0.9313860857,-87.69761224
26974000,0.9303552742,-89.69751204
27196000,0.9282227128,-91.77660441
27418000,0.926458495,-93.80984305
27640000,0.925447871,-95.96437371
27862000,0.9237476348,-98.00653265
28084000,0.9214497362,-99.99580577
28306000,0.9191578329,-101.96333
28528000,0.9172607757,-103.9494404
28750000,0.9144686579,-105.9992334
28972000,0.9140000136,-108.1531157
29194000,0.9119227851,-110.1641229
29416000,0.9103767242,-112.2422257
29638000,0.9091647845,-114.3350418
29860000,0.9080735961,-116.3828499
30082000,0.9075416838,-118.460892
30304000,0.9075729706,-120.5696733
30526000,0.9075815824,-122.6974039
30748000,0.9083571679,-124.8309386
30970000,0.9092669143,-127.0212659
31192000,0.9110793806,-129.3041789
31414000,0.9126675618,-131.5369469
31636000,0.9146329554,-133.8183407
31858000,0.9161553396,-136.1390459
32080000,0.9178911066,-138.5004227
32302000,0.9194593664,-140.893748
32524000,0.9208977096,-143.3400129
32746000,0.922200914,-145.7726021
32968000,0.9231558258,-148.2517023
33190000,0.9240012537,-150.7437572
33412000,0.9248191447,-153.2613335
33634000,0.9257549774,-155.8472916
33856000,0.92635124,-158.4862509
34078000,0.9270241298,-161.0358486
34300000,0.9270979269,-163.5791445
34522000,0.9272686059,-166.179895
34744000,0.9274864291,-168.8144632
34966000,0.9274859303,-171.4149883
35188000,0.9274136017,-174.0019466
35410000,0.9270071882,-176.6151747
35632000,0.9265129021,-179.2257935
35854000,0.9260808347,178.1757806
36076000,0.9255072722,175.5565106
36298000,0.9249750261,172.9142466
36520000,0.9247384327,170.2318967
36742000,0.9232144178,167.8337072
36964000,0.9230185294,165.1178065
37186000,0.9217786998,162.6184645
37408000,0.921031336,159.9456203
37630000,0.9205687027,157.2782318
37852000,0.9187396711,154.8979104
38074000,0.9177624663,152.3377033
38296000,0.9179823552,149.4149138
38518000,0.9157932101,147.1391301
38740000,0.9138954,144.6354045
38962000,0.9120672206,142.1804481
39184000,0.9104581622,139.704175
39406000,0.9085401947,137.1990282
39628000,0.9063407697,134.7262011
39850000,0.9042022407,132.1938263
40072000,0.9018880736,129.7230676
40294000,0.8989918405,127.3229444
40516000,0.8957489257,124.9284697
40738000,0.8924358915,122.5489642
40960000,0.8890424791,120.1697554
41182000,0.8849669526,117.8468087
41404000,0.8803970455,115.6211988
41626000,0.8756813948,113.3628494
41848000,0.8704235389,111.1415852
42070000,0.8645090634,108.9220164
42292000,0.8584226591,106.6184343
42514000,0.8513480066,104.6830311
42736000,0.8441221798,102.5508879
42958000,0.8369250272,100.3447172
43180000,0.828907889,98.37841635
43402000,0.8207366042,96.72784155
43624000,0.8125083091,95.14193108
43846000,0.8051468592,93.59993494
44068000,0.7978253356,92.10318392
44290000,0.7917705815,90.67808731
44512000,0.7865044509,89.14882294
44734000,0.7823090703,87.88533461
44956000,0.779430655,86.76592961
45178000,0.7773580992,85.50137466
45400000,0.7763046929,84.2513734
45622000,0.7764780085,83.02787479
45844000,0.7772346889,81.8277008
46066000,0.7787198098,80.39792645
46288000,0.7803358473,79.15608596
46510000,0.7823241218,77.75244151
46732000,0.7846553016,76.3256186
46954000,0.7867356799,75.03708479
47176000,0.7886286829,73.69728564
47398000,0.7906490988,72.28583685
47620000,0.7928408371,70.83115652
47842000,0.7946181437,69.39689347
48064000,0.7968492709,67.88898624
48286000,0.7990847326,66.28005241
48508000,0.8004148068,64.88824997
48730000,0.8018612222,63.43373513
48952000,0.8034085931,61.90977795
49174000,0.8050798522,60.31638475
49396000,0.8055921891,59.02705111
49618000,0.8066242424,57.56986127
49840000,0.8087269855,56.04282417
50062000,0.8086001303,54.61775772
50284000,0.8094117315,53.186565
50506000,0.8099065874,51.75862457
50728000,0.8108365766,50.31647248
50950000,0.8114803748,48.85091364
51172000,0.8125713578,47.36321426
51394000,0.8128040534,46.07786735
51616000,0.8135865335,44.63789521
51838000,0.8148723866,43.11109192
52060000,0.8161136192,41.62825703
52282000,0.8166262863,40.3731135
52504000,0.8178496194,38.98420736
52726000,0.8192987531,37.52628807
52948000,0.8209766303,36.09236251
53170000,0.8225421051,34.70260644
53392000,0.8247344548,33.24647479
53614000,0.8269703793,31.77093807
53836000,0.829269839,30.21087627
54058000,0.8319838487,28.58686129
54280000,0.8347611791,27.08162029
54502000,0.8376306846,25.60908184
54724000,0.841011026,23.99707082
54946000,0.8446893103,22.39720182
55168000,0.8482296167,20.71113956
55390000,0.8518595143,19.0199362
55612000,0.8567414213,16.95699702
55834000,0.8608120986,15.17833656
56056000,0.8651464041,13.22094483
56278000,0.8707355358,11.0889133
56500000,0.8758870766,8.958152435
56722000,0.881313969,6.733709899
56944000,0.8867198174,4.323678343
57166000,0.8929028969,1.660916916
57388000,0.8992037672,-1.29300066
57610000,0.9050079677,-4.159218236
57832000,0.9113660856,-7.453133141
58054000,0.9172586864,-11.02817781
58276000,0.9230518836,-14.96953672
58498000,0.9280016824,-19.26374671
58720000,0.9328613548,-24.07615319
58942000,0.9351977891,-29.43735829
59164000,0.9360639993,-35.47208967
59386000,0.9332386766,-42.3012201
59608000,0.926528925,-50.15495104
59830000,0.9128075991,-59.12710004
60052000,0.8911289917,-69.489101
60274000,0.8591150185,-81.45468026
60496000,0.8152072656,-95.17137208
60718000,0.7597792694,-110.7641349
60940000,0.6961277147,-128.255934
61162000,0.6320594859,-147.3849308
61384000,0.5763220136,-167.8465081
61606000,0.5359628771,171.1709847
61828000,0.5150236265,150.8562539
62050000,0.524999637,131.0568148
62272000,0.5208081242,115.7517723
62494000,0.5373048821,101.667764
62716000,0.556933424,89.7139554
62938000,0.5772647745,79.70888152
63160000,0.5972610607,71.0020477
63382000,0.6157142657,63.36463735
63604000,0.632645588,56.53186229
63826000,0.6479055965,50.53662064
64048000,0.6615315794,44.95829083
64270000,0.6734791776,39.80628619
64492000,0.6842874828,34.94399661
64714000,0.6937305542,30.44755183
64936000,0.7017030761,26.08432267
65158000,0.7086865965,21.80533139
65380000,0.7146354441,17.68246216
65602000,0.7196663521,13.54952463
65824000,0.7239056632,9.521708409
66046000,0.7272840179,5.4268606
66268000,0.7290675989,1.226308015
66490000,0.7315655822,-3.085722335
66712000,0.7332135602,-7.533915604
66934000,0.7332585119,-12.13853087
67156000,0.7326957193,-17.08495421
67378000,0.7316483673,-22.45429364
67600000,0.728562481,-28.25821131
67822000,0.7242747934,-34.76320706
68044000,0.7168115989,-41.96691333
68266000,0.7058102919,-49.89221673
68488000,0.6917873935,-58.6375759
68710000,0.6770228942,-68.34631834
68932000,0.6637841397,-79.41224364
69154000,0.6531004195,-92.10886781
69376000,0.6462984785,-106.7174672
69598000,0.6463090582,-123.2529561
69820000,0.6557201748,-141.5223405
70042000,0.6760612011,-160.9916966
70264000,0.7071275331,179.2500421
70486000,0.7450405836,160.0996451
70708000,0.7849416871,142.2632633
70930000,0.8224901759,126.1077407
71152000,0.8546270028,111.7409303
71374000,0.8805059526,99.13096392
71596000,0.9000730126,88.11860121
71818000,0.9155084672,78.41249727
72040000,0.9264746961,69.89000616
72262000,0.9348375714,62.26634365
72484000,0.9411122452,55.43279876
72706000,0.9453738471,49.20557589
72928000,0.9486453685,43.46336945
73150000,0.9508698197,38.04115927
73372000,0.9525848272,32.90505202
73594000,0.9533105501,27.84748927
73816000,0.9529437706,22.77041872
74038000,0.9507965351,17.4469413
74260000,0.9445371962,11.51285024
74482000,0.9285413217,4.331838774
74704000,0.8843670879,-5.555756632
74926000,0.7427991397,-21.05074846
75148000,0.3275545893,-32.55155848
75370000,0.4165638321,43.05975265
75592000,0.6893213075,33.71472655
75814000,0.7980838069,24.36668376
76036000,0.8479481521,17.69246868
76258000,0.874787233,12.46993663
76480000,0.8913759181,8.118530562
76702000,0.9021139158,4.285675437
76924000,0.9097293261,0.7854509506
77146000,0.915449472,-2.508937789
77368000,0.9197690477,-5.613496243
77590000,0.9232477599,-8.633838676
77812000,0.9258983343,-11.6086959
78034000,0.9281041425,-14.5416829
78256000,0.9297931202,-17.45664397
78478000,0.9311620979,-20.41221764
78700000,0.9322244353,-23.372809
78922000,0.9326549607,-26.36618404
79144000,0.9328779999,-29.37986128
79366000,0.9332101696,-32.41640833
79588000,0.9343174986,-35.5469466
79810000,0.9353386427,-38.81593153
80032000,0.9356711616,-42.23812309
80254000,0.9359195155,-45.78401537
80476000,0.9359181064,-49.49071695
80698000,0.9356446158,-53.37534587
80920000,0.9348754035,-57.52932636
81142000,0.9336998053,-61.98619623
81364000,0.932088229,-66.81830717
81586000,0.9294715169,-72.12753892
81808000,0.9245131346,-78.07577018
82030000,0.916411024,-84.92117989
82252000,0.9015351288,-93.13110912
82474000,0.8699566789,-103.5536836
82696000,0.7970193764,-117.7121842
82918000,0.6117991829,-138.0854395
83140000,0.2163514512,-151.4302813
83362000,0.3232863167,-59.01744255
83584000,0.5896860843,-75.35643699
83806000,0.7122518503,-92.06487955
84028000,0.771412157,-106.8324483
84250000,0.8021904447,-121.0359491
84472000,0.8195293598,-135.6660249
84694000,0.8294730568,-151.4171141
84916000,0.835536744,-168.9235989
85138000,0.8402499848,171.4041309
85360000,0.8455958206,149.3046444
85582000,0.8530449529,124.833458
85804000,0.8637735525,98.61867717
86026000,0.8773507796,71.75227081
86248000,0.8909253955,45.37870975
86470000,0.9023258767,20.40225043
86692000,0.909493234,-2.857958855
86914000,0.9120183092,-24.43492307
87136000,0.9100005147,-44.63592834
87358000,0.9031457648,-63.95688282
87580000,0.8915856514,-82.93234533
87802000,0.873951873,-102.0173796
88024000,0.8493661324,-121.909143
88246000,0.8152922351,-143.3441572
88468000,0.7694304617,-167.4452094
88690000,0.7081085491,164.0515965
88912000,0.6325605493,128.4997196
89134000,0.560056211,82.56823353
89356000,0.5383817069,27.32423202
89578000,0.5910923545,-25.74403419
89800000,0.6690353136,-67.89218608
90022000,0.7296721824,-100.0461199
90244000,0.7667638973,-125.2635282
90466000,0.7871263265,-145.8356489
90688000,0.7969917111,-163.1357364
90910000,0.8008438308,-178.1310822
91132000,0.8007751963,168.6440353
91354000,0.7983436392,156.7838622
91576000,0.7941673777,145.9766488
91798000,0.7885644803,136.0763606
92020000,0.7812829025,126.8502991
92242000,0.7726592989,118.2134115
92464000,0.7616277637,109.9881818
92686000,0.7482339746,102.1166956
92908000,0.7313594232,94.44697893
93130000,0.7105259887,86.89302997
93352000,0.6838957024,79.24225737
93574000,0.6492773801,71.40484952
93796000,0.6031591429,63.09466855
94018000,0.5399583782,54.0102767
94240000,0.4515419606,43.8320825
94462000,0.3269628719,32.49930815
94684000,0.1563701728,22.57399995
94906000,0.06940198648,153.9626818
95128000,0.301589463,153.1554862
95350000,0.5093365504,138.0926302
95572000,0.6621401514,123.8512546
95794000,0.7618194744,111.7859649
96016000,0.8226509974,101.8158624
96238000,0.8588732324,93.58647708
96460000,0.8797880701,86.73607998
96682000,0.8914849696,80.86162729
96904000,0.8975228056,75.76626403
97126000,0.9005703319,71.31640125
97348000,0.9015738076,67.35645471
97570000,0.9016451311,63.77675405
97792000,0.9019070099,60.51485059
98014000,0.902219904,57.53821964
98236000,0.9033208632,54.7013726
98458000,0.9056577726,51.96628896
98680000,0.9084961242,49.26803222
98902000,0.9116715905,46.58434087
99124000,0.9153784498,43.8225161
99346000,0.9183662025,40.96136851
99568000,0.9207265113,37.96805972
99790000,0.9219986248,34.72869179
100012000,0.9205852137,31.20016578
100234000,0.9161110041,27.1711742
100456000,0.9045143479,22.4032578
100678000,0.8788084825,16.37277493
100900000,0.8199899128,8.146460359
101122000,0.6719564167,-2.571151387
101344000,0.3888129375,1.104543757
101566000,0.4458068451,35.47299422
101788000,0.5081460438,32.17364041
102010000,0.4889039629,43.01782686
102232000,0.6193705317,49.7894054
102454000,0.7299275805,46.46375003
102676000,0.7933068921,41.95390752
102898000,0.8306533886,37.95969166
103120000,0.8540320888,34.50416501
103342000,0.8692488872,31.54382111
103564000,0.8798819171,28.92450055
103786000,0.8871352959,26.54891343
104008000,0.8924080428,24.35347985
104230000,0.8960086041,22.33128627
104452000,0.8985427931,20.43401953
104674000,0.9002371837,18.64260283
104896000,0.9016680213,16.92401293
105118000,0.9022637422,15.26490447
105340000,0.9025562208,13.70561128
105562000,0.9023871931,12.1668875
105784000,0.9018332053,10.6286466
106006000,0.9010720948,9.133881955
106228000,0.9000903794,7.664197614
106450000,0.8987191667,6.206547864
106672000,0.8969755199,4.767773349
106894000,0.8945912696,3.293376146
107116000,0.8919904584,1.831742473
107338000,0.8886476709,0.3197783535
107560000,0.8842698402,-1.240946501
107782000,0.879068998,-2.813625624
108004000,0.8722247311,-4.482752035
108226000,0.8631034214,-6.254385701
108448000,0.8505089816,-8.174537322
108670000,0.8324731485,-10.28836582
108892000,0.8039805893,-12.62435314
109114000,0.7554746355,-15.02259898
109336000,0.6677438417,-15.89662405
109558000,0.5661561598,-5.467061319
109780000,0.7249002762,8.85782734
110002000,0.8872803446,1.677575637
110224000,0.9250725202,-6.32251154
110446000,0.9219574644,-13.16931164
110668000,0.8937713956,-21.60900287
110890000,0.7082798876,-42.10561211
111112000,0.661544739,13.21878095
111334000,0.8330073785,-5.224736503
111556000,0.8342754243,-12.55775693
111778000,0.8095656166,-17.35057445
112000000,0.7681795356,-21.06616884
112222000,0.7083148416,-23.59088788
112444000,0.6327738314,-23.38522477
112666000,0.5710113184,-17.48403092
112888000,0.5864209414,-7.669252972
113110000,0.6779626842,-3.201747299
113332000,0.7714613558,-5.159610183
113554000,0.8327138696,-9.851916869
113776000,0.8637721954,-15.43944242
113998000,0.8696903449,-21.79757721
114220000,0.8466973777,-29.55915167
114442000,0.7656223632,-40.15206742
114664000,0.5373494109,-52.57321217
114886000,0.2806993045,-16.57353641
115108000,0.5178691172,6.355823024
115330000,0.6515373854,0.04845179104
115552000,0.6942558427,-4.986198539
115774000,0.7050134636,-7.436890036
115996000,0.7136234415,-7.95605304
116218000,0.7338737962,-7.746887268
116440000,0.7650676171,-8.024706786
116662000,0.798077446,-9.121034515
116884000,0.8271385853,-10.77140336
117106000,0.8496368631,-12.77140005
117328000,0.866535311,-14.80758566
117550000,0.8786334934,-16.86041398
117772000,0.8869803779,-18.86211526
117994000,0.8922700887,-20.76157886
118216000,0.8953531673,-22.60974671
118438000,0.8959770621,-24.42392725
118660000,0.8946893797,-26.16121784
118882000,0.8909103022,-27.87116483
119104000,0.88484025,-29.51561295
119326000,0.875712206,-31.04283472
119548000,0.8631784307,-32.39212288
119770000,0.8475488725,-33.3616369
119992000,0.8318711716,-33.77709428
120214000,0.8228532955,-33.55581623
120436000,0.8252897424,-33.04427348
120658000,0.8396044718,-32.95624569
120880000,0.8578253842,-33.56810212
121102000,0.8744190395,-34.71421884
121324000,0.886777107,-36.24963563
121546000,0.8953770993,-37.92781448
121768000,0.9004654682,-39.74556812
121990000,0.9024197946,-41.65227453
122212000,0.9009315742,-43.70267428
122434000,0.8944834899,-45.99557286
122656000,0.877670808,-48.68687186
122878000,0.8336851012,-51.7059785
123100000,0.7320656278,-51.25217097
123322000,0.7585412768,-40.85622925
123544000,0.8602652931,-41.9581087
123766000,0.8981839245,-45.36935039
123988000,0.9123313829,-48.35592023
124210000,0.9154449549,-50.95483514
124432000,0.9160172509,-53.21288616
124654000,0.915973385,-55.39230431
124876000,0.9149443445,-57.60481032
125098000,0.913077137,-59.78975165
125320000,0.9101182097,-62.1489516
125542000,0.9068022183,-64.58058181
125764000,0.9016614189,-67.22935633
125986000,0.8945893287,-70.13520571
126208000,0.8833785255,-73.42765603
126430000,0.8628686101,-77.26419592
126652000,0.8163779062,-81.67670023
126874000,0.7063837162,-81.86040904
127096000,0.796683935,-73.57259627
127318000,0.8796997667,-81.64166392
127540000,0.8858327935,-89.66827528
127762000,0.8730407989,-97.74190594
127984000,0.8490089273,-106.9617384
128206000,0.8104631977,-118.1250435
128428000,0.7510559356,-132.2838151
128650000,0.663933568,-150.7025302
128872000,0.5493223759,-175.2235492
129094000,0.4325106626,151.4709946
129316000,0.3680579557,108.7504019
129538000,0.3897168475,67.40079614
