Frequency,S11_Magnitude,S11_Phase
1000000,1.023463169,161.9229255
1222000,0.9974825574,157.1521129
1444000,0.9986679272,153.1859843
1666000,1.000090034,149.2177109
1888000,1.001897655,145.2423289
2110000,1.003119602,141.2798304
2332000,1.00388878,137.3309434
2554000,1.004792195,133.4443871
2776000,1.005407501,129.5846519
2998000,1.005753133,125.799888
3220000,1.006021822,122.0490482
3442000,1.006270509,118.3421857
3664000,1.005902902,114.7313993
3886000,1.004976611,111.1106891
4108000,1.003794429,107.5551003
4330000,1.002937988,104.0861713
4552000,1.001524767,100.6972395
4774000,1.000940788,97.32074143
4996000,0.9999079259,94.03052756
5218000,0.9982166905,90.72666345
5440000,0.9957862148,87.48398557
5662000,0.9928228852,84.29419504
5884000,0.9880271873,81.15284131
6106000,0.9804875726,78.01447701
6328000,0.9687380212,75.01685804
6550000,0.9504155129,72.40265501
6772000,0.9341416212,70.64469974
6994000,0.9331587694,69.41741481
7216000,0.9442741827,67.69607207
7438000,0.9559192007,65.44844655
7660000,0.9646082494,62.9538635
7882000,0.9702260157,60.42362058
8104000,0.9743734765,57.87660362
8326000,0.9770772556,55.37018654
8548000,0.9787275764,52.91584443
8770000,0.9795715453,50.50077258
8992000,0.9798962185,48.12106492
9214000,0.9797957599,45.74205351
9436000,0.9788795831,43.41354671
9658000,0.9777262594,41.07386751
9880000,0.9757737626,38.78887731
10102000,0.9734313539,36.47206804
10324000,0.9701043915,34.19865549
10546000,0.965945968,31.95253438
10768000,0.9608972796,29.69482961
10990000,0.9547352863,27.48218122
11212000,0.9468373171,25.27777287
11434000,0.9376119469,23.11316474
11656000,0.9262132821,21.04647776
11878000,0.9130794357,19.06849845
12100000,0.8977809829,17.26447655
12322000,0.8827219027,15.78267267
12544000,0.8675960478,14.59414549
12766000,0.8552815679,13.7181379
12988000,0.847180687,13.09929985
13210000,0.8442657457,12.56104997
13432000,0.8461295098,12.03528207
13654000,0.8520626014,11.35483307
13876000,0.8602595046,10.49481385
14098000,0.8692965154,9.42108677
14320000,0.8783905648,8.164691248
14542000,0.8868348873,6.787483507
14764000,0.894636022,5.317620801
14986000,0.9015408781,3.780147242
15208000,0.9075144732,2.172683776
15430000,0.9127265198,0.6093373613
15652000,0.9172317,-1.028394016
15874000,0.9210518955,-2.618669968
16096000,0.9245287841,-4.230552866
16318000,0.9275363738,-5.830142826
16540000,0.9301142237,-7.4748711
16762000,0.9329375366,-9.067535162
16984000,0.9352578143,-10.66600036
17206000,0.9374384658,-12.28156378
17428000,0.9395160882,-13.8915925
17650000,0.941292633,-15.53284165
17872000,0.9429215852,-17.13075375
18094000,0.9445190665,-18.72981082
18316000,0.9458592498,-20.32993276
18538000,0.9466677219,-21.94502563
18760000,0.9476382733,-23.57436528
18982000,0.9484904573,-25.1764663
19204000,0.9491396519,-26.78875019
19426000,0.9496650308,-28.39183345
19648000,0.9502476745,-30.03530056
19870000,0.9506394308,-31.6538072
20092000,0.9510607647,-33.25945217
20314000,0.9515628316,-34.89798378
20536000,0.9518802208,-36.53981199
20758000,0.9519433356,-38.16662154
20980000,0.9521644817,-39.83830956
21202000,0.9520748628,-41.51040724
21424000,0.9522331807,-43.16792736
21646000,0.9519848557,-44.85282001
21868000,0.951971252,-46.5545376
22090000,0.9516530022,-48.25880002
22312000,0.9511666099,-49.98239223
22534000,0.9509024884,-51.70461661
22756000,0.950400666,-53.48342838
22978000,0.9498653018,-55.24895657
23200000,0.9494313467,-57.04962367
23422000,0.9486411465,-58.84418337
23644000,0.9480090316,-60.65645849
23866000,0.9468064752,-62.48919734
24088000,0.9461252339,-64.32228334
24310000,0.9451973843,-66.17342782
24532000,0.9441088766,-68.05714689
24754000,0.943324561,-69.93629558
24976000,0.9421928863,-71.85387807
25198000,0.9417899957,-73.82794449
25420000,0.9422949045,-75.9678991
25642000,0.9390500291,-77.78080964
25864000,0.9372463248,-79.66815837
26086000,0.9356213332,-81.60708776
26308000,0.9356724272,-83.54644671
26530000,0.934035084,-85.55776285
26752000,0.9323580031,-87.56511258
26974000,0.9312138841,-89.6025806
27196000,0.9291407563,-91.66526252
27418000,0.927879239,-93.7320349
27640000,0.9265008456,-95.7077998
27862000,0.9249127605,-97.75746179
28084000,0.9230615227,-99.84345242
28306000,0.9205577019,-101.8491998
28528000,0.9180729704,-103.8885973
28750000,0.9165641909,-105.9467051
28972000,0.91526199,-108.0732016
29194000,0.9132659239,-110.063654
29416000,0.9124920445,-112.1445049
29638000,0.9108906798,-114.1994713
29860000,0.9097836493,-116.2770833
30082000,0.9090434743,-118.3834984
30304000,0.9091538236,-120.4963845
30526000,0.9093511484,-122.6140593
30748000,0.9098388585,-124.7984062
30970000,0.9112470782,-126.9737101
31192000,0.9126241978,-129.1827162
31414000,0.9140677079,-131.4661475
31636000,0.9158572311,-133.76342
31858000,0.9176451503,-136.0906809
32080000,0.9195404091,-138.4419903
32302000,0.9205489715,-140.8194432
32524000,0.9221647468,-143.2610894
32746000,0.9234828851,-145.6797004
32968000,0.9243170246,-148.1712735
33190000,0.9250568254,-150.6800125
33412000,0.9258476048,-153.1969597
33634000,0.9267492423,-155.7226915
33856000,0.9272991384,-158.3417207
34078000,0.9279990675,-161.0179408
34300000,0.9279780948,-163.5367379
34522000,0.9280559149,-166.1064887
34744000,0.9280787511,-168.7068604
34966000,0.9279619383,-171.3198261
35188000,0.9279048971,-173.9246728
35410000,0.9274374844,-176.5270368
35632000,0.9269888337,-179.134944
35854000,0.9265343992,178.2722588
36076000,0.9257391534,175.6773955
36298000,0.9254184463,173.0760504
36520000,0.9247216171,170.5038926
36742000,0.9240808289,167.8815553
36964000,0.9235262749,165.2661462
37186000,0.923080252,162.6166599
37408000,0.922640357,159.8866912
37630000,0.921647796,157.3110834
37852000,0.9198354696,154.8888798
38074000,0.9182212226,152.4929736
38296000,0.9169848808,150.0007943
38518000,0.9155350486,147.4881227
38740000,0.9143818157,144.965842
38962000,0.9126122094,142.4348973
39184000,0.9110847973,139.9106487
39406000,0.9095530459,137.3733128
39628000,0.9074040634,134.8905891
39850000,0.9052887573,132.3877244
40072000,0.9027820114,129.9333549
40294000,0.9000615653,127.4341303
40516000,0.8972140093,124.8693408
40738000,0.8940635051,122.3828099
40960000,0.8901749043,120.1737937
41182000,0.8860372024,117.9316142
41404000,0.881283443,115.6507811
41626000,0.8766035654,113.402216
41848000,0.8714425599,111.176478
42070000,0.8654948353,108.9492564
42292000,0.858759461,106.9442322
42514000,0.8519235378,104.8418168
42736000,0.8445630033,102.7305198
42958000,0.8369593453,100.6425872
43180000,0.828936843,98.6030031
43402000,0.8209401366,96.68017117
43624000,0.812623501,95.13297443
43846000,0.8046130259,93.59918938
44068000,0.7968187121,92.23532386
44290000,0.7907225565,90.85308296
44512000,0.7855476285,89.50667705
44734000,0.7813784671,88.17101761
44956000,0.7784001126,86.90595449
45178000,0.7764861231,85.65871593
45400000,0.7754958726,84.36372151
45622000,0.7754983401,83.10354881
45844000,0.7765651512,81.88113955
46066000,0.7774811973,80.7293371
46288000,0.7792907015,79.41991462
46510000,0.7810650543,78.08657599
46732000,0.7834713786,76.60903115
46954000,0.7859838251,75.18627046
47176000,0.7879250493,73.86315526
47398000,0.7898099222,72.5092029
47620000,0.7918832994,71.10202583
47842000,0.7938889495,69.6533633
48064000,0.796162353,68.09558363
48286000,0.7983939932,66.50295965
48508000,0.7991793394,65.24507927
48730000,0.8010812762,63.72212414
48952000,0.8028046637,62.17057758
49174000,0.8034859397,60.804063
49396000,0.8047070114,59.36113083
49618000,0.8058390898,57.88328034
49840000,0.8079413369,56.40168653
50062000,0.8077105499,54.96211216
50284000,0.8086887219,53.54917442
50506000,0.8092132797,52.09639213
50728000,0.8103436705,50.62381836
50950000,0.8109999112,49.21575744
51172000,0.8115455496,47.77925193
51394000,0.8126503909,46.30431077
51616000,0.8130311988,45.02099268
51838000,0.8135505301,43.6586465
52060000,0.8142376226,42.34253861
52282000,0.8155550767,40.95903881
52504000,0.816922574,39.53541485
52726000,0.8182207397,38.03991402
52948000,0.8200004588,36.54339268
53170000,0.8210876746,35.31535897
53392000,0.8228340553,33.89324248
53614000,0.8250100676,32.35551344
53836000,0.8274945098,30.89668548
54058000,0.829541733,29.50296343
54280000,0.8325250285,27.91977784
54502000,0.8349677245,26.5495918
54724000,0.8382550863,24.91639689
54946000,0.8414560679,23.28626779
55168000,0.8451295601,21.70493677
55390000,0.8484922555,20.07434402
55612000,0.8524940286,18.23991963
55834000,0.856188461,16.68244751
56056000,0.8609464896,14.67574371
56278000,0.8651518644,12.79349534
56500000,0.8705085109,10.69553361
56722000,0.8754869331,8.780641104
56944000,0.880485713,6.609575767
57166000,0.885872483,4.223830876
57388000,0.8910907313,1.680496381
57610000,0.8977124486,-1.030550794
57832000,0.9032839628,-3.77874892
58054000,0.908595911,-6.845454852
58276000,0.9150068015,-10.21050333
58498000,0.9203906337,-13.72635685
58720000,0.9252252385,-17.56758292
58942000,0.9295499903,-21.83973435
59164000,0.9335971554,-26.54510103
59386000,0.9361967498,-31.78202533
59608000,0.9377507364,-37.65624147
59830000,0.9349924893,-44.20369836
60052000,0.9300611996,-51.61919103
60274000,0.9192919841,-60.04805408
60496000,0.9015108576,-69.68670193
60718000,0.8761837356,-80.66220757
60940000,0.8410696284,-93.15644864
61162000,0.7964232935,-107.2462688
61384000,0.7433100377,-122.9470765
61606000,0.6868415615,-140.1615705
61828000,0.6327733106,-158.6186249
62050000,0.5943456596,-179.5688028
62272000,0.5582865301,162.9448813
62494000,0.5432222734,144.61118
62716000,0.5413437114,127.7766269
62938000,0.5490081806,112.8915748
63160000,0.5626383826,99.92734013
63382000,0.5786512031,88.70605096
63604000,0.5954954612,79.06519969
63826000,0.6124290467,70.62674581
64048000,0.6282357943,63.10270535
64270000,0.6425369086,56.28645467
64492000,0.655599481,50.23637559
64714000,0.6674305809,44.60816448
64936000,0.677776624,39.3435442
65158000,0.6868783595,34.38656371
65380000,0.6947015898,29.65125256
65602000,0.7014299777,25.06930065
65824000,0.7073009445,20.61634894
66046000,0.7121355517,16.29565065
66268000,0.7155560792,11.95796372
66490000,0.7187780383,7.580795741
66712000,0.721781502,3.113897322
66934000,0.7234698606,-1.389117274
67156000,0.7240142825,-6.134543807
67378000,0.72399635,-11.12249197
67600000,0.7219568514,-16.49553811
67822000,0.7186037668,-22.36553592
68044000,0.712288839,-28.80748383
68266000,0.7014042685,-35.75487156
68488000,0.687644224,-43.3043203
68710000,0.6724429361,-51.54336584
68932000,0.6572327218,-60.73980059
69154000,0.6424135793,-71.2716377
69376000,0.6289518673,-83.47182142
69598000,0.6182879757,-97.61062221
69820000,0.6131599384,-113.8454105
70042000,0.6170709235,-132.0929943
70264000,0.6330718423,-151.8459437
70486000,0.6619676946,-172.1746461
70708000,0.7012154352,167.859026
70930000,0.7453584133,149.138936
71152000,0.7887251303,132.1388669
71374000,0.8271741723,117.0850219
71596000,0.858987382,103.895285
71818000,0.8842638034,92.37663564
72040000,0.9035459289,82.32600973
72262000,0.9181770082,73.49730184
72484000,0.9289645041,65.70382565
72706000,0.9364387734,58.75662628
72928000,0.9426181736,52.51241884
73150000,0.9468724254,46.80210256
73372000,0.9503462313,41.54750189
73594000,0.9528651225,36.66011792
73816000,0.9546142825,32.02690897
74038000,0.9561756456,27.59379409
74260000,0.9573060692,23.26861114
74482000,0.9578646153,18.98732485
74704000,0.9572716824,14.63077925
74926000,0.9552836963,10.07436415
75148000,0.9509625427,5.105720566
75370000,0.9411575092,-0.5565379971
75592000,0.9194567943,-7.518169249
75814000,0.8682643414,-16.81985952
76036000,0.7382401422,-29.96363736
76258000,0.4357581438,-42.64728543
76480000,0.2460392102,16.47785496
76702000,0.5268623284,30.81876333
76924000,0.693730117,22.83355795
77146000,0.7785517984,15.64571585
77368000,0.8254111141,9.894712887
77590000,0.8538228027,5.11052964
77812000,0.8722899848,0.9854934285
78034000,0.8849837567,-2.772670868
78256000,0.8943066908,-6.223162907
78478000,0.9012433897,-9.500352591
78700000,0.9065244916,-12.62430051
78922000,0.9103896895,-15.66500578
79144000,0.9136116174,-18.64819547
79366000,0.9161542013,-21.57367011
79588000,0.9179576476,-24.50435078
79810000,0.9197234989,-27.44322348
80032000,0.9207410919,-30.40427658
80254000,0.9219539536,-33.40487347
80476000,0.9225387973,-36.43880097
80698000,0.923202445,-39.49407178
80920000,0.9234326076,-42.63495308
81142000,0.9235320004,-45.87356854
81364000,0.9234536257,-49.19026654
81586000,0.9232217474,-52.61485965
81808000,0.9225468166,-56.15199861
82030000,0.9218196895,-59.8217033
82252000,0.9211477946,-63.65353148
82474000,0.9199960309,-67.64042309
82696000,0.9188766459,-71.83827699
82918000,0.9180506684,-76.22798393
83140000,0.9169755444,-80.90958219
83362000,0.9156312656,-85.84850141
83584000,0.9139827415,-91.13878851
83806000,0.9117473763,-96.79829931
84028000,0.9096838897,-102.8942252
84250000,0.9066725565,-109.493626
84472000,0.9035270921,-116.6349564
84694000,0.8995349753,-124.4700605
84916000,0.8949350314,-133.0965574
85138000,0.8896796628,-142.6429573
85360000,0.883205123,-153.2812862
85582000,0.8757230206,-165.2215874
85804000,0.8670892016,-178.6957996
86026000,0.8571952948,166.0554976
86248000,0.8468876535,148.8360544
86470000,0.8366213406,129.460244
86692000,0.8279948364,108.0134192
86914000,0.8228913658,84.87032151
87136000,0.8229434456,60.69440522
87358000,0.8303477879,36.4569917
87580000,0.8570264306,12.74534199
87802000,0.8558623944,-14.65257435
88024000,0.8227293227,-33.78721339
88246000,0.8253267578,-52.32502691
88468000,0.8279649886,-69.79061578
88690000,0.8286715619,-86.07152431
88912000,0.8274979302,-101.2306188
89134000,0.8253410129,-115.4176471
89356000,0.8222866252,-128.7180813
89578000,0.8188402632,-141.2434919
89800000,0.8153157698,-153.0178591
90022000,0.8114889313,-164.1454009
90244000,0.8081972498,-174.6585731
90466000,0.8049609801,175.411348
90688000,0.8019626129,166.071434
90910000,0.7989873457,157.2017411
91132000,0.7959629933,148.8178531
91354000,0.7930492961,140.8536332
91576000,0.7900172792,133.3100685
91798000,0.7865596541,126.1643045
92020000,0.7823939355,119.3146876
92242000,0.7776323988,112.7782533
92464000,0.7714668077,106.4637537
92686000,0.7641459838,100.3613109
92908000,0.7551029309,94.41356264
93130000,0.7440927785,88.63663882
93352000,0.7302539359,82.86599885
93574000,0.7131999371,77.0720495
93796000,0.691147144,71.1463026
94018000,0.6619417664,64.95057794
94240000,0.6221693781,58.23748598
94462000,0.5661404924,50.84216563
94684000,0.4847197643,42.56895694
94906000,0.3643533421,33.7878113
95128000,0.1917712984,29.99739537
95350000,0.1006264616,122.0055381
95572000,0.3499245558,137.7803843
95794000,0.5790382253,124.1592062
96016000,0.7302893086,110.2018172
96238000,0.815505063,98.71280288
96460000,0.8596126465,89.61580695
96682000,0.8816921834,82.34134252
96904000,0.8921049415,76.42736182
97126000,0.8967708693,71.46457925
97348000,0.898388509,67.24650961
97570000,0.8987585753,63.53245614
97792000,0.8989463556,60.23192552
98014000,0.8995030767,57.27015808
98236000,0.9008133158,54.51186769
98458000,0.9031781413,51.9146179
98680000,0.9064971732,49.37561548
98902000,0.910333312,46.88984233
99124000,0.9147366793,44.38372537
99346000,0.918880624,41.84841584
99568000,0.9226409921,39.266911
99790000,0.9261505874,36.58844486
100012000,0.9282013709,33.8131135
100234000,0.9294430546,30.89608509
100456000,0.9286695792,27.75058975
100678000,0.9253073508,24.30981023
100900000,0.9185080859,20.38707312
101122000,0.9043059004,15.7680106
101344000,0.876269819,10.13605663
101566000,0.8200060099,2.862135306
101788000,0.7043905694,-6.26112243
102010000,0.4884203354,-13.2560391
102232000,0.2757455173,12.62817685
102454000,0.4098090358,48.88333514
102676000,0.591307164,48.88027773
102898000,0.702532806,43.75880273
103120000,0.7676827065,38.85652469
103342000,0.8076850368,34.70254658
103564000,0.8334666338,31.19800153
103786000,0.8506027825,28.15262002
104008000,0.8625552433,25.45581718
104230000,0.8707224256,23.00461723
104452000,0.8765457921,20.72541162
104674000,0.880312723,18.56226868
104896000,0.8824505373,16.46451029
105118000,0.8821082204,14.32745018
105340000,0.8767820847,12.1297044
105562000,0.8571352235,9.834291033
105784000,0.8176984118,10.05868355
106006000,0.8439761815,11.66528586
106228000,0.869337024,10.09528552
106450000,0.8788006294,8.222941337
106672000,0.8822585654,6.500354602
106894000,0.8832791226,4.885015692
107116000,0.8833614346,3.351580415
107338000,0.8824857547,1.82250292
107560000,0.8811043782,0.3508817001
107782000,0.8793094954,-1.08369938
108004000,0.8767382878,-2.56035704
108226000,0.8737998237,-4.018842372
108448000,0.8700355023,-5.507671174
108670000,0.8659601571,-7.021930364
108892000,0.8611690258,-8.557124942
109114000,0.8552035368,-10.16662117
109336000,0.848137595,-11.83671831
109558000,0.8399770508,-13.54790735
109780000,0.8304747258,-15.37578466
110002000,0.8187252197,-17.24767079
110224000,0.8046806934,-19.2818016
110446000,0.7876014884,-21.43034235
110668000,0.7663923812,-23.72975258
110890000,0.7398716772,-26.23739093
111112000,0.7067064213,-28.9216443
111334000,0.6643097735,-31.72505363
111556000,0.6102601922,-34.51724963
111778000,0.541748174,-36.84876587
112000000,0.4584272077,-37.68814849
112222000,0.3656006963,-34.93885676
112444000,0.2503999653,-20.37036745
112666000,0.2898190713,11.68444785
112888000,0.3984664441,23.95036149
113110000,0.5226279949,25.64688898
113332000,0.6316337147,22.99825548
113554000,0.7181374332,18.98442266
113776000,0.7830196974,14.74294805
113998000,0.8304522449,10.70120494
114220000,0.8645523381,6.999018025
114442000,0.8892846093,3.651598341
114664000,0.9071166627,0.6450740732
114886000,0.9200125249,-2.062890267
115108000,0.9297840486,-4.546525931
115330000,0.936856736,-6.819485739
115552000,0.9420704387,-8.953597099
115774000,0.9462334349,-10.89703371
115996000,0.9493833701,-12.7632255
116218000,0.9520486996,-14.53781582
116440000,0.9548242953,-16.24585846
116662000,0.9569065453,-17.94650022
116884000,0.9582444583,-19.58266578
117106000,0.958599759,-21.22727475
117328000,0.9584487985,-22.83520272
117550000,0.9580492199,-24.37812407
117772000,0.9573458851,-25.89831726
117994000,0.9564709856,-27.39848189
118216000,0.9553699578,-28.93473281
118438000,0.9541634133,-30.47745631
118660000,0.952863049,-32.00927308
118882000,0.9510441245,-33.60782019
119104000,0.948793096,-35.25687743
119326000,0.946349238,-36.96114917
119548000,0.9429582313,-38.77098868
119770000,0.9387621139,-40.65476838
119992000,0.9327322466,-42.73366932
120214000,0.9251250522,-45.00485776
120436000,0.9137098242,-47.51865833
120658000,0.8970902049,-50.39246774
120880000,0.8712383325,-53.689266
121102000,0.8307030067,-57.43126266
121324000,0.7664392895,-61.30208563
121546000,0.671439211,-64.02180304
121768000,0.5607777759,-62.07666745
121990000,0.4882169289,-52.92526061
122212000,0.4787036712,-40.32398214
122434000,0.5541287898,-29.60016428
122656000,0.6611347815,-28.60767188
122878000,0.7333335778,-31.2555721
123100000,0.7771050577,-34.14169471
123322000,0.8056958503,-37.14259699
123544000,0.8241093004,-39.70155317
123766000,0.8364472816,-42.05533389
123988000,0.8446253867,-44.25718995
124210000,0.8493480581,-46.31388899
124432000,0.8520090592,-48.2659333
124654000,0.8527175208,-50.17531481
124876000,0.8519913751,-51.99599546
125098000,0.8500492386,-53.70854494
125320000,0.8459811287,-55.39913613
125542000,0.8415630912,-56.92536294
125764000,0.8364551838,-58.28831639
125986000,0.8318329521,-59.32442939
126208000,0.8323475216,-59.86757192
126430000,0.8499231641,-60.01648956
126652000,0.8953389524,-61.37324615
126874000,0.9323948156,-65.47541693
127096000,0.9384014705,-69.89834581
127318000,0.9364045953,-73.8578245
127540000,0.9339788253,-77.87655255
127762000,0.9281818967,-82.24114216
127984000,0.9167209829,-86.99704732
128206000,0.8992308706,-92.04562617
128428000,0.8759169703,-97.44418712
128650000,0.8472291715,-103.2810749
128872000,0.8112210497,-109.7157461
129094000,0.7664401344,-116.9090165
129316000,0.709483969,-124.9855759
129538000,0.6347189689,-133.959226
