Frequency,S11_Magnitude,S11_Phase
1000000,0.9932778944,161.0373842
1222000,0.9973436145,157.160747
1444000,0.9986287968,153.1931511
1666000,1.000318164,149.2176313
1888000,1.001782191,145.2638725
2110000,1.003094061,141.2973367
2332000,1.003934337,137.3396644
2554000,1.004914715,133.4439246
2776000,1.005585341,129.6038234
2998000,1.005724861,125.8145269
3220000,1.005829106,122.0630091
3442000,1.006258401,118.3412106
3664000,1.005728555,114.7229736
3886000,1.004800408,111.1189801
4108000,1.003589526,107.5674939
4330000,1.002830413,104.080529
4552000,1.001590178,100.6879765
4774000,1.000857716,97.32072682
4996000,0.9995432121,94.03182113
5218000,0.9981401712,90.72182198
5440000,0.9956661074,87.48093306
5662000,0.9926575949,84.30219736
5884000,0.9878346463,81.12800101
6106000,0.9801472611,78.00933573
6328000,0.9681922207,75.0121937
6550000,0.9500134722,72.4182284
6772000,0.9340404346,70.67865863
6994000,0.9329034549,69.42921418
7216000,0.9440722126,67.71326429
7438000,0.9556882661,65.46822182
7660000,0.9644100272,62.96690507
7882000,0.970109089,60.43820328
8104000,0.974140828,57.88464351
8326000,0.9768548121,55.38914566
8548000,0.9784553493,52.91678386
8770000,0.9793932603,50.50471962
8992000,0.9797271877,48.11420064
9214000,0.9794297397,45.7381245
9436000,0.9787628235,43.4038723
9658000,0.9776190712,41.08834007
9880000,0.9758943655,38.77757208
10102000,0.973389714,36.47121523
10324000,0.9700773321,34.21162415
10546000,0.9658960987,31.95866406
10768000,0.9608302048,29.71510228
10990000,0.9545625535,27.48589114
11212000,0.9468123501,25.27063869
11434000,0.9373283949,23.10205885
11656000,0.9263380402,21.03075832
11878000,0.9130116302,19.04469033
12100000,0.8980425597,17.30539097
12322000,0.8826996136,15.77630546
12544000,0.8675530936,14.58483234
12766000,0.855285632,13.70694215
12988000,0.8471511783,13.07886421
13210000,0.8442192657,12.55540507
13432000,0.8461145507,12.01857845
13654000,0.851866522,11.35286149
13876000,0.8600682264,10.4750134
14098000,0.8691277606,9.407039805
14320000,0.878178759,8.142452911
14542000,0.8867708139,6.779261044
14764000,0.8942821112,5.306002741
14986000,0.9011658257,3.769223073
15208000,0.9071573992,2.175368728
15430000,0.9125685902,0.5780033689
15652000,0.916864636,-1.019046159
15874000,0.9207149522,-2.648690675
16096000,0.9244023111,-4.242597441
16318000,0.9272697804,-5.844884788
16540000,0.9299977685,-7.483178537
16762000,0.9327193636,-9.072694786
16984000,0.935016486,-10.66984207
17206000,0.9370713806,-12.28057906
17428000,0.9393367719,-13.90200516
17650000,0.941001484,-15.54624118
17872000,0.9426078883,-17.13103203
18094000,0.9442432953,-18.73183385
18316000,0.945350877,-20.35092171
18538000,0.9464768497,-21.95638491
18760000,0.9473183708,-23.5737837
18982000,0.9481820954,-25.17535501
19204000,0.9489327189,-26.77893756
19426000,0.9494748068,-28.39920604
19648000,0.9500737307,-30.03417201
19870000,0.950451672,-31.66323097
20092000,0.9509089135,-33.24133026
20314000,0.9513195192,-34.87732211
20536000,0.9516135303,-36.50775543
20758000,0.9515576096,-38.16682861
20980000,0.9519139172,-39.8205295
21202000,0.951825393,-41.50035302
21424000,0.9519300664,-43.16790064
21646000,0.9516617395,-44.86060804
21868000,0.9516766797,-46.5549581
22090000,0.9514726862,-48.25998335
22312000,0.9509717482,-49.98058268
22534000,0.9507023653,-51.70846431
22756000,0.9501393103,-53.47741745
22978000,0.9496916247,-55.24211043
23200000,0.949306639,-57.05299696
23422000,0.9485194381,-58.82402714
23644000,0.9479252689,-60.65137424
23866000,0.9467746756,-62.488757
24088000,0.945894721,-64.33018315
24310000,0.9451586981,-66.18658592
24532000,0.9440670013,-68.05477669
24754000,0.9434342708,-69.93931636
24976000,0.9421490357,-71.83859417
25198000,0.9415166331,-73.84638173
25420000,0.9420531519,-75.97737803
25642000,0.9387937297,-77.78322452
25864000,0.9370995384,-79.65637847
26086000,0.935631822,-81.62724893
26308000,0.9355393243,-83.54578011
26530000,0.9338104584,-85.5380328
26752000,0.9322673396,-87.56234776
26974000,0.931064892,-89.59564855
27196000,0.9289205447,-91.67244716
27418000,0.9277014988,-93.73775745
27640000,0.9263645523,-95.70504224
27862000,0.9246142816,-97.77714467
28084000,0.9228547976,-99.86811473
28306000,0.9204661577,-101.8693284
28528000,0.9178877943,-103.9050475
28750000,0.9163174251,-105.9691323
28972000,0.9149140471,-108.0754618
29194000,0.9129979266,-110.0821177
29416000,0.9122561867,-112.1672604
29638000,0.9107198124,-114.2048743
29860000,0.9096042552,-116.2767278
30082000,0.9089050629,-118.3746548
30304000,0.9088508782,-120.4949645
30526000,0.9090900151,-122.6239273
30748000,0.9096820793,-124.7778608
30970000,0.9110141517,-126.9640179
31192000,0.9124070935,-129.1689034
31414000,0.9138719404,-131.4346869
31636000,0.9157668721,-133.7395071
31858000,0.9175832183,-136.0740839
32080000,0.9193040934,-138.431413
32302000,0.9204517117,-140.8122747
32524000,0.9221286504,-143.256636
32746000,0.9234230639,-145.6898815
32968000,0.9240743316,-148.1702089
33190000,0.9248078048,-150.6745578
33412000,0.9257013803,-153.1825143
33634000,0.9266125022,-155.7312006
33856000,0.927063943,-158.3546062
34078000,0.9277551196,-161.0386799
34300000,0.9279898511,-163.5344698
34522000,0.9280135524,-166.1050404
34744000,0.9280841777,-168.7182498
34966000,0.9281186918,-171.3140438
35188000,0.9279490882,-173.9082178
35410000,0.9275287079,-176.5176555
35632000,0.9270374619,-179.1330428
35854000,0.9264598275,178.2805117
36076000,0.9258308595,175.6760709
36298000,0.9254169802,173.0674447
36520000,0.9246420317,170.4911872
36742000,0.9239919816,167.8842757
36964000,0.9233932575,165.2583097
37186000,0.9230423743,162.6064261
37408000,0.9226880637,159.8908214
37630000,0.9218517747,157.2884371
37852000,0.919766859,154.889168
38074000,0.9180127898,152.4813471
38296000,0.9169207144,150.0183842
38518000,0.9153085522,147.486769
38740000,0.9143070249,144.9637675
38962000,0.9123675316,142.4431298
39184000,0.9109070104,139.9012755
39406000,0.9093500053,137.3569255
39628000,0.9071772109,134.8710291
39850000,0.9054393938,132.3885994
40072000,0.9026579942,129.9374163
40294000,0.8997637528,127.4578871
40516000,0.8969915651,124.8747528
40738000,0.893768266,122.359668
40960000,0.8901609022,120.1807819
41182000,0.8858781347,117.9392543
41404000,0.8812938988,115.6618944
41626000,0.8765700632,113.4140171
41848000,0.8711162338,111.1652424
42070000,0.8653170339,108.9529944
42292000,0.8586203058,106.9256925
42514000,0.8517073571,104.8323036
42736000,0.8444028581,102.7439103
42958000,0.8368767209,100.6380166
43180000,0.8288819335,98.6105008
43402000,0.8209019464,96.6736823
43624000,0.8125368062,95.13191589
43846000,0.8046195593,93.60421223
44068000,0.7969110311,92.24141519
44290000,0.7907919726,90.84854833
44512000,0.7856459568,89.50978807
44734000,0.7815295083,88.18619121
44956000,0.7784833849,86.917185
45178000,0.7764963647,85.6624833
45400000,0.7756816153,84.35970436
45622000,0.7756692073,83.1163759
45844000,0.7765087758,81.89059892
46066000,0.7775424976,80.73914364
46288000,0.7792429714,79.41510035
46510000,0.7810580588,78.07794762
46732000,0.7834928504,76.60053743
46954000,0.7860346951,75.17569487
47176000,0.7879359481,73.85096372
47398000,0.7898614254,72.5024507
47620000,0.7919141135,71.09997054
47842000,0.7938159307,69.65567628
48064000,0.7960649681,68.09544984
48286000,0.7984346889,66.5083109
48508000,0.7991926288,65.25854411
48730000,0.801020584,63.73722044
48952000,0.8027942449,62.18229532
49174000,0.8034568176,60.80455771
49396000,0.8045784179,59.35218788
49618000,0.8057588418,57.89761708
49840000,0.806701202,56.40566382
50062000,0.8076182671,54.97119302
50284000,0.8086154499,53.52604009
50506000,0.8091262511,52.08743371
50728000,0.8104065527,50.59147133
50950000,0.8110374499,49.16628331
51172000,0.8116419996,47.68978132
51394000,0.8126846345,46.25425263
51616000,0.8129739882,44.95744605
51838000,0.8134321513,43.6007012
52060000,0.8139887078,42.31584357
52282000,0.8152672414,40.95319916
52504000,0.8166557096,39.52546771
52726000,0.818002445,38.05063754
52948000,0.8197076262,36.54109461
53170000,0.8209334898,35.282368
53392000,0.8226637311,33.86718844
53614000,0.824785696,32.33364591
53836000,0.8273485011,30.88431535
54058000,0.8294962436,29.48133493
54280000,0.8323253501,27.91053689
54502000,0.8347947294,26.54156371
54724000,0.8380942918,24.9179945
54946000,0.841350597,23.27052278
55168000,0.8449528923,21.68615767
55390000,0.848431912,20.0638015
55612000,0.8523587748,18.22815948
55834000,0.8560956383,16.65925618
56056000,0.8607417218,14.63375309
56278000,0.8651353636,12.750631
56500000,0.8702869813,10.67380974
56722000,0.8752539544,8.740645057
56944000,0.8803388611,6.586183375
57166000,0.8857741347,4.196390853
57388000,0.8911260758,1.651414255
57610000,0.8975464968,-1.066342919
57832000,0.9031078978,-3.803715484
58054000,0.9086466087,-6.878871279
58276000,0.915004988,-10.25818843
58498000,0.9203195459,-13.77556122
58720000,0.925284006,-17.62371819
58942000,0.9296383996,-21.88598439
59164000,0.9335727268,-26.62080939
59386000,0.9360056022,-31.8504638
59608000,0.9376917884,-37.74385593
59830000,0.9348436348,-44.30175765
60052000,0.9297563995,-51.73792774
60274000,0.9188628828,-60.18868788
60496000,0.9009449717,-69.84846691
60718000,0.8752579002,-80.84698582
60940000,0.8399513071,-93.38824227
61162000,0.794926425,-107.522241
61384000,0.7417322089,-123.2395827
61606000,0.6851663857,-140.4769756
61828000,0.630959367,-158.9719242
62050000,0.6012362841,-179.4535928
62272000,0.5568991272,162.5476374
62494000,0.542131325,144.237884
62716000,0.5406621739,127.4367247
62938000,0.5485640803,112.5743185
63160000,0.5622053751,99.6448102
63382000,0.578467483,88.45409857
63604000,0.595326309,78.83001161
63826000,0.6123170844,70.42804258
64048000,0.6280507944,62.91664303
64270000,0.6423745443,56.13170437
64492000,0.6555164157,50.08390128
64714000,0.6673405724,44.4592401
64936000,0.6777185187,39.21049275
65158000,0.6868095544,34.26036571
65380000,0.6944845361,29.53253739
65602000,0.7013122801,24.95406813
65824000,0.7073761278,20.51520942
66046000,0.7120273515,16.19155622
66268000,0.7154642559,11.86089025
66490000,0.718677311,7.486912641
66712000,0.7216222438,3.024410355
66934000,0.7234675484,-1.443725909
67156000,0.7239351442,-6.212105103
67378000,0.7239805738,-11.20139591
67600000,0.7218736205,-16.58299493
67822000,0.7184689443,-22.43533469
68044000,0.7120708805,-28.87443658
68266000,0.701280075,-35.84693495
68488000,0.6876245493,-43.36800764
68710000,0.6723494325,-51.60599238
68932000,0.6570035219,-60.83486223
69154000,0.6422693027,-71.36143079
69376000,0.628953517,-83.57219323
69598000,0.6184122781,-97.70706715
69820000,0.6134393222,-113.9348695
70042000,0.6173341948,-132.1980146
70264000,0.6335748433,-151.9306078
70486000,0.6624144041,-172.2554509
70708000,0.7015794186,167.7756511
70930000,0.7456736982,149.0713497
71152000,0.7890435804,132.1013555
71374000,0.8273631375,117.0185175
71596000,0.8590805199,103.8489997
71818000,0.8841521949,92.33534806
72040000,0.9034586505,82.27298539
72262000,0.9180383217,73.46684206
72484000,0.9287485568,65.67473208
72706000,0.9363174525,58.7227394
72928000,0.9423044174,52.47991344
73150000,0.9467738168,46.78518687
73372000,0.9500181832,41.51663704
73594000,0.9526170692,36.63024564
73816000,0.9544342005,31.99166418
74038000,0.9559631908,27.57651092
74260000,0.9570334345,23.251757
74482000,0.9574657471,18.97071577
74704000,0.9570622484,14.59907988
74926000,0.9549920992,10.02969317
75148000,0.950620704,5.094573752
75370000,0.9408732071,-0.5808135632
75592000,0.9193483412,-7.533024935
75814000,0.868365099,-16.82217001
76036000,0.7390164052,-29.97454813
76258000,0.4367352472,-42.79238405
76480000,0.2443869885,16.36066178
76702000,0.5260125293,30.90368373
76924000,0.6934399056,22.88624386
77146000,0.7782665919,15.67735588
77368000,0.8251393403,9.904598496
77590000,0.8537355312,5.138927183
77812000,0.8721687305,0.9772992628
78034000,0.8849401191,-2.765058891
78256000,0.8940961255,-6.219194271
78478000,0.9009664511,-9.486132667
78700000,0.906277335,-12.62644835
78922000,0.9102570693,-15.65919295
79144000,0.9133510609,-18.64505477
79366000,0.9158592742,-21.59510182
79588000,0.9177817717,-24.52584246
79810000,0.9194455113,-27.47307355
80032000,0.9205924903,-30.42567678
80254000,0.9217531148,-33.42653528
80476000,0.9223708073,-36.43831249
80698000,0.9229719463,-39.50571244
80920000,0.9232757542,-42.64379876
81142000,0.9235021426,-45.88314311
81364000,0.9233973812,-49.20155238
81586000,0.9229152928,-52.62932515
81808000,0.9223971387,-56.18394159
82030000,0.9215330642,-59.82799452
82252000,0.9211213352,-63.66429818
82474000,0.919819581,-67.64852477
82696000,0.9187154242,-71.83055369
82918000,0.9180999843,-76.24261371
83140000,0.9169468109,-80.94000868
83362000,0.9153735828,-85.85474419
83584000,0.9138130681,-91.15856736
83806000,0.9116692584,-96.80247446
84028000,0.9094461789,-102.8923434
84250000,0.9065111912,-109.4695373
84472000,0.9033913199,-116.6406918
84694000,0.8995197997,-124.4723862
84916000,0.8948877544,-133.0892885
85138000,0.8894821938,-142.6361533
85360000,0.8829503022,-153.2783403
85582000,0.8754664567,-165.2270702
85804000,0.8667625832,-178.7265326
86026000,0.8570116389,166.0166182
86248000,0.8466927003,148.7540702
86470000,0.8363541164,129.3361743
86692000,0.8277582071,107.8540513
86914000,0.822559496,84.639409
87136000,0.8224978486,60.3860656
87358000,0.8297099515,36.07919448
87580000,0.8558789495,12.35826628
87802000,0.8572192098,-15.0336606
88024000,0.8232504875,-34.31125276
88246000,0.8255348245,-52.84688565
88468000,0.8280786274,-70.31109307
88690000,0.8287620196,-86.59647286
88912000,0.8274590491,-101.7500683
89134000,0.8254765445,-115.9226767
89356000,0.8223015576,-129.2080006
89578000,0.8189332419,-141.7175899
89800000,0.8154005771,-153.483539
90022000,0.8116197955,-164.6058668
90244000,0.8082276424,-175.0621184
90466000,0.8049946182,175.0158305
90688000,0.8019279207,165.6726512
90910000,0.7989777067,156.8205423
91132000,0.7959280822,148.4565404
91354000,0.7929600513,140.5166956
91576000,0.7898233061,132.9993222
91798000,0.7863847929,125.8356805
92020000,0.7821603849,119.0021538
92242000,0.7774053748,112.471364
92464000,0.7710771101,106.1444054
92686000,0.763851107,100.0880803
92908000,0.7547800085,94.13953915
93130000,0.7435651851,88.35325343
93352000,0.7297923216,82.57446322
93574000,0.7125724259,76.79135537
93796000,0.6903164047,70.84313583
94018000,0.660849082,64.6034967
94240000,0.6206258334,57.88699241
94462000,0.5642751384,50.44892302
94684000,0.4820221023,42.07745416
94906000,0.3606861779,33.21059457
95128000,0.1867870017,29.5305263
95350000,0.1024536169,124.5376311
95572000,0.3536735995,137.8793374
95794000,0.5812128048,124.095165
96016000,0.7311219128,110.122008
96238000,0.8154388415,98.67053695
96460000,0.8594338589,89.589013
96682000,0.8816008498,82.33621844
96904000,0.8920813726,76.43047306
97126000,0.8964725832,71.45408519
97348000,0.8982899215,67.21043264
97570000,0.8984924617,63.5149875
97792000,0.8986951214,60.19008251
98014000,0.8992330254,57.23220249
98236000,0.9005766229,54.4670349
98458000,0.9030089463,51.85546963
98680000,0.9063304482,49.34102334
98902000,0.9102105189,46.87265904
99124000,0.9144637379,44.37794121
99346000,0.9188777315,41.82852804
99568000,0.9225163474,39.24631719
99790000,0.9259909882,36.57840876
100012000,0.9280117355,33.79682426
100234000,0.9294009409,30.86622013
100456000,0.9285896029,27.73075307
100678000,0.9252955262,24.28466599
100900000,0.9184847558,20.35622688
101122000,0.9041633154,15.76193493
101344000,0.8763398217,10.11095021
101566000,0.8200722269,2.825692188
101788000,0.7045938151,-6.316711484
102010000,0.4884928356,-13.32867624
102232000,0.2752276144,12.60991451
102454000,0.4100415506,48.88360053
102676000,0.5915617409,48.87921505
102898000,0.7026922912,43.73054053
103120000,0.7679737498,38.84301363
103342000,0.8077933434,34.66957197
103564000,0.8336012591,31.1427409
103786000,0.8507253558,28.11101478
104008000,0.8625549845,25.41951464
104230000,0.8706964756,22.94901846
104452000,0.8765241344,20.6695584
104674000,0.8801187538,18.50612676
104896000,0.8822764276,16.4125695
105118000,0.8817212199,14.26271956
105340000,0.8759388409,12.04122532
105562000,0.8550389408,9.752144482
105784000,0.8159384483,10.20164053
106006000,0.8447035882,11.70567964
106228000,0.8695077375,10.07514659
106450000,0.8786769942,8.193639429
106672000,0.882071313,6.481819331
106894000,0.8830723457,4.850243903
107116000,0.8832241048,3.326419567
107338000,0.8823053463,1.81528006
107560000,0.8808818882,0.336071766
107782000,0.8789894529,-1.120372776
108004000,0.876532415,-2.575493635
108226000,0.8736819898,-4.02424645
108448000,0.8700586964,-5.519201735
108670000,0.8659397002,-7.069968075
108892000,0.8611532168,-8.597153652
109114000,0.8551222607,-10.1993487
109336000,0.8482680502,-11.88056878
109558000,0.8403454899,-13.59911806
109780000,0.8306895464,-15.38079129
110002000,0.818970699,-17.25313944
110224000,0.8050998442,-19.28880473
110446000,0.7880821218,-21.45125431
110668000,0.7670871357,-23.76210022
110890000,0.7408343303,-26.2620339
111112000,0.7077977185,-28.97635274
111334000,0.6658073041,-31.81085455
111556000,0.6120768194,-34.63909876
111778000,0.5442263088,-37.08749185
112000000,0.4613210776,-38.15733182
112222000,0.3683091452,-36.14364027
112444000,0.2363012729,-22.2459741
112666000,0.2836456332,12.63834714
112888000,0.395475765,24.90768288
113110000,0.522831614,26.38596219
113332000,0.6337141567,23.45555058
113554000,0.7204110802,19.24207876
113776000,0.7852143933,14.90378689
113998000,0.8323058316,10.80289712
114220000,0.8664118237,7.085937752
114442000,0.890822902,3.722441983
114664000,0.9085809031,0.6841587187
114886000,0.9216126577,-2.041840439
115108000,0.9310381898,-4.530356079
115330000,0.9380553419,-6.824372296
115552000,0.943276194,-8.957251489
115774000,0.9472994511,-10.92371691
115996000,0.9505513792,-12.81219954
116218000,0.9530718181,-14.56642246
116440000,0.9555679736,-16.29814483
116662000,0.9573460748,-18.00357221
116884000,0.9584098599,-19.65913336
117106000,0.9584930885,-21.27517945
117328000,0.9581963523,-22.86692157
117550000,0.9577362945,-24.41535423
117772000,0.9571679943,-25.91859656
117994000,0.9562490203,-27.41481582
118216000,0.9552558375,-28.9499303
118438000,0.9542655077,-30.47847804
118660000,0.9526475289,-32.00946396
118882000,0.9509875672,-33.57926021
119104000,0.9489878653,-35.25085974
119326000,0.9467630278,-36.93178552
119548000,0.9433901516,-38.72742448
119770000,0.9391273258,-40.62664662
119992000,0.9332077679,-42.71122475
120214000,0.9259490027,-45.01792481
120436000,0.9146134912,-47.53723344
120658000,0.8979737652,-50.44691142
120880000,0.8721703001,-53.80652138
121102000,0.8310836696,-57.62017005
121324000,0.7651936979,-61.61544794
121546000,0.6667240759,-64.36479475
121768000,0.5532915507,-62.00789495
121990000,0.4849957552,-52.28244933
122212000,0.4786576427,-39.73790679
122434000,0.5581766988,-29.17245395
122656000,0.6650848764,-28.50818766
122878000,0.7359863788,-31.25068321
123100000,0.7820658223,-34.48033496
123322000,0.8074566449,-37.13118216
123544000,0.8258406996,-39.70856971
123766000,0.8378809917,-42.0647635
123988000,0.846011083,-44.2704799
124210000,0.8505417464,-46.32833215
124432000,0.8531242757,-48.31878023
124654000,0.8538816613,-50.19745973
124876000,0.85306452,-51.99859418
125098000,0.8509849383,-53.75054091
125320000,0.8470658743,-55.44438949
125542000,0.8427020001,-56.99261683
125764000,0.8372035925,-58.34762511
125986000,0.8329058071,-59.40711082
126208000,0.8329008521,-59.95882407
126430000,0.8496498798,-60.10232709
126652000,0.8949572013,-61.39777096
126874000,0.9328662775,-65.50049253
127096000,0.9386223461,-69.94949725
127318000,0.9368327014,-73.93064404
127540000,0.9340347171,-77.9429054
127762000,0.9279900966,-82.33228198
127984000,0.9163455259,-87.08354115
128206000,0.8984371415,-92.13529153
128428000,0.8750883379,-97.5347531
128650000,0.8461736808,-103.3882673
128872000,0.8102554237,-109.8306026
129094000,0.765080448,-117.017102
129316000,0.7077821738,-125.1296897
129538000,0.6325159833,-134.101505
