Frequency,S11_Magnitude,S11_Phase
1000000,0.992009959,160.8826097
1222000,0.9973580569,157.1676793
1444000,0.9986339133,153.2003714
1666000,1.000303552,149.2329996
1888000,1.00189219,145.2639584
2110000,1.002905339,141.3056591
2332000,1.003982897,137.3474282
2554000,1.004874357,133.4422269
2776000,1.00568232,129.6022771
2998000,1.005937175,125.8122274
3220000,1.005953604,122.0591341
3442000,1.006253623,118.3790883
3664000,1.006147381,114.7470453
3886000,1.005196037,111.1185278
4108000,1.004028115,107.5756591
4330000,1.00302306,104.0938611
4552000,1.002097423,100.7107103
4774000,1.000926765,97.35696278
4996000,1.000087243,94.03819026
5218000,0.9986325578,90.75316478
5440000,0.9960438563,87.51080796
5662000,0.9932014965,84.29841789
5884000,0.9882266062,81.14167794
6106000,0.9807040101,78.03478613
6328000,0.9688308517,75.02210446
6550000,0.9505773852,72.42115814
6772000,0.9342108736,70.66986742
6994000,0.93327913,69.4160996
7216000,0.9443407381,67.6875931
7438000,0.9560796091,65.4564696
7660000,0.9646872421,62.9727252
7882000,0.9704797254,60.42483192
8104000,0.9745187058,57.86307024
8326000,0.977208997,55.36672932
8548000,0.9786779002,52.89564194
8770000,0.9796758119,50.49506871
8992000,0.9799054135,48.10925585
9214000,0.9798291363,45.73534007
9436000,0.9789896081,43.41313248
9658000,0.9778193878,41.07649731
9880000,0.9758431292,38.77779819
10102000,0.9735290389,36.47397722
10324000,0.9701476204,34.2092395
10546000,0.9661578173,31.95088885
10768000,0.9610630896,29.7022546
10990000,0.9547325178,27.49750656
11212000,0.946916074,25.27476085
11434000,0.9375662878,23.11770753
11656000,0.9263047792,21.04177022
11878000,0.9132598951,19.06923202
12100000,0.8972938108,17.29258594
12322000,0.8828614352,15.78484292
12544000,0.8677261793,14.58449367
12766000,0.8554382944,13.71920655
12988000,0.8472692019,13.08738265
13210000,0.8442794723,12.56456959
13432000,0.8463549401,12.03624241
13654000,0.8521935175,11.35654311
13876000,0.8603280553,10.47570733
14098000,0.8693963508,9.426398088
14320000,0.8783714851,8.179357916
14542000,0.8870925004,6.781542015
14764000,0.8948821538,5.306569495
14986000,0.9014487602,3.781207254
15208000,0.907610717,2.188647511
15430000,0.9128566405,0.59422945
15652000,0.9172378267,-1.016260898
15874000,0.9211925694,-2.621211444
16096000,0.9247673199,-4.239458083
16318000,0.9276409925,-5.844757202
16540000,0.9302541404,-7.458428589
16762000,0.9331335967,-9.068990642
16984000,0.9353994799,-10.70000939
17206000,0.937565402,-12.3020223
17428000,0.9396688264,-13.88818861
17650000,0.9415761016,-15.54690359
17872000,0.9430882024,-17.13022032
18094000,0.9445859097,-18.73078682
18316000,0.9458531568,-20.34736919
18538000,0.9468169623,-21.96600541
18760000,0.9477484211,-23.59868297
18982000,0.9486034383,-25.18084766
19204000,0.9492935527,-26.80370548
19426000,0.9498822022,-28.40680674
19648000,0.9502872877,-30.03867046
19870000,0.950833399,-31.68008138
20092000,0.9511009688,-33.27392735
20314000,0.9517872026,-34.90735284
20536000,0.9518940355,-36.55977489
20758000,0.9519315962,-38.20241903
20980000,0.9520375521,-39.84570995
21202000,0.9520277233,-41.51206553
21424000,0.9521820803,-43.1786037
21646000,0.9519997259,-44.8678492
21868000,0.9519560616,-46.56464638
22090000,0.9516788218,-48.27199594
22312000,0.9511122907,-50.00780937
22534000,0.9509602672,-51.72913535
22756000,0.9504537906,-53.48787262
22978000,0.9499413843,-55.26359472
23200000,0.9494889592,-57.06089474
23422000,0.948709587,-58.85536636
23644000,0.9480719851,-60.65552792
23866000,0.9469101494,-62.48639809
24088000,0.9461629449,-64.32662906
24310000,0.9453205604,-66.17857754
24532000,0.9442697626,-68.03868904
24754000,0.9436093406,-69.94285702
24976000,0.9423865395,-71.83272628
25198000,0.9418520884,-73.84586962
25420000,0.9423581454,-75.97636043
25642000,0.9392344411,-77.79323049
25864000,0.9372627981,-79.6669341
26086000,0.9358107079,-81.60859379
26308000,0.9358124008,-83.55628961
26530000,0.9341701087,-85.54641496
26752000,0.9324198499,-87.56028898
26974000,0.9313235777,-89.60935585
27196000,0.9292312689,-91.65446998
27418000,0.9282797152,-93.7277824
27640000,0.926683232,-95.71866011
27862000,0.9250226082,-97.76558077
28084000,0.9232841484,-99.83542487
28306000,0.9208137737,-101.8670066
28528000,0.9181994491,-103.8947528
28750000,0.9168424933,-105.9499532
28972000,0.9153254044,-108.0773932
29194000,0.913341598,-110.0869995
29416000,0.9125510171,-112.1632242
29638000,0.9110432272,-114.2167243
29860000,0.9099651478,-116.2904046
30082000,0.9091859881,-118.3896604
30304000,0.9092865599,-120.5119572
30526000,0.9094174104,-122.6208783
30748000,0.9100684724,-124.7785107
30970000,0.9113752745,-126.9798491
31192000,0.9126541093,-129.1858352
31414000,0.9142254406,-131.470443
31636000,0.915996495,-133.7669459
31858000,0.9178704532,-136.0874558
32080000,0.9197259945,-138.4571724
32302000,0.9207746644,-140.8361195
32524000,0.9222474073,-143.2686006
32746000,0.9236032116,-145.6978089
32968000,0.9244514695,-148.1777132
33190000,0.9251387178,-150.680635
33412000,0.925990002,-153.1871942
33634000,0.9266776708,-155.7374826
33856000,0.9272621756,-158.3563919
34078000,0.9280087585,-161.0328391
34300000,0.9282093514,-163.5429486
34522000,0.9282456408,-166.1120826
34744000,0.9281962319,-168.7324198
34966000,0.9281043322,-171.3206533
35188000,0.9281951308,-173.9138747
35410000,0.9276182133,-176.5405197
35632000,0.9270890189,-179.1406295
35854000,0.9266231689,178.2642405
36076000,0.925916568,175.6830357
36298000,0.9255517841,173.0775497
36520000,0.9248213977,170.4941104
36742000,0.9242545106,167.8956696
36964000,0.9237752932,165.269195
37186000,0.9231572468,162.6068101
37408000,0.9228096122,159.9085112
37630000,0.9220564952,157.3227244
37852000,0.920245517,154.9056371
38074000,0.9182784555,152.5094599
38296000,0.9172208149,150.0209195
38518000,0.9156141482,147.50743
38740000,0.9145842088,144.9772178
38962000,0.9127836448,142.4323103
39184000,0.9113879625,139.8972545
39406000,0.9097670892,137.3562686
39628000,0.9076654397,134.8888229
39850000,0.9054614083,132.3883599
40072000,0.9030291103,129.9258519
40294000,0.9002379806,127.4449499
40516000,0.8974497886,124.9103628
40738000,0.8942818611,122.3749019
40960000,0.890518629,120.1989913
41182000,0.8861746651,117.9420606
41404000,0.8815408381,115.6610619
41626000,0.8769386132,113.3972901
41848000,0.8714786663,111.1847846
42070000,0.8656835298,108.9632773
42292000,0.8590215627,106.9173976
42514000,0.8519566204,104.8285296
42736000,0.8446734371,102.712626
42958000,0.8369774507,100.6262326
43180000,0.8290486485,98.60412104
43402000,0.8210863269,96.66887827
43624000,0.8127284631,95.13887637
43846000,0.8046522661,93.58365966
44068000,0.7968866268,92.21988461
44290000,0.7906035499,90.83798563
44512000,0.7854989809,89.48388192
44734000,0.7813886073,88.1657546
44956000,0.7783760789,86.91495736
45178000,0.7763809709,85.66881304
45400000,0.7754974946,84.39770026
45622000,0.7754710332,83.11631141
45844000,0.7764457775,81.86797075
46066000,0.7773656187,80.71896158
46288000,0.7792000626,79.43779411
46510000,0.7809436777,78.09029165
46732000,0.7833996769,76.60243581
46954000,0.7859558001,75.17290619
47176000,0.7878644906,73.86216481
47398000,0.7897782902,72.51796048
47620000,0.7918911742,71.10302023
47842000,0.7937927507,69.65981754
48064000,0.7961147473,68.1189942
48286000,0.7983818746,66.5303787
48508000,0.7991871708,65.28099928
48730000,0.8011223042,63.74348312
48952000,0.8028369076,62.18237915
49174000,0.8035468019,60.80330683
49396000,0.8047366834,59.36056025
49618000,0.8059314994,57.88393038
49840000,0.8066481585,56.40631611
50062000,0.8077020143,54.9609609
50284000,0.8088644804,53.53678709
50506000,0.8092577133,52.09276962
50728000,0.8105419495,50.61216512
50950000,0.8109749054,49.2187187
51172000,0.8114411061,47.80381906
51394000,0.812664237,46.33003698
51616000,0.8129922728,45.01516688
51838000,0.8136820529,43.64807905
52060000,0.8142689915,42.34324221
52282000,0.8156789218,40.95124231
52504000,0.8170332441,39.51333191
52726000,0.8183733367,38.01162786
52948000,0.8200963053,36.53612667
53170000,0.8213306003,35.26856194
53392000,0.8230552667,33.87985593
53614000,0.8251026272,32.36459824
53836000,0.8277043445,30.88208854
54058000,0.8297575706,29.48052208
54280000,0.8326941697,27.92252355
54502000,0.8351409163,26.55595599
54724000,0.8384208813,24.92259842
54946000,0.8416496285,23.27419769
55168000,0.8452581779,21.69683727
55390000,0.8486518306,20.06855725
55612000,0.8526663639,18.24440696
55834000,0.8563731572,16.68848102
56056000,0.8610449505,14.67314136
56278000,0.8653702552,12.8083082
56500000,0.8706238508,10.69330959
56722000,0.8756296784,8.780182737
56944000,0.8803886307,6.597281276
57166000,0.885903369,4.215526792
57388000,0.8911832951,1.680323991
57610000,0.8975643983,-1.041433874
57832000,0.9031715194,-3.782573087
58054000,0.9086797889,-6.845477269
58276000,0.9149792263,-10.23698146
58498000,0.9203584616,-13.72858012
58720000,0.9252477378,-17.57379151
58942000,0.929640646,-21.83687876
59164000,0.9335893863,-26.53981715
59386000,0.9361081647,-31.77335209
59608000,0.9377124279,-37.64591762
59830000,0.9349433058,-44.18762363
60052000,0.9300311105,-51.58737017
60274000,0.9193680963,-60.0083201
60496000,0.9017550342,-69.65457943
60718000,0.8764339559,-80.63373443
60940000,0.8414546395,-93.12431905
61162000,0.7968561171,-107.2197708
61384000,0.7440238629,-122.9275679
61606000,0.6876594015,-140.1546751
61828000,0.633504222,-158.588937
62050000,0.5969307196,-179.43483
62272000,0.5589092433,162.9598409
62494000,0.5438407961,144.6233332
62716000,0.5419058721,127.782563
62938000,0.5496755964,112.9023715
63160000,0.5630894836,99.93782589
63382000,0.5791652978,88.71716776
63604000,0.595996603,79.04929122
63826000,0.6128701205,70.61804817
64048000,0.6286133075,63.09483573
64270000,0.6429434642,56.30409676
64492000,0.6560833024,50.22247892
64714000,0.6678503101,44.59898217
64936000,0.6781812342,39.32805283
65158000,0.6872499179,34.37347818
65380000,0.6950181166,29.63556361
65602000,0.701792955,25.06741222
65824000,0.7076617083,20.611414
66046000,0.712459983,16.29533782
66268000,0.7158752291,11.97423872
66490000,0.7190224663,7.609421651
66712000,0.7220818368,3.134644912
66934000,0.7238689416,-1.369544205
67156000,0.7242791246,-6.125000433
67378000,0.7244163138,-11.12515141
67600000,0.7224387111,-16.49670277
67822000,0.7189594488,-22.3485809
68044000,0.7125175583,-28.76986128
68266000,0.7016280984,-35.74319319
68488000,0.6879495047,-43.27445148
68710000,0.6726765263,-51.48401958
68932000,0.6573950463,-60.71111375
69154000,0.6425666488,-71.22600523
69376000,0.6290886705,-83.45290389
69598000,0.6183813613,-97.57179584
69820000,0.6131850614,-113.8168348
70042000,0.6170250056,-132.0811731
70264000,0.632971724,-151.8462275
70486000,0.6618285039,-172.1737705
70708000,0.7010289762,167.8549969
70930000,0.7452364813,149.1470661
71152000,0.7886614812,132.1468347
71374000,0.8272614877,117.0947948
71596000,0.8590948576,103.9067239
71818000,0.8842432178,92.37134364
72040000,0.9037613109,82.31284539
72262000,0.9182428986,73.47906368
72484000,0.9289944151,65.6754927
72706000,0.936700256,58.73798738
72928000,0.9426385624,52.48827717
73150000,0.9470659913,46.77622734
73372000,0.9505310797,41.53099329
73594000,0.9529262125,36.6332435
73816000,0.9548480557,31.99861579
74038000,0.9563681628,27.57201879
74260000,0.9573950134,23.24592621
74482000,0.958006668,18.97802384
74704000,0.9573231622,14.60165692
74926000,0.9552789094,10.05177051
75148000,0.9509433334,5.093016703
75370000,0.9412933525,-0.5332235681
75592000,0.9195649957,-7.505381612
75814000,0.8685406364,-16.77549523
76036000,0.7396581529,-29.86891286
76258000,0.4391431209,-42.59887119
76480000,0.2442574759,15.73692567
76702000,0.5243783484,30.80945383
76924000,0.6923445586,22.87100818
77146000,0.7777081886,15.66686899
77368000,0.8248672511,9.921365912
77590000,0.8535300916,5.132308213
77812000,0.8721315369,0.9875799003
78034000,0.8848553471,-2.760978103
78256000,0.8942107896,-6.20152197
78478000,0.9011365472,-9.481247856
78700000,0.9064358691,-12.60550417
78922000,0.9104695588,-15.63848563
79144000,0.9135708562,-18.63627452
79366000,0.9161979519,-21.58403649
79588000,0.9179721827,-24.50068632
79810000,0.91984098,-27.44068461
80032000,0.9208669362,-30.39092294
80254000,0.9220172925,-33.37844615
80476000,0.9227357858,-36.41213246
80698000,0.9231964159,-39.49063085
80920000,0.9236070275,-42.63262696
81142000,0.9235613092,-45.8539746
81364000,0.9236908248,-49.18200231
81586000,0.9232006839,-52.59428165
81808000,0.9225775744,-56.14703733
82030000,0.9219963531,-59.80883812
82252000,0.9213297221,-63.63219548
82474000,0.9201810405,-67.63425353
82696000,0.9190296158,-71.82799208
82918000,0.9183079992,-76.21005497
83140000,0.9173104842,-80.88841477
83362000,0.9158027674,-85.82366897
83584000,0.9141177544,-91.1277484
83806000,0.9119817727,-96.76524229
84028000,0.9098055387,-102.8639972
84250000,0.9069195888,-109.4523436
84472000,0.9036900431,-116.6117607
84694000,0.8997653535,-124.430831
84916000,0.8951121688,-133.0507581
85138000,0.8898353547,-142.5683007
85360000,0.8834982166,-153.219334
85582000,0.8758569207,-165.1504173
85804000,0.8671789655,-178.6266814
86026000,0.8573796406,166.1209515
86248000,0.8470641549,148.8853583
86470000,0.8368310526,129.5257025
86692000,0.828402843,108.0525083
86914000,0.8232870084,84.91815187
87136000,0.8233668263,60.72380401
87358000,0.8309311849,36.44634757
87580000,0.8572066616,12.72079268
87802000,0.857379087,-14.7357369
88024000,0.8223717038,-33.84811651
88246000,0.8253694797,-52.35502999
88468000,0.8279073966,-69.80889534
88690000,0.8286999048,-86.07394235
88912000,0.8275653757,-101.2607184
89134000,0.8254505917,-115.4272229
89356000,0.8223737748,-128.7414729
89578000,0.8189593646,-141.2498865
89800000,0.815348326,-153.0309944
90022000,0.8117267779,-164.1657535
90244000,0.8083455844,-174.6363786
90466000,0.8051784165,175.4389905
90688000,0.8020064893,166.0740596
90910000,0.7991368449,157.2159426
91132000,0.796052247,148.8378002
91354000,0.7931993863,140.8990182
91576000,0.790283271,133.3634379
91798000,0.7866459445,126.2047423
92020000,0.7825096638,119.3409772
92242000,0.7778288726,112.8039832
92464000,0.7718054329,106.4976904
92686000,0.7645142315,100.404902
92908000,0.7554114592,94.47123267
93130000,0.744240593,88.67538609
93352000,0.7306353909,82.92048253
93574000,0.7135332871,77.13740719
93796000,0.6915008383,71.20544909
94018000,0.6623613615,65.0012194
94240000,0.6224723601,58.30418085
94462000,0.566543218,50.92231902
94684000,0.4851411964,42.63686708
94906000,0.3647890107,33.89264923
95128000,0.1921333413,30.24832969
95350000,0.1014702951,121.630492
95572000,0.3503639679,137.578292
95794000,0.579214883,124.048903
96016000,0.7303139994,110.1271084
96238000,0.8152853357,98.65383146
96460000,0.8594055527,89.56766894
96682000,0.8816553332,82.31506492
96904000,0.8921031931,76.39803717
97126000,0.8967601315,71.43437419
97348000,0.8983698924,67.23109535
97570000,0.8986833883,63.49454047
97792000,0.8988674728,60.19275317
98014000,0.8995095937,57.23696957
98236000,0.9007150551,54.47493307
98458000,0.9031666063,51.87307893
98680000,0.9065506709,49.35818933
98902000,0.9103087074,46.86324142
99124000,0.9146912825,44.37695531
99346000,0.9188874103,41.84788059
99568000,0.9225692995,39.2660702
99790000,0.9259348653,36.60776545
100012000,0.9279842312,33.82167845
100234000,0.9293130321,30.89493143
100456000,0.9284859723,27.7702264
100678000,0.9251695828,24.34665846
100900000,0.9182956283,20.42330345
101122000,0.9039678829,15.83388379
101344000,0.8759684276,10.22289392
101566000,0.81983823,3.012278851
101788000,0.7053440386,-6.007619455
102010000,0.4919505452,-12.86572382
102232000,0.2800630062,12.14367044
102454000,0.4088354221,48.38835686
102676000,0.589699783,48.73844498
102898000,0.7014951851,43.71726352
103120000,0.7670185463,38.82392409
103342000,0.8072573193,34.69462043
103564000,0.8333390206,31.19090735
103786000,0.850560507,28.14845811
104008000,0.8625431945,25.46001864
104230000,0.870884621,22.99640838
104452000,0.8767698118,20.71984148
104674000,0.8805306011,18.5626504
104896000,0.8827455216,16.49202932
105118000,0.882321883,14.33758088
105340000,0.8770502758,12.14272747
105562000,0.8574184975,9.841211072
105784000,0.8177112646,10.04625379
106006000,0.8440532398,11.67170947
106228000,0.869490413,10.1054779
106450000,0.8789247396,8.240951127
106672000,0.8824648238,6.504037104
106894000,0.8836668039,4.904056533
107116000,0.8836673268,3.380564252
107338000,0.882947984,1.86109244
107560000,0.8812130197,0.3854563241
107782000,0.8796439442,-1.067227121
108004000,0.8772142689,-2.55010614
108226000,0.8742705409,-3.998468289
108448000,0.8704636626,-5.492979244
108670000,0.8665980846,-6.996912964
108892000,0.8617975509,-8.55058947
109114000,0.8558546188,-10.12574645
109336000,0.8490695951,-11.78508609
109558000,0.841056952,-13.51207517
109780000,0.831680372,-15.29626423
110002000,0.8201140269,-17.13942733
110224000,0.8064835205,-19.16803556
110446000,0.7898212644,-21.27325149
110668000,0.769198941,-23.56712414
110890000,0.7434924308,-26.02781811
111112000,0.7115330859,-28.66356661
111334000,0.6707157748,-31.43740561
111556000,0.6188631427,-34.16543252
111778000,0.5537780158,-36.5130371
112000000,0.4756212921,-37.46773699
112222000,0.3940539533,-35.51681351
112444000,0.2621068235,-35.51624203
112666000,0.2628290866,9.117014516
112888000,0.371322349,23.7598641
113110000,0.4965742275,26.47718212
113332000,0.6094834097,24.30553311
113554000,0.701990281,20.51357713
113776000,0.7748867842,16.23132721
113998000,0.8279075055,11.91498435
114220000,0.8650547418,7.9511963
114442000,0.8910024749,4.417712736
114664000,0.9096722857,1.270948375
114886000,0.923241412,-1.57396141
115108000,0.9330538849,-4.146818082
115330000,0.9404251414,-6.495842013
115552000,0.9458067725,-8.69823228
115774000,0.9499501878,-10.72301347
115996000,0.9529518,-12.66021372
116218000,0.9549284718,-14.4761405
116440000,0.9568598586,-16.24210979
116662000,0.9579372086,-17.93633748
116884000,0.9588038902,-19.58553368
117106000,0.9587749421,-21.22327193
117328000,0.9583195982,-22.83267415
117550000,0.9571117706,-24.39059246
117772000,0.9558970549,-25.91259522
117994000,0.9539953807,-27.41821524
118216000,0.9524957949,-28.90676109
118438000,0.9508182547,-30.40196315
118660000,0.9490425689,-31.88029063
118882000,0.9472146634,-33.4229501
119104000,0.9449493419,-35.01960103
119326000,0.9426225865,-36.66139874
119548000,0.9390239384,-38.377074
119770000,0.9349582875,-40.21737953
119992000,0.9291870738,-42.20224889
120214000,0.9217712728,-44.36494875
120436000,0.9110712236,-46.72429473
120658000,0.8958987692,-49.3809392
120880000,0.8730037639,-52.41589898
121102000,0.8385561646,-55.7805275
121324000,0.7852248881,-59.39280623
121546000,0.7057624699,-62.51700235
121768000,0.6005153298,-62.94480497
121990000,0.4999077699,-56.44929476
122212000,0.4706777085,-41.66700432
122434000,0.5536152758,-30.01886168
122656000,0.6635737213,-29.15851326
122878000,0.7345102427,-31.89674425
123100000,0.7787624435,-34.72160067
123322000,0.8047131567,-37.58807156
123544000,0.8229136043,-40.10112853
123766000,0.8351222266,-42.38548048
123988000,0.8436268222,-44.52872945
124210000,0.8483837981,-46.57526241
124432000,0.8511657748,-48.51320303
124654000,0.8520538288,-50.40059762
124876000,0.8512917086,-52.19932409
125098000,0.8494080514,-53.93931309
125320000,0.8452954898,-55.63609185
125542000,0.8406971831,-57.17981328
125764000,0.8350562486,-58.5458517
125986000,0.8298076811,-59.58069847
126208000,0.8289520417,-60.11772629
126430000,0.844452292,-60.13053133
126652000,0.8908671195,-61.24028627
126874000,0.9312175335,-65.32262221
127096000,0.9382376918,-69.84058411
127318000,0.9364990232,-73.84224406
127540000,0.9340286665,-77.87600871
127762000,0.9281698633,-82.25818478
127984000,0.9167952996,-87.00534103
128206000,0.8991837594,-92.05155847
128428000,0.8760891124,-97.44616774
128650000,0.8473548092,-103.271648
128872000,0.811846245,-109.7054781
129094000,0.7673070567,-116.8436138
129316000,0.71062287,-124.8994443
129538000,0.6362470733,-133.8549445
