Frequency,S11_Magnitude,S11_Phase,S11_VSWR,
10000000,-0.3014469208,40.76930956,57.63377125,
10108888,-0.3108007596,39.89968196,55.89958268,
10217777,-0.3070556394,38.9726957,56.5812385,
10326666,-0.3011414784,38.04646087,57.69221642,
10435555,-0.2962424296,37.13389029,58.64610015,
10544444,-0.2928183736,36.22053273,59.33174301,
10653333,-0.2891291904,35.30658225,60.08865197,
10762222,-0.2859067727,34.41207916,60.76577893,
10871111,-0.2815821736,33.51506814,61.69886549,
10980000,-0.2774542758,32.62345904,62.61664674,
11088888,-0.2742022417,31.74594492,63.35915362,
11197777,-0.2704245153,30.8644189,64.24411063,
11306666,-0.2691434251,29.98478906,64.54985554,
11415555,-0.2660674172,29.12829957,65.29599831,
11524444,-0.2627761212,28.25296312,66.11370982,
11633333,-0.2603484277,27.39671279,66.73011245,
11742222,-0.2584960968,26.54315729,67.20821565,
11851111,-0.2555423518,25.68852219,67.98494324,
11960000,-0.2541863599,24.83504328,68.34756606,
12068888,-0.252265915,23.99668034,68.86780706,
12177777,-0.2503022699,23.15785734,69.40800588,
12286666,-0.2485325972,22.31653322,69.90215641,
12395555,-0.2471396071,21.47875411,70.29610284,
12504444,-0.2465011036,20.65220032,70.47816392,
12613333,-0.2448301724,19.81292574,70.95910308,
12722222,-0.2444895812,18.9940125,71.057941,
12831111,-0.2435948171,18.17536198,71.31891419,
12940000,-0.2443115936,17.35562817,71.1097018,
13048888,-0.2431637272,16.52808824,71.44533453,
13157777,-0.2421822669,15.71961193,71.73483392,
13266666,-0.2419945344,14.90496608,71.79047655,
13375555,-0.2422623148,14.08722477,71.71113449,
13484444,-0.2423960604,13.28551501,71.67157193,
13593333,-0.2435016804,12.4808024,71.34618933,
13702222,-0.2434596823,11.68178139,71.35849531,
13811111,-0.2430898679,10.87694403,71.46703929,
13920000,-0.2447127029,10.08389794,70.99316109,
14028888,-0.2458104524,9.294378129,70.6761592,
14137777,-0.246677777,8.514594949,70.42769345,
14246666,-0.2489349211,7.728889314,69.78919731,
14355555,-0.250373998,6.950589963,69.38812439,
14464444,-0.2514887399,6.160189888,69.08059921,
14573333,-0.2539458691,5.389352733,68.41228305,
14682222,-0.2553882716,4.617018144,68.02595384,
14791111,-0.2578734387,3.850975205,67.37047188,
14900000,-0.2599302671,3.098161887,66.83744789,
15008888,-0.2620714611,2.324384307,66.29144988,
15117777,-0.2661124983,1.570111713,65.2849385,
15226666,-0.2680869175,0.8107300959,64.80420039,
15335555,-0.2713933167,0.05278143986,64.01481347,
15444444,-0.274292796,-0.7005952353,63.33823987,
15553333,-0.27736788,-1.448266545,62.63614755,
15662222,-0.280043852,-2.198603643,62.03772714,
15771111,-0.2833106976,-2.944147597,61.32249696,
15880000,-0.2861879113,-3.699078114,60.70609604,
15988888,-0.2901456727,-4.436426542,59.87817924,
16097777,-0.2929776336,-5.189453054,59.29949692,
16206666,-0.2967036606,-5.926003538,58.55495144,
16315555,-0.3009268581,-6.653677214,57.73335413,
16424444,-0.305115083,-7.391512833,56.941025,
16533333,-0.3088068575,-8.123943014,56.26043799,
16642222,-0.3125193672,-8.853866062,55.59224528,
16751111,-0.3158347539,-9.596241198,55.00880784,
16860000,-0.3188575481,-10.3218761,54.48743555,
16968888,-0.3246427299,-11.05719515,53.51668136,
17077777,-0.3275860556,-11.7737783,53.03595214,
17186666,-0.3331248255,-12.51755696,52.15434951,
17295555,-0.3372450568,-13.2371258,51.5173202,
17404444,-0.3389262379,-13.95740128,51.26184238,
17513333,-0.3445282493,-14.68582634,50.42854073,
17622222,-0.3486421515,-15.41464539,49.83365176,
17731111,-0.352884377,-16.13997087,49.23473466,
17840000,-0.3562791648,-16.86349786,48.76573366,
17948888,-0.3608686721,-17.59974515,48.14570882,
18057777,-0.3654088409,-18.31531485,47.54767629,
18166666,-0.3696994135,-19.04888449,46.99602207,
18275555,-0.3731634016,-19.75972481,46.55990136,
18384444,-0.3773718826,-20.49159975,46.04082226,
18493333,-0.38270221,-21.20902326,45.39976268,
18602222,-0.3860491231,-21.93501612,45.00629023,
18711111,-0.3901221052,-22.66262545,44.53656766,
18820000,-0.3933616275,-23.37769461,44.16991139,
18928888,-0.3988907652,-24.10788391,43.55787046,
19037777,-0.4035469978,-24.83519907,43.05546581,
19146666,-0.4076334805,-25.55350868,42.62399533,
19255555,-0.4116775591,-26.27286466,42.20543665,
19364444,-0.4152952462,-27.00513557,41.83791821,
19473333,-0.4204774849,-27.72509495,41.32247806,
19582222,-0.4228996819,-28.44816941,41.08589243,
19691111,-0.4280324225,-29.19227141,40.59340771,
19800000,-0.4313320285,-29.90509415,40.28300218,
19908888,-0.4355638401,-30.64324739,39.89178584,
20017777,-0.4397491064,-31.37940529,39.51227977,
20126666,-0.4445821308,-32.10006418,39.08292871,
20235555,-0.4481248211,-32.84044303,38.77409057,
20344444,-0.4521452465,-33.56873928,38.42946925,
20453333,-0.4565901666,-34.30427686,38.05552685,
20562222,-0.4600439553,-35.03033919,37.7699563,
20671111,-0.4648053558,-35.77605582,37.38322797,
20780000,-0.4686065803,-36.5154953,37.08012943,
20888888,-0.4726443159,-37.24469108,36.76351325,
20997777,-0.4759850217,-37.9878595,36.50561589,
21106666,-0.4805736328,-38.72977652,36.15722837,
21215555,-0.4840403368,-39.46705514,35.89840231,
21324444,-0.4874895638,-40.21135113,35.64453546,
21433333,-0.491019342,-40.94856592,35.38843345,
21542222,-0.4958568883,-41.69992767,35.04337101,
21651111,-0.5000071326,-42.45557361,34.75265665,
21760000,-0.5035327239,-43.20764408,34.50946335,
21868888,-0.5057141427,-43.96115969,34.36068889,
21977777,-0.5096899489,-44.71481302,34.09281233,
22086666,-0.5140757379,-45.47331478,33.80212027,
22195555,-0.517896972,-46.23250497,33.5528619,
22304444,-0.5228300785,-46.99584276,33.23646591,
22413333,-0.524944922,-47.76549498,33.10264728,
22522222,-0.5291557774,-48.52693334,32.83938775,
22631111,-0.5327876595,-49.31473954,32.61566863,
22740000,-0.5358299811,-50.07225221,32.43060064,
22848888,-0.5396401007,-50.86539364,32.20177063,
22957777,-0.5431072872,-51.63497799,31.99632776,
23066666,-0.5470095326,-52.41788348,31.76822221,
23175555,-0.5495511116,-53.201714,31.62139697,
23284444,-0.5531008014,-53.99282438,31.41859296,
23393333,-0.5565517882,-54.78091588,31.22390905,
23502222,-0.5602256399,-55.56834429,31.01928918,
23611111,-0.5622442138,-56.35649581,30.90800079,
23720000,-0.5666805717,-57.16292314,30.66620166,
23828888,-0.5694776538,-57.96480846,30.51568669,
23937777,-0.5723580909,-58.76746845,30.36222434,
24046666,-0.5739423695,-59.57395528,30.27847485,
24155555,-0.5780135818,-60.38378281,30.06536546,
24264444,-0.5807450379,-61.1977534,29.92406162,
24373333,-0.5847870784,-62.01615537,29.71738147,
24482222,-0.5866212617,-62.82812381,29.62453467,
24591111,-0.5901161789,-63.65057425,29.44921938,
24700000,-0.5944795098,-64.48254338,29.23323628,
24808888,-0.5977606886,-65.31961551,29.07289716,
24917777,-0.5988443212,-66.14034244,29.02033013,
25026666,-0.6047785153,-67.00244019,28.73580409,
25135555,-0.6102825279,-67.84395445,28.47685202,
25244444,-0.611141386,-68.6963061,28.43686544,
25353333,-0.6146081026,-69.56929235,28.27659904,
25462222,-0.6175948425,-70.42432986,28.13996539,
25571111,-0.6206064542,-71.29607846,28.00352609,
25680000,-0.6235577314,-72.16347643,27.87109934,
25788888,-0.6271931812,-73.04236391,27.70968695,
25897777,-0.631234754,-73.88688174,27.53242621,
26006666,-0.6349009791,-74.75840446,27.37358094,
26115555,-0.6386623249,-75.64284659,27.21251053,
26224444,-0.642868889,-76.52969281,27.03460839,
26333333,-0.6460507741,-77.42539459,26.90158117,
26442222,-0.6511122493,-78.3239714,26.69265295,
26551111,-0.6536087014,-79.21573678,26.59079622,
26660000,-0.6582212203,-80.11547205,26.40463622,
26768888,-0.6610671209,-81.02450745,26.29107295,
26877777,-0.6661332137,-81.93818136,26.09131708,
26986666,-0.6704216379,-82.86135238,25.92458517,
27095555,-0.675056727,-83.78636032,25.74675845,
27204444,-0.6794768544,-84.70177872,25.57943989,
27313333,-0.684795698,-85.63739741,25.38096634,
27422222,-0.689547576,-86.58927664,25.20624022,
27531111,-0.6957816862,-87.52328127,24.98063383,
27640000,-0.6997287395,-88.4663038,24.83987325,
27748888,-0.7038409176,-89.42205469,24.69490405,
27857777,-0.7086603362,-90.36638893,24.52714457,
27966666,-0.7129646205,-91.33087489,24.37923482,
28075555,-0.7202229729,-92.31348126,24.13381983,
28184444,-0.7256549472,-93.28128672,23.95337095,
28293333,-0.7289390772,-94.25445236,23.84557821,
28402222,-0.7347105374,-95.22871011,23.65848173,
28511111,-0.740999199,-96.21828814,23.45793879,
28620000,-0.7459200584,-97.21974131,23.30337417,
28728888,-0.7508267412,-98.21550118,23.15127333,
28837777,-0.7568446565,-99.21858469,22.96742007,
28946666,-0.7627090578,-100.2240019,22.79104978,
29055555,-0.7693055057,-101.2465259,22.5958788,
29164444,-0.775212028,-102.2647765,22.42394125,
29273333,-0.7801443537,-103.2855387,22.28235845,
29382222,-0.7846624607,-104.3206836,22.15422889,
29491111,-0.7923879999,-105.3467055,21.93852693,
29600000,-0.7988489304,-106.4301895,21.76133938,
29708888,-0.8037439115,-107.4315109,21.62899516,
29817777,-0.8078649077,-108.4848582,21.51882129,
29926666,-0.81419599,-109.5370673,21.35173568,
30035555,-0.8202315869,-110.5978196,21.19485164,
30144444,-0.827041109,-111.6571516,21.02060198,
30253333,-0.8324517775,-112.7365844,20.88418174,
30362222,-0.8459012269,-113.8287091,20.55264451,
30471111,-0.8482300584,-114.900577,20.49630606,
30580000,-0.8540221281,-115.9830172,20.35751937,
30688888,-0.8593712252,-117.0801405,20.23100996,
30797777,-0.8635751063,-118.1743812,20.13268635,
30906666,-0.868223221,-119.2473421,20.02508196,
31015555,-0.871992888,-120.3676694,19.93865688,
31124444,-0.8953281513,-121.297184,19.41987196,
31233333,-0.8834624559,-122.5805177,19.68024005,
31342222,-0.8882795659,-123.6933253,19.57369907,
31451111,-0.8930309424,-124.8178273,19.46973888,
31560000,-0.898051425,-125.9480439,19.36108697,
31668888,-0.9034796005,-127.0873637,19.24497167,
31777777,-0.9079891119,-128.2095554,19.14956443,
31886666,-0.9134224954,-129.3559022,19.03586338,
31995555,-0.9177981242,-130.4960321,18.94527681,
32104444,-0.9226677175,-131.6572261,18.84547503,
32213333,-0.9286126524,-132.8098019,18.7250545,
32322222,-0.9338743479,-133.961776,18.61975386,
32431111,-0.9379337327,-135.1160082,18.53932281,
32540000,-0.9421292535,-136.2908349,18.45692348,
32648888,-0.9461861774,-137.4560943,18.37794177,
32757777,-0.9498302394,-138.6322293,18.30757358,
32866666,-0.9551059311,-139.8062738,18.20665037,
32975555,-0.9591367983,-140.9846061,18.13028943,
33084444,-0.9626294435,-142.1650833,18.06464223,
33193333,-0.9662582608,-143.3556514,17.99693877,
33302222,-0.9695857198,-144.5478777,17.93530365,
33411111,-0.9730183092,-145.7478145,17.87216338,
33520000,-0.9767421945,-146.950935,17.80416732,
33628888,-0.9791784448,-148.1440754,17.7599629,
33737777,-0.9824359678,-149.3510941,17.70119986,
33846666,-0.9861082969,-150.5659713,17.63542009,
33955555,-0.9886042615,-151.7770376,17.59099093,
34064444,-0.9918751615,-152.9866797,17.53310651,
34173333,-0.9945448948,-154.1929622,17.48614331,
34282222,-0.9970407281,-155.4137347,17.4424669,
34391111,-1.000153496,-156.630134,17.38830011,
34500000,-1.003814951,-157.8634812,17.32501579,
34608888,-1.004325306,-159.0990095,17.31623152,
34717777,-1.007367759,-160.3359741,17.26404955,
34826666,-1.00989607,-161.5659975,17.22092525,
34935555,-1.011483301,-162.7930713,17.19396282,
35044444,-1.013127552,-164.0141631,17.16612096,
35153333,-1.014469047,-165.238563,17.14347258,
35262222,-1.016893035,-166.493695,17.10270022,
35371111,-1.018921701,-167.7600632,17.0687266,
35480000,-1.020196159,-169.0132345,17.04745272,
35588888,-1.020563022,-170.257884,17.04133872,
35697777,-1.022721884,-171.4833191,17.00544891,
35806666,-1.023638643,-172.7281985,16.99025417,
35915555,-1.025682305,-173.9740541,16.95647956,
36024444,-1.026181816,-175.2101947,16.94824488,
36133333,-1.02878035,-176.451101,16.90553588,
36242222,-1.029336934,-177.7064793,16.89641605,
36351111,-1.030420158,-178.9466216,16.87869531,
36460000,-1.031089894,179.8105483,16.86775757,
36568888,-1.031915076,178.5719037,16.85430072,
36677777,-1.032244121,177.3148946,16.84894075,
36786666,-1.033573339,176.0628778,16.82732327,
36895555,-1.034997734,174.8141753,16.8042196,
37004444,-1.036457935,173.5658472,16.78060117,
37113333,-1.037398353,172.3056063,16.76542533,
37222222,-1.03957515,171.0454622,16.73040313,
37331111,-1.040629757,169.7843747,16.71348844,
37440000,-1.043635223,168.5527593,16.66547198,
37548888,-1.045350133,167.2601738,16.63819777,
37657777,-1.047967607,166.0286179,16.59674138,
37766666,-1.050094036,164.7871943,16.56321464,
37875555,-1.052225808,163.5174161,16.52973985,
37984444,-1.054823395,162.2504727,16.48913355,
38093333,-1.058342093,160.9849411,16.43444644,
38202222,-1.062179922,159.7825963,16.37521305,
38311111,-1.065966343,158.5486045,16.3171916,
38420000,-1.070249076,157.3026364,16.2520603,
38528888,-1.074412634,156.0606797,16.18923981,
38637777,-1.078446158,154.8158332,16.12884444,
38746666,-1.082311113,153.5717127,16.07139598,
38855555,-1.087636303,152.325531,15.99291238,
38964444,-1.092636695,151.0813716,15.91991304,
39073333,-1.097890152,149.8360219,15.84393652,
39182222,-1.104197586,148.6007891,15.7536735,
39291111,-1.109952254,147.3612227,15.67221702,
39400000,-1.116151505,146.1324723,15.5854086,
39508888,-1.122495054,144.8923881,15.4975735,
39617777,-1.128906871,143.6751198,15.40979764,
39726666,-1.136635195,142.4392123,15.30531721,
39835555,-1.143148137,141.218385,15.21836619,
39944444,-1.151617356,139.9996911,15.10677099,
40053333,-1.158851727,138.7866811,15.01274044,
40162222,-1.168367952,137.573254,14.89082686,
40271111,-1.175553532,136.3671843,14.80008132,
40380000,-1.185362274,135.1586063,14.67798692,
40488888,-1.194186534,133.9496785,14.56986335,
40597777,-1.203550859,132.7222897,14.45685909,
40706666,-1.212263439,131.5031239,14.35329008,
40815555,-1.224336432,130.3296796,14.21221522,
40924444,-1.235658343,129.1457505,14.08242581,
41033333,-1.245911767,127.977594,13.96692391,
41142222,-1.258930745,126.7966206,13.82298448,
41251111,-1.270123929,125.6229741,13.70159443,
41360000,-1.283673264,124.4465589,13.55748921,
41468888,-1.297270562,123.2794043,13.41590554,
41577777,-1.310285377,122.10488,13.28314452,
41686666,-1.323191419,120.9418782,13.15407691,
41795555,-1.337757975,119.7767357,13.01140056,
41904444,-1.352719516,118.6231238,12.86806054,
42013333,-1.369215616,117.4729031,12.71365686,
42122222,-1.385266086,116.3184702,12.56696118,
42231111,-1.401023695,115.1375171,12.42621872,
42340000,-1.417105383,113.9518206,12.28581581,
42448888,-1.435253182,112.8226138,12.13116146,
42557777,-1.455173747,111.69145,11.96585077,
42666666,-1.472718197,110.5592459,11.82397058,
42775555,-1.49308309,109.4405486,11.66347309,
42884444,-1.512141883,108.3158269,11.51719463,
42993333,-1.53450508,107.157717,11.35019923,
43102222,-1.556175057,106.0455936,11.19297092,
43211111,-1.579179762,104.912063,11.03079275,
43320000,-1.602860884,103.7807384,10.86872175,
43428888,-1.6257985,102.6528069,10.71625319,
43537777,-1.650933249,101.5344148,10.55405895,
43646666,-1.676838061,100.4115736,10.39199869,
43755555,-1.703090375,99.2985979,10.2328095,
43864444,-1.732300251,98.16326327,10.06137495,
43973333,-1.759850152,97.0533729,9.904914866,
44082222,-1.789670412,95.94963445,9.741008187,
44191111,-1.820729199,94.83866871,9.576021913,
44300000,-1.852469514,93.74679375,9.413151673,
44408888,-1.885290037,92.65308593,9.250527212,
44517777,-1.919806926,91.55082011,9.085519336,
44626666,-1.954918313,90.46723648,8.92367165,
44735555,-1.99221629,89.37071364,8.758019526,
44844444,-2.028270372,88.29473577,8.603707808,
44953333,-2.068446674,87.20618972,8.438118427,
45062222,-2.110069327,86.13434323,8.27324893,
45171111,-2.15161716,85.06908866,8.115067989,
45280000,-2.196125239,83.99452806,7.95229006,
45388888,-2.241354954,82.9315371,7.793530294,
45497777,-2.288862,81.87543386,7.633569885,
45606666,-2.337928009,80.81830882,7.475223255,
45715555,-2.38841143,79.7669244,7.319132993,
45824444,-2.440624397,78.70936075,7.164529934,
45933333,-2.495306694,77.66323291,7.009595954,
46042222,-2.552599691,76.64803143,6.854433778,
46151111,-2.610032798,75.6422416,6.705777137,
46260000,-2.670698827,74.63211554,6.555747271,
46368888,-2.733676019,73.62388659,6.407100248,
46477777,-2.799089009,72.63106996,6.259842877,
46586666,-2.866088678,71.63414967,6.116040645,
46695555,-2.936074151,70.6436956,5.972900131,
46804444,-3.007998141,69.67979914,5.832799206,
46913333,-3.083615293,68.72235378,5.692620544,
47022222,-3.160593389,67.78934211,5.556879106,
47131111,-3.241582156,66.88380456,5.42109959,
47240000,-3.323223941,65.95581549,5.290999179,
47348888,-3.409925937,65.08448297,5.159736989,
47457777,-3.497013072,64.208947,5.034525737,
47566666,-3.590019948,63.34739576,4.907599562,
47675555,-3.683142896,62.52267407,4.787026049,
47784444,-3.779970395,61.69356492,4.668047748,
47893333,-3.879401274,60.91225709,4.552146144,
48002222,-3.981466733,60.14945255,4.439291736,
48111111,-4.086840467,59.37598933,4.328793762,
48220000,-4.194747548,58.6794933,4.221495531,
48328888,-4.303388318,58.01413016,4.11900623,
48437777,-4.416651112,57.36976813,4.017631552,
48546666,-4.53071683,56.77391192,3.920767776,
48655555,-4.648092239,56.20220541,3.826165631,
48764444,-4.765546417,55.6518978,3.736272721,
48873333,-4.885395849,55.16255691,3.64911053,
48982222,-5.004934753,54.72654667,3.566438685,
49091111,-5.126288872,54.3286616,3.486561199,
49200000,-5.248321857,53.98452432,3.410066737,
49308888,-5.367200538,53.64320843,3.338993006,
49417777,-5.488716494,53.37547882,3.269622785,
49526666,-5.606357325,53.1676385,3.205422144,
49635555,-5.724275308,52.99617392,3.143807712,
49744444,-5.839123881,52.89258925,3.086273456,
49853333,-5.949775347,52.81536493,3.033019597,
49962222,-6.057796543,52.80355664,2.982979677,
50071111,-6.161978114,52.83347003,2.936446016,
50180000,-6.259633537,52.92385301,2.89429124,
50288888,-6.352500106,53.04157046,2.855456707,
50397777,-6.437153796,53.19847875,2.82107532,
50506666,-6.518912968,53.41620203,2.788755104,
50615555,-6.589161226,53.6369851,2.761655302,
50724444,-6.652835566,53.9110043,2.737609233,
50833333,-6.708591288,54.20804904,2.716946375,
50942222,-6.756841963,54.53113963,2.699353535,
51051111,-6.792653516,54.86965604,2.686465764,
51160000,-6.82309371,55.21354648,2.675622731,
51268888,-6.841973067,55.58658669,2.668948689,
51377777,-6.85397587,55.93742497,2.664725673,
51486666,-6.856737012,56.27110049,2.663756403,
51595555,-6.849583676,56.6092528,2.666269199,
51704444,-6.834250269,56.90690348,2.671674091,
51813333,-6.814438558,57.19083947,2.678695407,
51922222,-6.785527693,57.48078099,2.689018802,
52031111,-6.749187381,57.72018471,2.702126878,
52140000,-6.706767748,57.9284548,2.717616472,
52248888,-6.659117204,58.1032391,2.735263142,
52357777,-6.608061902,58.25664594,2.754466942,
52466666,-6.549719895,58.34840451,2.776795729,
52575555,-6.488157175,58.41240285,2.800813212,
52684444,-6.424511067,58.40668687,2.826149928,
52793333,-6.357620383,58.38044563,2.85334997,
52902222,-6.289640919,58.34655104,2.881612015,
53011111,-6.221174728,58.29230216,2.910728057,
53120000,-6.149251964,58.17302895,2.942042272,
53228888,-6.077506985,58.01411108,2.974048457,
53337777,-6.005611303,57.80657816,3.006920422,
53446666,-5.930119822,57.51514233,3.042328639,
53555555,-5.859591138,57.28755496,3.076265682,
53664444,-5.788891595,57.00345998,3.111146517,
53773333,-5.717237085,56.67615957,3.147411487,
53882222,-5.648135766,56.28227613,3.183287461,
53991111,-5.579245481,55.89522565,3.219969827,
54100000,-5.512452003,55.47934631,3.256441391,
54208888,-5.445128338,55.01758461,3.294138473,
54317777,-5.381671495,54.54724417,3.33056229,
54426666,-5.318888599,54.05661238,3.367482096,
