Frequency,S11_Magnitude,S11_Phase,S11_VSWR,
10000000,-0.3164317003,40.20001418,54.90505696,
10108888,-0.3228421976,39.317688,53.81508145,
10217777,-0.3201626877,38.38202053,54.26536812,
10326666,-0.3155327638,37.45013435,55.06144408,
10435555,-0.311885025,36.51979874,55.70528985,
10544444,-0.3095027644,35.60117622,56.13396489,
10653333,-0.3064620915,34.69077428,56.69080077,
10762222,-0.3035767836,33.77919586,57.22950022,
10871111,-0.301184381,32.86924419,57.68400003,
10980000,-0.2981664129,31.96885463,58.26774708,
11088888,-0.2960750353,31.08048016,58.67925092,
11197777,-0.2933769295,30.19156387,59.21880363,
11306666,-0.292601868,29.2981632,59.37563618,
11415555,-0.2913778409,28.42996421,59.62501571,
11524444,-0.2889852279,27.5556151,60.11858055,
11633333,-0.2880930799,26.68109033,60.30471758,
11742222,-0.287366641,25.81883756,60.45713497,
11851111,-0.2855221184,24.95693251,60.84762757,
11960000,-0.2858477535,24.09830801,60.77832302,
12068888,-0.2854499452,23.24952842,60.86300953,
12177777,-0.2852333703,22.39746799,60.9092139,
12286666,-0.2843709045,21.5440868,61.09391173,
12395555,-0.2845335673,20.70149488,61.05899165,
12504444,-0.2851758014,19.85951654,60.92150753,
12613333,-0.2855975205,19.01468963,60.83156577,
12722222,-0.2860426027,18.18264572,60.73692894,
12831111,-0.2877612404,17.35781389,60.37424682,
12940000,-0.2888125157,16.52525329,60.15452531,
13048888,-0.2900110255,15.69776406,59.90597449,
13157777,-0.2912011429,14.86455081,59.66118882,
13266666,-0.2925139642,14.04638207,59.39347587,
13375555,-0.2939311678,13.2136316,59.10716156,
13484444,-0.2967473854,12.40385583,58.54632523,
13593333,-0.2993387562,11.59209447,58.03958965,
13702222,-0.3011301396,10.78066885,57.69438835,
13811111,-0.3039401709,9.971537791,57.16109123,
13920000,-0.3068896103,9.158293988,56.6118429,
14028888,-0.3104507683,8.364266536,55.96258847,
14137777,-0.3130807685,7.570724063,55.49258147,
14246666,-0.3164740902,6.773290393,54.89770438,
14355555,-0.3200633682,5.985839814,54.2822035,
14464444,-0.3243265143,5.191250181,53.56884752,
14573333,-0.3290529673,4.403717309,52.79957505,
14682222,-0.3336343854,3.617758481,52.07471369,
14791111,-0.337629171,2.849461435,51.45872467,
14900000,-0.3431432491,2.083716278,50.63202795,
15008888,-0.3477402411,1.307022466,49.96286729,
15117777,-0.353881131,0.5381678747,49.09609657,
15226666,-0.3587427844,-0.2221218994,48.43093552,
15335555,-0.3654359033,-0.9831758024,47.54415618,
15444444,-0.3703160124,-1.751593695,46.91779445,
15553333,-0.3762822269,-2.501717069,46.17410755,
15662222,-0.3816145096,-3.263016214,45.52912198,
15771111,-0.3891337375,-4.019293128,44.6496489,
15880000,-0.3943670783,-4.777920504,44.0573374,
15988888,-0.4017961099,-5.516335176,43.24301924,
16097777,-0.4079486882,-6.276704593,42.59107334,
16206666,-0.414434255,-7.018269453,41.92480382,
16315555,-0.4218155141,-7.757311251,41.19145145,
16424444,-0.4283174912,-8.508404646,40.56640151,
16533333,-0.4363177461,-9.243723131,39.82288641,
16642222,-0.443958656,-9.986255899,39.13779101,
16751111,-0.4511186509,-10.73515742,38.51688246,
16860000,-0.4566216005,-11.46053754,38.05290831,
16968888,-0.4657923185,-12.20743772,37.30405485,
17077777,-0.473294325,-12.92300722,36.7130482,
17186666,-0.4814235683,-13.66627824,36.0934267,
17295555,-0.4894317536,-14.3888463,35.50316324,
17404444,-0.4959569001,-15.11365503,35.0363082,
17513333,-0.503977606,-15.83886295,34.47901747,
17622222,-0.5125094138,-16.5684805,33.90536565,
17731111,-0.5204729516,-17.292565,33.38689714,
17840000,-0.5273735538,-18.01365087,32.95029776,
17948888,-0.5360533232,-18.74247361,32.41709727,
18057777,-0.5439711399,-19.45704458,31.94554915,
18166666,-0.5526469813,-20.19056322,31.44437572,
18275555,-0.5595445546,-20.89568129,31.05702013,
18384444,-0.5682323576,-21.62206214,30.58251478,
18493333,-0.5767840678,-22.34213147,30.12940771,
18602222,-0.5838743001,-23.06097119,29.76380399,
18711111,-0.5925243932,-23.76757785,29.32962026,
18820000,-0.5999796123,-24.4782351,28.96546092,
18928888,-0.6093360442,-25.19712341,28.52104886,
19037777,-0.6168267432,-25.91100368,28.174977,
19146666,-0.6260156742,-26.62743453,27.76176239,
19255555,-0.633771712,-27.33726288,27.42231237,
19364444,-0.6412988423,-28.04765047,27.100735,
19473333,-0.6505350723,-28.76487228,26.71631343,
19582222,-0.6573768631,-29.4694519,26.43851881,
19691111,-0.6666239777,-30.19089392,26.07212765,
19800000,-0.6754423231,-30.90792569,25.73207495,
19908888,-0.680928894,-31.60614454,25.52494894,
20017777,-0.6886657004,-32.318744,25.23848439,
20126666,-0.6966260493,-33.02765162,24.9503878,
20235555,-0.7033367328,-33.74039336,24.71258716,
20344444,-0.7102577082,-34.44676914,24.47204416,
20453333,-0.7173730992,-35.15688052,24.22958554,
20562222,-0.7242003708,-35.86506911,24.00142609,
20671111,-0.7309658925,-36.5775762,23.77953707,
20780000,-0.7377059159,-37.28955374,23.56253361,
20888888,-0.7442323312,-38.00284619,23.35615539,
20997777,-0.7497978077,-38.71883732,23.18300388,
21106666,-0.756279844,-39.43376022,22.98455116,
21215555,-0.7615505708,-40.13942063,22.82567553,
21324444,-0.7671462974,-40.85844633,22.65939416,
21433333,-0.7720098757,-41.57145371,22.51682844,
21542222,-0.778286737,-42.28403081,22.33547069,
21651111,-0.7831016808,-43.01620371,22.19832398,
21760000,-0.7875584846,-43.73350641,22.07287388,
21868888,-0.791108338,-44.45964525,21.97396459,
21977777,-0.7952926011,-45.18716532,21.85851335,
22086666,-0.7998328164,-45.91405958,21.73460817,
22195555,-0.8048613385,-46.64576904,21.59900945,
22304444,-0.809610857,-47.38734838,21.47248224,
22413333,-0.8104658714,-48.1218875,21.44986227,
22522222,-0.8143485074,-48.85524599,21.34774261,
22631111,-0.8173517119,-49.60416075,21.26941937,
22740000,-0.8199551848,-50.33591701,21.2019857,
22848888,-0.822956802,-51.10880334,21.12476944,
22957777,-0.8258716936,-51.84731031,21.05032177,
23066666,-0.8272210215,-52.59738182,21.0160371,
23175555,-0.8299354134,-53.36104683,20.94740589,
23284444,-0.8316535127,-54.12947427,20.90419683,
23393333,-0.833301217,-54.88990572,20.86292567,
23502222,-0.8346421903,-55.65467612,20.82945777,
23611111,-0.835781926,-56.42625819,20.80109684,
23720000,-0.8379381455,-57.21893441,20.74765315,
23828888,-0.8390045316,-57.99538778,20.72132349,
23937777,-0.8400427911,-58.77463586,20.69575256,
24046666,-0.8398441281,-59.56270858,20.70064047,
24155555,-0.8406476336,-60.35959691,20.68088525,
24264444,-0.8413133549,-61.15548182,20.66454624,
24373333,-0.8431049097,-61.96124376,20.62070379,
24482222,-0.8429732624,-62.75790893,20.62391908,
24591111,-0.8429665055,-63.56952714,20.62408414,
24700000,-0.8441178921,-64.39363478,20.59599679,
24808888,-0.8456691764,-65.21387965,20.55827523,
24917777,-0.8449077259,-66.03276274,20.57677359,
25026666,-0.8441018842,-66.95325693,20.59638677,
25135555,-0.8470059389,-67.79530789,20.52588097,
25244444,-0.8465791207,-68.63975257,20.53621308,
25353333,-0.8475126802,-69.47947829,20.51362765,
25462222,-0.8492870426,-70.32614265,20.47083781,
25571111,-0.8510661446,-71.2171854,20.42811295,
25680000,-0.8516180022,-72.06087436,20.41489648,
25788888,-0.8545292161,-72.92872079,20.34545842,
25897777,-0.8567768178,-73.76530442,20.29217184,
26006666,-0.8570323858,-74.64869757,20.28613049,
26115555,-0.8587539435,-75.5192257,20.24552855,
26224444,-0.8614092474,-76.40537082,20.18322318,
26333333,-0.8633529788,-77.3014869,20.13785766,
26442222,-0.8664024614,-78.19753231,20.06709509,
26551111,-0.8685414122,-79.09422415,20.01775795,
26660000,-0.8723705066,-79.99897331,19.93004062,
26768888,-0.8741501407,-80.89967592,19.88953435,
26877777,-0.8784917567,-81.80985852,19.79140393,
26986666,-0.8823815411,-82.72404857,19.70430679,
27095555,-0.8865106675,-83.64998178,19.61268751,
27204444,-0.8900091049,-84.56517519,19.53572813,
27313333,-0.8951635443,-85.51061478,19.42343667,
27422222,-0.8982189385,-86.46372522,19.35748264,
27531111,-0.9037653112,-87.39735579,19.23889864,
27640000,-0.9079937247,-88.34977458,19.14946733,
27748888,-0.912348553,-89.31760607,19.05822962,
27857777,-0.9162751876,-90.26226154,18.9767072,
27966666,-0.9227384279,-91.23044044,18.84403359,
28075555,-0.9306407131,-92.21343856,18.68432641,
28184444,-0.935175281,-93.18635717,18.59390158,
28293333,-0.9401172619,-94.15904743,18.49634679,
28402222,-0.9465862776,-95.14185571,18.37018918,
28511111,-0.9541417597,-96.13304125,18.2250114,
28620000,-0.9599329168,-97.13507813,18.11528364,
28728888,-0.9663719573,-98.12166554,17.99482573,
28837777,-0.9737055356,-99.13080934,17.85957584,
28946666,-0.9809116891,-100.1301892,17.72864796,
29055555,-0.9881555078,-101.1504311,17.59896236,
29164444,-0.9952967393,-102.1663759,17.47296316,
29273333,-1.002630937,-103.1855594,17.34542957,
29382222,-1.00941597,-104.2162209,17.22909748,
29491111,-1.018642403,-105.2440773,17.0733959,
29600000,-1.033437966,-106.2862464,16.82952233,
29708888,-1.034670089,-107.3138972,16.80952836,
29817777,-1.04105247,-108.3657962,16.70671824,
29926666,-1.049435973,-109.4223893,16.57357558,
30035555,-1.057236641,-110.4841571,16.45158796,
30144444,-1.065814469,-111.5357109,16.3195109,
30253333,-1.073458924,-112.6017098,16.20358647,
30362222,-1.100169422,-113.6168825,15.81119926,
30471111,-1.09505117,-114.7467668,15.88490379,
30580000,-1.102958878,-115.8254618,15.77131855,
30688888,-1.111758968,-116.903654,15.64681741,
30797777,-1.11832413,-117.9912644,15.55521328,
30906666,-1.13003932,-119.0568976,15.3943984,
31015555,-1.13392758,-120.1578028,15.34175958,
31124444,-1.138194292,-121.2460436,15.28441176,
31233333,-1.149538733,-122.341014,15.1340076,
31342222,-1.156166458,-123.4462044,15.04750537,
31451111,-1.164621273,-124.5542287,14.93858792,
31560000,-1.172604739,-125.6591553,14.8371864,
31668888,-1.180346666,-126.7713962,14.74016483,
31777777,-1.189153578,-127.8878222,14.63133519,
31886666,-1.197494387,-129.0127242,14.52974352,
31995555,-1.204381372,-130.1306735,14.44692182,
32104444,-1.212011161,-131.2534794,14.35626801,
32213333,-1.219964624,-132.3920493,14.26297749,
32322222,-1.229046883,-133.5144303,14.15792572,
32431111,-1.236523014,-134.6467994,14.07261146,
32540000,-1.243575568,-135.7976051,13.9930727,
32648888,-1.252068562,-136.9356475,13.89847991,
32757777,-1.259112892,-138.0897296,13.82099179,
32866666,-1.266203001,-139.2265671,13.74387223,
32975555,-1.273769772,-140.3802501,13.66251671,
33084444,-1.280163007,-141.5386423,13.59452958,
33193333,-1.287262997,-142.6954242,13.51981951,
33302222,-1.293249843,-143.863858,13.45746122,
33411111,-1.299855149,-145.0295106,13.38932884,
33520000,-1.305950529,-146.2044101,13.32706882,
33628888,-1.312758438,-147.3629811,13.25821559,
33737777,-1.318306497,-148.5408494,13.20263104,
33846666,-1.326067427,-149.7051386,13.12565818,
33955555,-1.329629853,-150.858063,13.09062754,
34064444,-1.337085909,-152.0210085,13.01791476,
34173333,-1.342551575,-153.1832646,12.96512665,
34282222,-1.347297739,-154.3630688,12.9196357,
34391111,-1.35182261,-155.5216181,12.87656383,
34500000,-1.360827711,-156.7092521,12.791699,
34608888,-1.362813704,-157.8739136,12.77313409,
34717777,-1.367065495,-159.0439465,12.73357039,
34826666,-1.371318764,-160.2185175,12.69423891,
34935555,-1.376087614,-161.3976338,12.6504294,
35044444,-1.379307581,-162.5798173,12.62102054,
35153333,-1.383605733,-163.7496173,12.58197806,
35262222,-1.388308872,-164.927207,12.53953445,
35371111,-1.392256016,-166.1161158,12.50413512,
35480000,-1.39496917,-167.3027575,12.47991905,
35588888,-1.398223855,-168.497697,12.45099385,
35697777,-1.400855306,-169.6812811,12.42770595,
35806666,-1.403778778,-170.8862504,12.40193632,
35915555,-1.407623337,-172.0827302,12.36821085,
36024444,-1.410212763,-173.2844553,12.34559959,
36133333,-1.411960458,-174.47154,12.33038544,
36242222,-1.416058189,-175.6519545,12.29486117,
36351111,-1.418885834,-176.8337223,12.2704675,
36460000,-1.419789889,-177.9962918,12.26268891,
36568888,-1.421687974,-179.1670905,12.24638981,
36677777,-1.423863706,179.6555325,12.22776009,
36786666,-1.425291343,178.4855135,12.21556693,
36895555,-1.427882055,177.3171283,12.19350256,
37004444,-1.429695427,176.1476549,12.17810626,
37113333,-1.430521425,174.9702412,12.17110616,
37222222,-1.432903499,173.7970354,12.15096404,
37331111,-1.434554081,172.6181963,12.13704653,
37440000,-1.436686445,171.413303,12.11911413,
37548888,-1.437740485,170.2725696,12.11026973,
37657777,-1.439687769,169.1089887,12.09396431,
37766666,-1.441822416,167.9215961,12.07614074,
37875555,-1.443007842,166.7336214,12.06626566,
37984444,-1.445320017,165.5924121,12.04705103,
38093333,-1.447300912,164.4400235,12.03063835,
38202222,-1.450222484,163.2840154,12.0065137,
38311111,-1.452426034,162.1224216,11.98838243,
38420000,-1.454628644,160.9625676,11.97031392,
38528888,-1.457888427,159.8139974,11.94367359,
38637777,-1.460151567,158.662922,11.92524837,
38746666,-1.461737207,157.5017164,11.91237305,
38855555,-1.464982987,156.3582669,11.8861046,
38964444,-1.467838559,155.2139596,11.86309043,
39073333,-1.470915736,154.0664791,11.83839054,
39182222,-1.473431631,152.9254437,11.81827278,
39291111,-1.47643449,151.7960656,11.79435108,
39400000,-1.480339342,150.6623433,11.76338936,
39508888,-1.483355837,149.5305438,11.73958332,
39617777,-1.486062805,148.4173807,11.71830253,
39726666,-1.490520225,147.287079,11.68342943,
39835555,-1.494067365,146.1799253,11.65582705,
39944444,-1.498022226,145.0613641,11.62520644,
40053333,-1.500515128,143.9537894,11.60598824,
40162222,-1.505566468,142.8460217,11.56724222,
40271111,-1.508234441,141.7408093,11.54688268,
40380000,-1.51287569,140.6647254,11.51163644,
40488888,-1.517731554,139.591155,11.47499172,
40597777,-1.522367445,138.4985404,11.4402257,
40706666,-1.526239083,137.4182215,11.41135331,
40815555,-1.531320497,136.3489516,11.37368126,
40924444,-1.5371636,135.288149,11.33067092,
41033333,-1.541260992,134.2297122,11.30070558,
41142222,-1.546918895,133.171328,11.2595894,
41251111,-1.55187075,132.1247994,11.22385078,
41360000,-1.55835927,131.0710072,11.1773664,
41468888,-1.56407466,130.0215435,11.13674114,
41577777,-1.569984929,128.9785441,11.09504259,
41686666,-1.575477936,127.9501296,11.0565692,
41795555,-1.582145239,126.9195141,11.01023087,
41904444,-1.588858409,125.8973467,10.96396775,
42013333,-1.595668635,124.8743322,10.91743464,
42122222,-1.602462359,123.8474302,10.87140947,
42231111,-1.60993616,122.8256446,10.821227,
42340000,-1.617267893,121.8147995,10.77245038,
42448888,-1.623070678,120.787189,10.73415886,
42557777,-1.631613948,119.7578662,10.67828051,
42666666,-1.637886389,118.7566459,10.63762699,
42775555,-1.645584362,117.7538542,10.58815901,
42884444,-1.653571634,116.7779904,10.53732028,
42993333,-1.662290462,115.7907503,10.48238463,
43102222,-1.672169468,114.8178634,10.42083331,
43211111,-1.681754337,113.8479581,10.3618079,
43320000,-1.689343961,112.8458494,10.31554621,
43428888,-1.700231208,111.8908351,10.24990767,
43537777,-1.710500006,110.9969463,10.18876587,
43646666,-1.720351007,110.0300923,10.13079986,
43755555,-1.730639541,109.0778772,10.0709661,
43864444,-1.741827126,108.1113525,10.00670866,
43973333,-1.752476868,107.1708566,9.946305143,
44082222,-1.764173029,106.2336182,9.880809627,
44191111,-1.774916601,105.2994129,9.821411556,
44300000,-1.787590576,104.381839,9.752261962,
44408888,-1.799578406,103.4813982,9.687755467,
44517777,-1.813090099,102.5802835,9.616075254,
44626666,-1.825950181,101.7063706,9.54884075,
44735555,-1.839678202,100.8065993,9.478109615,
44844444,-1.851995918,99.94184124,9.415540669,
44953333,-1.865696596,99.06668385,9.346921028,
45062222,-1.881308781,98.19867383,9.269950621,
45171111,-1.895328424,97.33940325,9.201916484,
45280000,-1.909876019,96.4744437,9.132380422,
45388888,-1.924049723,95.61531199,9.065646884,
45497777,-1.939607779,94.76727485,8.993522858,
45606666,-1.955008089,93.90016375,8.923265302,
45715555,-1.971294009,93.02717211,8.850166765,
45824444,-1.986946059,92.2250487,8.781047371,
45933333,-2.003560303,91.42227297,8.708865597,
46042222,-2.02063913,90.60455042,8.635908096,
46151111,-2.037114733,89.81595089,8.566691908,
46260000,-2.054447572,89.01789584,8.495078107,
46368888,-2.071415894,88.22556319,8.426136664,
46477777,-2.088561939,87.44232145,8.357616365,
46586666,-2.105724073,86.66121317,8.290154541,
46695555,-2.123204408,85.89247623,8.222568481,
46804444,-2.140122183,85.14580932,8.158214039,
46913333,-2.158698048,84.39273297,8.088719955,
47022222,-2.175605247,83.63518805,8.026505369,
47131111,-2.194934618,82.91394231,7.956558095,
47240000,-2.21171677,82.16802738,7.896825231,
47348888,-2.230173676,81.46790034,7.832174992,
47457777,-2.246383896,80.76118902,7.776275397,
47566666,-2.265488258,80.05094533,7.711428212,
47675555,-2.281500206,79.35554102,7.657919057,
47784444,-2.298606481,78.66846609,7.601581196,
47893333,-2.315953104,78.00110841,7.545306565,
48002222,-2.331106707,77.34279038,7.496835781,
48111111,-2.347955299,76.6469545,7.443682273,
48220000,-2.363578662,76.02324795,7.395075319,
48328888,-2.377355904,75.39150552,7.352745296,
48437777,-2.392115355,74.7610114,7.307941803,
48546666,-2.405956441,74.1316358,7.266428673,
48655555,-2.418393682,73.53763722,7.229533957,
48764444,-2.431669972,72.92589488,7.190569357,
48873333,-2.444131239,72.32316693,7.15438439,
48982222,-2.45457244,71.73247178,7.12435003,
49091111,-2.4640893,71.14627002,7.097197754,
49200000,-2.471475302,70.58441244,7.076270049,
49308888,-2.480690039,69.97768574,7.050336652,
49417777,-2.488579146,69.40687517,7.028287659,
49526666,-2.492544583,68.83839162,7.017257863,
49635555,-2.498167141,68.2689499,7.001679248,
49744444,-2.50206319,67.71475786,6.990925681,
49853333,-2.503586508,67.15270516,6.986730302,
49962222,-2.505525164,66.59987106,6.981398467,
50071111,-2.504470172,66.05161887,6.984298953,
50180000,-2.503732181,65.49716199,6.986329372,
50288888,-2.501148514,64.95489695,6.993447265,
50397777,-2.49746599,64.39594495,7.003618097,
50506666,-2.494069024,63.85590979,7.013027053,
50615555,-2.487133362,63.30384937,7.032317891,
50724444,-2.480419594,62.74795724,7.051095013,
50833333,-2.472034041,62.17490442,7.074692026,
50942222,-2.463841073,61.62105671,7.097903281,
51051111,-2.453183539,61.0844989,7.128330395,
51160000,-2.443285313,60.53067844,7.15682903,
51268888,-2.429847467,59.94961275,7.195892853,
51377777,-2.417891023,59.4088782,7.231017672,
51486666,-2.405875628,58.83797011,7.266669657,
51595555,-2.391420495,58.26161073,7.310038624,
51704444,-2.375099113,57.6639418,7.359645354,
51813333,-2.360838039,57.07042937,7.403555052,
51922222,-2.343444591,56.47183686,7.457837167,
52031111,-2.328453177,55.87341193,7.505277607,
52140000,-2.311335209,55.26069045,7.560204612,
52248888,-2.293693267,54.63047861,7.617675875,
52357777,-2.275932629,54.00511097,7.676439065,
52466666,-2.256275791,53.37233713,7.742560827,
52575555,-2.238472091,52.71810494,7.803456896,
52684444,-2.220584475,52.07790615,7.865628865,
52793333,-2.202191174,51.42263094,7.93061745,
52902222,-2.184218731,50.7452625,7.995181992,
53011111,-2.166451794,50.08664004,8.060066789,
53120000,-2.147844671,49.39420888,8.129176741,
53228888,-2.129544645,48.70045112,8.198330112,
53337777,-2.111335988,47.96988578,8.268334031,
53446666,-2.092424094,47.26846574,8.342337837,
53555555,-2.075969772,46.56711839,8.407827207,
53664444,-2.05852823,45.82813868,8.478394311,
53773333,-2.041446073,45.08252769,8.548681684,
53882222,-2.02592275,44.32733331,8.613587725,
53991111,-2.008694941,43.56286858,8.686800392,
54100000,-1.993643474,42.79728655,8.751804601,
54208888,-1.977872049,42.01342924,8.82098432,
54317777,-1.962515958,41.2156542,8.889415237,
54426666,-1.948130365,40.41706904,8.954504239,
54535555,-1.934104542,39.60022555,9.018901587,
