Frequency,S11_Magnitude,S11_Magnitude (linear),S11_Phase,
500000000,-0.6910621726,0.9235212467,106.3562111,
501833944,-0.7847860464,0.9136096911,94.64738997,
503667889,-10.85906654,0.2864485795,-169.1447249,
505501833,-0.6987345204,0.9227058498,107.0703513,
507335778,-0.714903278,0.9209898333,95.36173019,
509169723,-1.175042388,0.8734697731,79.66194832,
511003667,-24.95587883,0.05652050826,-27.24260863,
512837612,-1.378234901,0.853273494,120.684022,
514671557,-0.8013244616,0.9118717826,105.376678,
516505501,-0.6995834922,0.9226156676,96.39725782,
518339446,-0.788146086,0.9132563397,85.23643102,
520173391,-7.881346824,0.403582809,45.74980137,
522007335,-1.406490652,0.8505022511,117.4561174,
523841280,-0.7981899003,0.9122009181,101.8924277,
525675225,-0.691941183,0.9234277913,95.16176007,
527509169,-0.660702602,0.9267548551,89.60398866,
529343114,-0.8385463693,0.9079724716,79.75501122,
531177059,-1.423022905,0.8488849906,101.9878543,
533011003,-0.7480255967,0.9174844665,89.73479951,
534844948,-0.6708138534,0.9256766467,85.66318644,
536678892,-0.6477033649,0.9281428678,82.59007826,
538512837,-0.6367092551,0.9293184026,79.94862846,
540346782,-0.6304303272,0.9299904389,77.47497462,
542180726,-0.6251876504,0.930551937,75.11646901,
544014671,-0.6158299783,0.9315549998,72.74955992,
545848616,-0.602336547,0.9330032846,70.14703896,
547682560,-1.070674659,0.8840285014,69.88044942,
549516505,-0.6763311731,0.9250888391,66.72052631,
551350450,-0.6568131436,0.92716994,64.12288446,
553184394,-0.6485464543,0.9280527827,61.41543431,
555018339,-0.6453782623,0.9283913532,58.02549023,
556852284,-0.701497146,0.9224124216,51.46799693,
558686228,-2.034225203,0.791204484,77.30751851,
560520173,-1.072660138,0.8838264473,54.44742078,
562354118,-0.778192386,0.9143034967,56.72065454,
564188062,-1.0011681,0.8911310885,49.63482636,
566022007,-0.7970275853,0.9123229937,52.21242564,
567855951,-0.7530028534,0.916958873,49.23404652,
569689896,-0.7442179681,0.9178867519,46.70242548,
571523841,-0.7436787674,0.917943734,44.29562545,
573357785,-0.750983297,0.9171720999,41.90077956,
575191730,-0.7949259402,0.9125437669,39.4027486,
577025675,-0.7346354214,0.9188999522,37.41713316,
578859619,-0.7510401186,0.9171660999,34.73820596,
580693564,-0.7959124413,0.9124401305,31.16044191,
582527509,-0.761162184,0.9160979068,31.50518815,
584361453,-0.7628891132,0.9159157862,28.26355976,
586195398,-0.7700492539,0.9151610698,25.6369053,
588029343,-0.7780569341,0.9143177549,22.93711236,
589863287,-0.7885889345,0.9132097787,20.17679273,
591697232,-0.8030679268,0.9116887666,17.19432261,
593531177,-0.8281136957,0.9090636979,13.90077889,
595365121,-0.8649795918,0.9052134962,9.82762405,
597199066,-0.9759080464,0.8937264223,3.315897059,
599033011,-3.612211433,0.6597652362,-28.9045149,
600866955,-1.184656657,0.8725034787,15.25818749,
602700900,-2.617544452,0.739814395,24.09367937,
604534844,-0.8868301066,0.9029391727,8.004695809,
606368789,-0.9004163476,0.9015279229,2.463846511,
608202734,-0.9481881239,0.8965831936,-2.057855994,
610036678,-1.377158879,0.8533792055,-6.256363088,
611870623,-0.9544450039,0.8959375726,-10.44908658,
613704568,-1.087730971,0.8822942552,-16.24714484,
615538512,-1.336621693,0.8573712481,-24.29802286,
617372457,-2.27676955,0.7694165479,-41.02304396,
619206402,-15.79522608,0.1622701717,116.8469083,
621040346,-1.052599843,0.8858700271,6.502908427,
622874291,-0.8019790384,0.9118030657,-10.12577113,
624708236,-0.8170373841,0.9102236822,-19.18295769,
626542180,-0.8787979501,0.9037745394,-26.8140421,
628376125,-0.9900105289,0.892276538,-35.31134124,
630210070,-1.310866326,0.8599172949,-48.76289179,
632044014,-7.095204072,0.4418143285,-106.2020072,
633877959,-2.656445176,0.7365084624,16.2236614,
635711903,-1.112689375,0.8797626724,-22.56322738,
637545848,-0.9803122398,0.8932733718,-39.49349219,
639379793,-1.387494266,0.8523643688,-62.20047896,
641213737,-2.307726694,0.7666791723,3.77405749,
643047682,-1.112621935,0.8797695031,-35.72222963,
644881627,-1.128823835,0.8781299875,-47.12335251,
646715571,-1.246448229,0.8663184996,-55.75979871,
648549516,-1.501827778,0.8412181049,-64.56215519,
650383461,-2.41072393,0.7576415842,-76.40476349,
652217405,-4.508737605,0.5950632361,-43.58904448,
654051350,-1.051998051,0.8859314058,-72.11155207,
655885295,-1.256321647,0.8653342982,-88.32931799,
657719239,-3.085636625,0.7010002434,-97.20708915,
659553184,-2.827241961,0.722167437,-122.4010327,
661387129,-4.914792476,0.5678849722,-166.6784178,
663221073,-6.692356688,0.4627880814,89.4149169,
665055018,-2.846159862,0.7205962653,1.312370772,
666888962,-2.188873196,0.7772421424,-40.37729841,
668722907,-1.427364733,0.8484607632,-62.39758018,
670556852,-0.9630358337,0.8950518784,-76.84162197,
672390796,-1.026139569,0.8885728135,-96.15604852,
674224741,-2.091183214,0.7860331085,-126.4142649,
676058686,-9.11018009,0.3503410244,55.73612519,
677892630,-1.888368954,0.8046028235,-92.57518722,
679726575,-2.275054291,0.7695685046,-136.2334104,
681560520,-5.200540632,0.5495066701,136.4738847,
683394464,-3.052682932,0.7036648436,-41.12840688,
685228409,-2.179633824,0.7780693519,-81.5509896,
687062354,-2.199318631,0.7763080121,-120.1788375,
688896298,-3.643473288,0.6573949076,-169.0326465,
690730243,-14.44904268,0.1894732332,-158.3438159,
692564188,-5.238835039,0.5470893342,21.89309686,
694398132,-2.366276095,0.7615285595,-40.43949814,
696232077,-1.784027888,0.8143265706,-79.72005757,
698066022,-1.610746842,0.8307352862,-87.83806251,
699899966,-1.122039442,0.8788161471,-109.6081964,
701733911,-2.028214881,0.7917521584,-145.6837966,
703567855,-1.485938108,0.842758409,-124.9190761,
705401800,-10.52146901,0.2978012726,52.12051977,
707235745,-2.092495916,0.7859143239,-108.8794325,
709069689,-1.864721015,0.8067963954,-139.2348693,
710903634,-3.254180654,0.6875289143,-177.0298125,
712737579,-6.473890638,0.4745756684,-53.54558617,
714571523,-1.482875648,0.8430556001,-150.0879738,
716405468,-4.220260477,0.6151584247,131.4132661,
718239413,-1.92917761,0.8008314486,-100.11733,
720073357,-1.248054175,0.8661583397,-138.6902296,
721907302,-1.312015327,0.8598035494,-163.33715,
723741247,-3.434656504,0.673390794,153.7902502,
725575191,-3.37545075,0.6779965165,-141.7475574,
727409136,-1.95325381,0.7986147176,178.8089364,
729243081,-5.40818363,0.5365260566,-86.16648858,
731077025,-3.803991253,0.6453576127,148.8312835,
732910970,-1.470730747,0.8442352131,-156.1762075,
734744914,-1.003397522,0.8909023897,176.3471407,
736578859,-1.012055995,0.890014742,159.5173841,
738412804,-1.413633688,0.849803109,152.0876351,
740246748,-1.031543666,0.8880201424,132.3131346,
742080693,-1.180218983,0.8729493599,114.6855601,
743914638,-1.52102302,0.8393611212,90.70904797,
745748582,-3.042541731,0.7044868865,39.90404069,
747582527,-3.937546963,0.635510385,-158.7658354,
749416472,-1.287702584,0.8622136039,113.2561702,
751250416,-1.121400852,0.8788807603,73.08895475,
753084361,-1.210214603,0.8699399392,33.10618257,
754918306,-1.96123933,0.797880835,-31.99171509,
756752250,-1.622730951,0.8295898932,-58.64122755,
758586195,-2.18576662,0.7775201788,-140.7443105,
760420140,-1.480812112,0.8432559115,-173.7642059,
762254084,-1.304765596,0.8605214893,136.3984506,
764088029,-1.375270859,0.8535647215,95.95314534,
765921973,-1.549221696,0.8366405601,54.68814797,
767755918,-1.878440291,0.8055230745,2.19667287,
769589863,-3.046755195,0.7041452278,-89.4916341,
771423807,-4.320114597,0.6081269779,178.2919219,
773257752,-3.819490508,0.6442070519,-38.73489545,
775091697,-2.228101295,0.7737397971,171.5939408,
776925641,-2.02482593,0.7920611345,70.36646847,
778759586,-2.347953388,0.763136684,-12.2653535,
780593531,-2.296451446,0.7676750531,-85.39567651,
782427475,-2.041214696,0.7905680616,-148.6009887,
784261420,-3.249148484,0.6879273495,146.343793,
786095365,-3.141643147,0.6964947428,117.315675,
787929309,-3.311506334,0.6830062586,-173.5399834,
789763254,-1.63719995,0.8282091085,113.7953543,
791597199,-2.317009843,0.7658602124,63.74944872,
793431143,-2.745056162,0.7290330077,57.36821398,
795265088,-2.895595205,0.7165066735,-12.75766968,
797099033,-8.422540745,0.3792040462,172.2702819,
798932977,-4.666921259,0.584324286,-73.31922714,
800766922,-5.04646201,0.5593413155,55.47744129,
802600866,-6.940869753,0.4497348189,-74.63234911,
804434811,-3.669879951,0.6553993442,165.1058137,
806268756,-8.655393226,0.3691733468,-8.263038972,
808102700,-3.063458873,0.7027924,118.038667,
809936645,-1.98184565,0.7959901939,46.91975375,
811770590,-1.690962407,0.8230986316,-3.72431036,
813604534,-2.093173809,0.7858529894,-53.79843555,
815438479,-3.005182506,0.7075235088,-116.2228866,
817272424,-7.657404877,0.4141233859,110.9134227,
819106368,-6.492781308,0.4735446502,-37.43883001,
820940313,-3.997067246,0.6311704205,-68.58726792,
822774258,-2.920800645,0.7144304685,-118.5364263,
824608202,-3.326638726,0.6818173741,-170.489931,
826442147,-8.904378466,0.3587410515,102.8593003,
828276092,-9.534647567,0.3336319406,-1.121726082,
830110036,-5.697952378,0.5189223559,173.9868483,
831943981,-6.87538284,0.4531383907,-118.1633273,
833777925,-1.998547196,0.7944611053,136.8396518,
835611870,-1.966732318,0.7973764118,67.04184345,
837445815,-3.776372199,0.6474129617,-15.11122748,
839279759,-14.01152082,0.1992617587,-160.8820081,
841113704,-6.6005389,0.4677061224,12.58929198,
842947649,-4.033724031,0.6285123249,-53.52226881,
844781593,-2.171951415,0.7787578353,-89.94278425,
846615538,-2.643709102,0.737589193,-121.3685059,
848449483,-1.716672077,0.8206659151,-154.4370766,
850283427,-2.07865646,0.7871675399,178.4870827,
852117372,-4.159900609,0.6194481632,-125.1145829,
853951317,-1.627206488,0.8291625445,169.6364932,
855785261,-1.577510596,0.8339201546,147.3207855,
857619206,-1.674792323,0.8246323801,125.5866088,
859453151,-14.6882561,0.1843262531,74.95961796,
861287095,-3.791997447,0.6462493625,126.8158053,
863121040,-1.111095794,0.8799240952,85.76377978,
864954984,-1.466129742,0.8446825317,50.04410785,
866788929,-3.519157909,0.6668714188,-16.31797204,
868622874,-3.254710164,0.6874870024,25.13989022,
870456818,-3.84357422,0.6424233075,-77.2831517,
872290763,-4.518144225,0.5944191451,-147.6056856,
874124708,-2.974166432,0.7100544906,158.8973696,
875958652,-3.609162242,0.6599968882,92.89171772,
877792597,-3.490615983,0.6690663698,174.6777871,
879626542,-2.327836799,0.7649061629,112.405987,
881460486,-1.890631172,0.8043932941,76.91991724,
883294431,-3.073397601,0.7019886978,-1.135446762,
885128376,-3.293425763,0.6844294871,155.5012107,
886962320,-4.044565907,0.6277282945,55.84042333,
888796265,-15.01975208,0.1774240122,6.678297192,
890630210,-5.951702795,0.5039818081,-29.87820197,
892464154,-3.401299512,0.6759818329,-164.5008615,
894298099,-2.323721638,0.7652686425,143.4764436,
896132044,-3.11764271,0.6984219252,130.7116657,
897965988,-1.740595005,0.8184087232,103.5520875,
899799933,-1.327726251,0.8582497537,86.99426907,
901633877,-1.486332288,0.8427201642,67.17868994,
903467822,-7.14631599,0.4392221167,79.38909613,
905301767,-5.746506927,0.5160296472,103.3700257,
907135711,-2.745358148,0.7290076616,63.47960145,
908969656,-1.659151749,0.8261186231,52.4398701,
910803601,-1.655512747,0.8264648026,40.08539659,
912637545,-1.350251224,0.8560269523,33.15126075,
914471490,-2.28794659,0.7684270962,15.87668717,
916305435,-1.520111211,0.8394492384,5.002393623,
918139379,-1.492177662,0.8421532265,-30.34280988,
919973324,-13.32819431,0.2155709742,-55.5791225,
921807269,-2.165523994,0.7793343171,55.1507946,
923641213,-1.453361791,0.8459250982,-0.7586986056,
925475158,-1.496626001,0.8417220417,-45.66324331,
927309103,-8.509466202,0.375428026,174.192558,
929143047,-4.286652944,0.610474254,-43.10323354,
930976992,-3.44312875,0.6727342866,-113.5198216,
932810936,-2.409035308,0.7577888915,147.3298382,
934644881,-2.589259986,0.7422274308,80.56327916,
936478826,-2.135693325,0.7820154507,75.4525019,
938312770,-5.873537345,0.5085376746,43.4962732,
940146715,-1.81596016,0.8113383266,14.52239207,
941980660,-3.95290112,0.6343879776,51.97472385,
943814604,-2.167065819,0.7791959904,1.094060872,
945648549,-1.423225627,0.8488651785,-20.91170909,
947482494,-11.01176187,0.2814569041,164.3684471,
949316438,-2.595494263,0.7416948899,-44.90878005,
951150383,-2.792733184,0.7250422935,148.9566466,
952984328,-1.92398214,0.8013106097,59.69861903,
954818272,-2.175756039,0.7784167957,7.188093202,
956652217,-3.535840925,0.6655917861,62.38487537,
958486162,-1.577506445,0.8339205531,10.65838566,
960320106,-2.08169458,0.7868922554,-5.562778282,
962154051,-3.633041012,0.6581849528,-74.17398401,
963987995,-4.55506192,0.5918980429,-25.81501812,
965821940,-3.100369271,0.6998122436,52.01336085,
967655885,-1.692833874,0.8229213053,-2.085053877,
969489829,-5.177626309,0.5509582424,-50.02048448,
971323774,-1.837310779,0.8093464405,-46.64793226,
973157719,-3.614511346,0.6595905619,-114.6857112,
974991663,-5.140081976,0.5533448868,-12.17820681,
976825608,-12.6865946,0.2320973971,143.9000196,
978659553,-2.303246408,0.7670747366,54.26620561,
980493497,-1.450431018,0.8462105765,25.83529663,
982327442,-1.223899911,0.868570359,-8.771762838,
984161387,-7.136193499,0.4397342822,-91.16118123,
985995331,-1.562892878,0.8353247629,-14.64143794,
987829276,-1.888626604,0.804578957,-20.28399839,
989663221,-2.079214178,0.7871169978,-74.33182991,
991497165,-4.967543504,0.5644465525,149.7215882,
993331110,-1.796913558,0.8131193984,32.42036104,
995165055,-1.148169624,0.8761763346,-0.1973986046,
996998999,-1.000958737,0.8911525685,-18.69843246,
998832944,-1.067384672,0.8843634116,-36.08530582,
1000666888,-4.95787027,0.5650755111,-83.58427069,
1002500833,-2.345293822,0.7633703876,-7.004608606,
1004334778,-3.246241902,0.688157591,-70.19083094,
1006168722,-1.318183979,0.8591931403,-37.39881421,
1008002667,-1.147109776,0.8762832518,-45.70434106,
1009836612,-3.040404548,0.7046602485,-29.44341868,
1011670556,-0.8988560222,0.9016898871,-58.31409408,
1013504501,-1.040558333,0.8870989871,-72.65892856,
1015338446,-5.711002601,0.51814328,-78.73605975,
1017172390,-2.572340227,0.7436746687,-108.7122289,
1019006335,-3.927945159,0.6362132975,-35.59206549,
1020840280,-1.39326511,0.851798252,-86.95438236,
1022674224,-4.254599873,0.612731216,-33.72669379,
1024508169,-1.622433695,0.8296182846,-107.5361518,
1026342114,-3.297949557,0.6840731146,-176.8367671,
1028176058,-7.986229261,0.3987388362,-114.3273155,
1030010003,-7.401845828,0.4264888765,-4.846180883,
1031843947,-2.467601236,0.7526965721,-49.39839702,
1033677892,-1.97754555,0.7963843601,-44.64936233,
1035511837,-1.117171864,0.8793087742,-82.8338048,
1037345781,-5.994967744,0.5014776855,94.34018436,
1039179726,-2.047609825,0.7899862072,-35.4093013,
1041013671,-1.230474991,0.8679131139,-65.58396494,
1042847615,-2.304466473,0.7669669968,-86.3521626,
1044681560,-2.292304273,0.7680416754,-66.3530515,
1046515505,-5.569709676,0.5266408175,-40.98788635,
1048349449,-3.516392557,0.6670837664,-112.8499887,
1050183394,-1.543705103,0.837172097,-50.83844909,
1052017339,-0.9624760307,0.895109566,-80.57568768,
1053851283,-2.29490622,0.7678116352,-104.2644141,
1055685228,-3.132054685,0.6972640365,-122.4901932,
1057519173,-6.519445948,0.472093154,-4.680634973,
1059353117,-1.279206929,0.8630573462,-80.4046467,
1061187062,-3.058090326,0.7032269139,-93.25122057,
1063021007,-14.9759039,0.1783219501,51.15643806,
1064854951,-2.134564765,0.7821170648,-84.00711674,
1066688896,-3.802461482,0.6454712839,-105.1211026,
1068522840,-3.405487128,0.6756560091,-117.6913359,
1070356785,-10.57041431,0.2961278713,-171.5313379,
1072190730,-16.03846006,0.1577890992,47.21352676,
1074024674,-1.215214589,0.8694393069,-77.51051561,
1075858619,-1.096565542,0.8813973144,-99.3143415,
1077692564,-3.041037913,0.7046088673,-112.1039363,
1079526508,-5.042266352,0.5596115667,-94.51523711,
1081360453,-1.210521476,0.8699092046,-108.0019236,
1083194398,-0.9593222652,0.895434631,-123.0047243,
1085028342,-3.131849619,0.6972804985,-165.3112514,
1086862287,-7.060445582,0.4435858876,172.3953355,
1088696232,-12.83648872,0.2281264088,-52.84398918,
1090530176,-1.52038586,0.8394226954,-97.65088038,
1092364121,-1.353479303,0.8557088722,-108.2073649,
1094198066,-1.550964601,0.8364726971,-126.2846821,
1096032010,-1.8965838,0.8038422148,-115.8020171,
1097865955,-7.259323652,0.4335446361,-91.20241661,
1099699899,-1.76094494,0.81649354,-121.7651134,
1101533844,-1.007116076,0.8905210633,-126.0663839,
1103367789,-1.873033813,0.8060246234,-120.2196829,
1105201733,-1.698498889,0.8223847637,-135.9293089,
1107035678,-2.466881198,0.7527589713,-137.8009408,
1108869623,-3.634612951,0.6580658478,-96.69697035,
1110703567,-1.183695758,0.8726000069,-137.4427679,
1112537512,-1.711991227,0.8211082934,-132.388705,
1114371457,-1.063000884,0.8848098645,-148.5389985,
1116205401,-1.755827916,0.8169746937,-172.1011329,
1118039346,-2.166996444,0.7792022139,179.4040834,
1119873291,-8.631802892,0.3701773613,12.98424545,
1121707235,-1.387602567,0.8523537411,-136.0790122,
1123541180,-2.842590363,0.7208924578,171.4999249,
1125375125,-2.482675768,0.7513913853,-85.10244143,
1127209069,-1.342209704,0.8568198412,-119.4958457,
1129043014,-1.727966805,0.8195994527,-147.7968236,
1130876958,-1.057976109,0.8853218739,-131.8172782,
1132710903,-0.9800575103,0.8932995691,-149.0340639,
1134544848,-1.51214188,0.8402197892,-146.5418725,
1136378792,-3.446933574,0.6724396622,-131.3657341,
1138212737,-0.8885735415,0.9027579526,-158.0372696,
1140046682,-1.276759554,0.8633005594,-155.4455329,
1141880626,-1.029766005,0.8882019038,-172.6694675,
1143714571,-2.807020758,0.723850639,-159.3485978,
1145548516,-1.332572483,0.8577710328,162.299111,
1147382460,-10.34404918,0.3039467759,41.43811674,
1149216405,-3.017414925,0.7065277982,-142.3978304,
1151050350,-5.546875796,0.5280270973,-164.7187243,
1152884294,-1.293295048,0.861658641,168.3838198,
1154718239,-10.47458183,0.2994131765,134.3575907,
1156552184,-2.703205141,0.7325541667,-100.3982667,
1158386128,-4.694409488,0.5824779983,-147.7910616,
1160220073,-1.234274012,0.8675335903,-153.7975359,
1162054018,-1.722072348,0.8201558417,173.0376543,
1163887962,-12.31004716,0.2423804804,19.37028468,
1165721907,-1.538717846,0.8376529218,-149.2259879,
1167555851,-2.392785722,0.7592078919,-166.5002311,
1169389796,-4.218553981,0.6152792953,-132.3611893,
1171223741,-1.036805389,0.8874823619,-148.695915,
1173057685,-1.188810706,0.8720863014,-163.9824892,
1174891630,-0.8103274431,0.9109271112,-170.4904375,
1176725575,-1.268404307,0.8641313965,-173.859493,
1178559519,-1.065846866,0.8845199989,178.3568836,
1180393464,-1.350882099,0.8559647795,-172.1035728,
1182227409,-3.608709589,0.6600312839,175.7233023,
1184061353,-3.138386854,0.6967559038,143.714054,
1185895298,-2.098552669,0.7853664895,157.6625877,
1187729243,-1.577447419,0.8339262202,-172.0784088,
1189563187,-1.296370983,0.8613535557,-175.9304469,
1191397132,-0.8258570374,0.9092999101,170.1133677,
1193231077,-1.862984175,0.8069577395,163.3418785,
1195065021,-1.101456207,0.8809011758,155.4601527,
1196898966,-2.641963395,0.73773745,131.151979,
1198732910,-9.893993443,0.3201108008,173.0531143,
1200566855,-1.15274132,0.8757152929,163.2403187,
1202400800,-3.261735074,0.6869312065,-171.2578951,
1204234744,-4.470068542,0.597718328,133.1011241,
1206068689,-1.207500217,0.8702118424,176.0093903,
1207902634,-1.319862604,0.8590271097,166.9821501,
1209736578,-0.96741258,0.8946009829,152.3837962,
1211570523,-2.906156146,0.7156360216,126.4123785,
1213404468,-2.432504247,0.7557441387,171.3177571,
1215238412,-1.105109032,0.8805307933,152.8848845,
1217072357,-1.32967451,0.8580572684,134.7855682,
1218906302,-13.31140716,0.2159880094,22.2114216,
