Frequency,S11_Magnitude,S11_Magnitude (linear),S11_Phase,
500000000,-0.5781796536,0.9356017324,102.3151584,
501833944,-0.5912744224,0.9341922904,99.46601277,
503667889,-0.6186285982,0.9312548983,96.05757854,
505501833,-1.782867862,0.8144353336,90.05635735,
507335778,-0.6261011893,0.9304540713,91.45601096,
509169723,-0.6650701754,0.926288967,85.60794338,
511003667,-0.8323104799,0.9086245693,76.47240853,
512837612,-4.343035765,0.606524309,37.12248973,
514671557,-1.950450433,0.7988725126,70.188145,
516505501,-4.120931073,0.622233582,142.4372026,
518339446,-1.100606085,0.8809873972,99.17431049,
520173391,-3.077442809,0.7016618426,62.34151911,
522007335,-1.421328869,0.8490505674,114.8717051,
523841280,-0.7771148806,0.9144169253,99.1725777,
525675225,-0.679670385,0.9247332654,92.47670882,
527509169,-0.6435485325,0.9285869445,87.74499639,
529343114,-0.6363189481,0.9293601632,83.67199847,
531177059,-0.6377844235,0.9292033756,79.76574604,
533011003,-0.645662743,0.928360947,75.69480217,
534844948,-0.6752192866,0.9252072679,70.95133858,
536678892,-0.7508010871,0.9171913403,64.62628789,
538512837,-1.1818669,0.8727837566,53.7946099,
540346782,-2.917238796,0.7147234973,25.2580699,
542180726,-7.457294195,0.4237749587,146.9098088,
544014671,-1.635400211,0.8283807334,98.07258661,
545848616,-1.0197572,0.8892259744,84.03103813,
547682560,-0.8458884302,0.9072052994,75.68713636,
549516505,-0.8867668815,0.9029457453,65.11500318,
551350450,-1.519371687,0.8395207129,84.90774163,
553184394,-0.8662913885,0.9050767956,71.57878999,
555018339,-0.8895147174,0.9026601379,66.40132524,
556852284,-0.6715046039,0.9256030346,64.80703343,
558686228,-0.6692669382,0.9258415199,60.16935568,
560520173,-0.7004836472,0.922520058,55.19241028,
562354118,-1.043386527,0.8868101877,58.09500214,
564188062,-0.785018861,0.9135852032,51.1691798,
566022007,-1.854762849,0.8077218988,34.34329666,
567855951,-1.054943115,0.8856310701,57.49975034,
569689896,-0.8285489541,0.909018145,50.93002174,
571523841,-0.7873530398,0.9133397264,47.25994106,
573357785,-0.7687444879,0.9152985526,44.03394004,
575191730,-0.8301873339,0.9088466972,41.94390014,
577025675,-0.7976353627,0.912259158,39.02749043,
578859619,-0.7910824849,0.9129476515,36.2359647,
580693564,-0.7813211805,0.9139742095,33.22859527,
582527509,-0.8581132599,0.9059293646,30.99013289,
584361453,-0.8394827759,0.9078745903,27.60012041,
586195398,-0.8731707409,0.9043602453,23.36110552,
588029343,-1.640066156,0.8279358577,9.852439836,
589863287,-1.054450129,0.8856813374,26.34089635,
591697232,-1.157404575,0.8752452676,18.04080038,
593531177,-2.793894341,0.7249453741,31.22123634,
595365121,-0.864805523,0.9052316372,20.144152,
597199066,-0.8182524097,0.9100963645,15.55614888,
599033011,-0.8331690516,0.9085347592,11.71246755,
600866955,-0.8503226544,0.9067422812,8.220965459,
602700900,-0.8703447054,0.9046545352,4.658047507,
604534844,-0.9073119413,0.9008124978,0.3878798303,
606368789,-2.641008933,0.7378185219,-7.84707928,
608202734,-1.062855358,0.884824689,-2.37007337,
610036678,-1.04463447,0.8866827846,-7.583648908,
611870623,-1.108648661,0.880172037,-13.00914717,
613704568,-1.32230705,0.8587853901,-21.21476374,
615538512,-5.443768042,0.5343325093,-60.80088801,
617372457,-1.027774677,0.8884055565,-3.506799714,
619206402,-0.9897827799,0.8922999343,-16.83106921,
621040346,-1.152289547,0.875760842,-22.80744555,
622874291,-1.217538535,0.869206716,-30.12072769,
624708236,-1.374584264,0.853632196,-38.24994241,
626542180,-1.688280854,0.8233527821,-49.5591979,
628376125,-2.544834278,0.7460334254,-70.68850107,
630210070,-6.684964473,0.4631821095,-147.1047737,
632044014,-2.240187278,0.7726639253,37.70992662,
633877959,-0.9979505011,0.8914612601,-5.725406175,
635711903,-0.9546593114,0.8959154673,-23.33994375,
637545848,-1.42881249,0.8483193543,-34.31621918,
639379793,-1.283116493,0.862668967,-46.336153,
641213737,-1.833581226,0.8096940329,-43.32294577,
643047682,-1.911107437,0.802499237,-58.38461492,
644881627,-3.085018594,0.7010501237,-73.60680019,
646715571,-9.807399782,0.3233180948,-93.76629797,
648549516,-4.250460788,0.6130232703,-13.00012132,
650383461,-1.288437687,0.8621406362,-43.34126459,
652217405,-1.041516303,0.887001154,-60.35347419,
654051350,-1.186748833,0.8722933435,-74.06324972,
655885295,-1.597114614,0.8320401226,-88.83116571,
657719239,-2.64661848,0.7373421755,-109.3960451,
659553184,-7.010363899,0.4461509325,-155.1241904,
661387129,-8.587401309,0.3720745237,11.38811015,
663221073,-2.357755098,0.7622759978,-50.60444526,
665055018,-3.651558382,0.6567832689,-98.2634739,
666888962,-1.596928394,0.8320579612,-76.29362066,
668722907,-1.246478183,0.8663155121,-98.40146922,
670556852,-1.357900067,0.855273462,-117.6736924,
672390796,-1.512432404,0.8401916862,-138.3466241,
674224741,-1.96702835,0.7973492362,-168.7053035,
676058686,-5.259887688,0.545764918,137.4532749,
677892630,-7.087181898,0.4422225709,30.18624041,
679726575,-4.990664868,0.5629460246,171.569549,
681560520,-3.882625616,0.6395414823,85.52581854,
683394464,-2.562548346,0.7445135096,31.02463818,
685228409,-2.498993575,0.7499811039,-25.91039143,
687062354,-5.02730031,0.5605766249,11.03963104,
688896298,-2.033972481,0.7912275049,-43.90946106,
690730243,-3.166823515,0.6944785305,-40.02644745,
692564188,-5.3544866,0.5398531876,-88.92119009,
694398132,-1.970512128,0.7970294956,-69.66410238,
696232077,-1.704845352,0.8217840966,-97.49618113,
698066022,-4.582449263,0.5900346776,-146.8842693,
699899966,-10.85778418,0.2864908731,-120.5161925,
701733911,-2.01891506,0.7926003266,-65.67370967,
703567855,-1.251561869,0.8658086224,-98.70850589,
705401800,-1.948630259,0.7990399382,-92.87505038,
707235745,-1.080362715,0.8830430245,-123.6769794,
709069689,-1.263197086,0.8646496016,-143.5128669,
710903634,-2.306500015,0.7667874554,-178.6327899,
712737579,-7.244015648,0.4343093884,-42.77305227,
714571523,-2.189373615,0.7771973646,-115.72426,
716405468,-1.913695279,0.8022601789,-140.9906292,
718239413,-1.208101175,0.8701516364,-163.8502269,
720073357,-1.556112689,0.8359770704,173.6065348,
721907302,-6.477884586,0.4743574991,139.1796042,
723741247,-1.984027957,0.7957902285,141.8716404,
725575191,-4.421750451,0.6010525963,50.8913547,
727409136,-4.940133647,0.5662305766,-123.042381,
729243081,-4.941527083,0.5661397462,-88.43369666,
731077025,-2.596217742,0.741633114,-167.9451779,
732910970,-1.925322247,0.8011869886,-175.3833559,
734744914,-1.543418145,0.8371997554,156.8868314,
736578859,-1.575021599,0.834159154,134.4639355,
738412804,-1.925744995,0.8011479952,105.4795607,
740246748,-3.852179873,0.6417871338,158.108768,
742080693,-1.716586675,0.8206739842,99.83944575,
743914638,-1.722561337,0.8201096707,73.43903393,
745748582,-1.921657947,0.8015250551,45.33363155,
747582527,-10.59297472,0.2953597175,7.952853291,
749416472,-2.296038581,0.7677115437,20.39797812,
751250416,-1.843281955,0.8087902408,-14.2792707,
753084361,-1.694181341,0.8227936531,-50.95926077,
754918306,-1.702388116,0.8220166119,-84.50032605,
756752250,-1.491924441,0.8421777784,-137.8138815,
758586195,-1.759204316,0.8166571791,158.7498583,
760420140,-6.376084273,0.4799497683,104.3189047,
762254084,-3.115183543,0.6986196919,39.44564939,
764088029,-5.025945738,0.5606640542,-33.03772049,
765921973,-7.400727322,0.4265438002,106.0490765,
767755918,-2.507668827,0.7492324152,7.887134733,
769589863,-2.081568516,0.7869036762,-32.61181047,
771423807,-2.381070764,0.7602325525,-67.28441185,
773257752,-26.19554738,0.04900299577,46.11484464,
775091697,-2.096494948,0.7855525679,-63.24833432,
776925641,-1.670187451,0.8250696794,-80.62396406,
778759586,-1.435336598,0.8476824076,-101.6369649,
780593531,-1.324235645,0.8585947286,-117.9833199,
782427475,-1.485857937,0.8427661877,-135.3687961,
784261420,-2.512770646,0.7487924688,-136.9820736,
786095365,-3.883273829,0.6394937562,-166.4070035,
787929309,-2.554349581,0.7452166009,-160.7072064,
789763254,-1.316758892,0.859334119,-168.4023947,
791597199,-1.495638224,0.8418177695,169.3503043,
793431143,-7.551090351,0.4192233677,135.1759802,
795265088,-2.215401347,0.774871937,154.2578297,
797099033,-4.31143762,0.6087347845,151.5038788,
798932977,-3.051448775,0.7037648327,95.1530917,
800766922,-6.440455015,0.4764060293,-13.68620678,
802600866,-5.618777157,0.5236741568,168.7554498,
804434811,-3.8667666,0.6407102473,-91.13594093,
806268756,-2.492747927,0.7505205768,-169.1235778,
808102700,-14.63638971,0.1854302205,85.63818795,
809936645,-5.932952828,0.5050709134,-156.7781784,
811770590,-2.226238759,0.7739057298,-179.7292712,
813604534,-2.676788498,0.7347854959,141.4214103,
815438479,-4.513054439,0.5947675669,-156.7567905,
817272424,-1.621003943,0.8297548563,153.8251637,
819106368,-1.471958178,0.84411592,132.7923956,
820940313,-3.261274811,0.6869676078,135.804478,
822774258,-1.573690741,0.8342869742,113.5644553,
824608202,-1.671607619,0.8249347891,94.99215308,
826442147,-2.079167856,0.7871211956,70.66830168,
828276092,-3.373790303,0.6781261388,29.54008527,
830110036,-6.183591017,0.4907049615,-67.53887144,
831943981,-3.825628272,0.6437519927,-176.6674846,
833777925,-2.162744075,0.7795837829,131.1774555,
835611870,-2.013576785,0.7930876019,102.4999884,
837445815,-1.974496002,0.7966640135,78.13009086,
839279759,-2.147496932,0.78095346,52.31068021,
841113704,-3.409957004,0.6753083968,22.13771971,
842947649,-4.167143546,0.6189318369,-16.40473319,
844781593,-4.647578593,0.5856269716,-77.57085304,
846615538,-3.773958951,0.647592861,-154.2169747,
848449483,-7.426019786,0.4253035529,118.8940855,
850283427,-4.247513154,0.6132313405,99.41072072,
852117372,-11.7499589,0.2585247074,-6.400739571,
853951317,-8.800288337,0.3630660022,-174.809773,
855785261,-5.070823419,0.5577747228,137.694904,
857619206,-3.966995164,0.6333594311,108.4937091,
859453151,-3.217932824,0.6904040953,86.73457803,
861287095,-3.060150601,0.7030601297,57.7297454,
863121040,-4.578903837,0.5902755685,-3.301231767,
864954984,-4.876966734,0.5703634185,-18.59346978,
866788929,-4.851032457,0.5720689511,-110.2175586,
868622874,-3.802127841,0.6454960781,172.9626318,
870456818,-2.382226926,0.7601313662,129.2861784,
872290763,-2.17094851,0.7788477588,97.76993067,
874124708,-2.697191437,0.7330615286,67.80724506,
875958652,-8.829388598,0.3618516607,20.5696383,
877792597,-3.204777359,0.691450559,92.91180832,
879626542,-2.819341166,0.7228246286,54.41433048,
881460486,-3.067772952,0.702443426,30.94302479,
883294431,-4.397395566,0.6027402886,5.77083125,
885128376,-4.665324989,0.5844316814,-7.515042677,
886962320,-3.200820195,0.6917656455,-78.02872273,
888796265,-6.854015112,0.4542545064,-146.9758804,
890630210,-6.318580801,0.4831377361,155.2584349,
892464154,-2.432013082,0.7557868754,126.2982434,
894298099,-1.662435194,0.8258063923,91.51313755,
896132044,-1.308837227,0.8601182025,66.30559448,
897965988,-1.265848813,0.8643856719,43.49985766,
899799933,-1.371917823,0.8538942888,19.31190387,
901633877,-2.875076529,0.7182012779,-15.45358206,
903467822,-7.656050401,0.4141879692,18.02144364,
905301767,-2.385046389,0.7598846655,-34.4274318,
907135711,-3.024979847,0.7059127201,-89.63787655,
908969656,-4.441014299,0.5997210395,-165.7926404,
910803601,-18.04288044,0.1252725674,68.22835832,
912637545,-7.662293617,0.4138903675,131.8909665,
914471490,-8.77210346,0.36424603,-141.7023605,
916305435,-7.070653287,0.4430648892,99.11429958,
918139379,-3.56039095,0.6637131961,120.7817274,
919973324,-3.966697308,0.6333811506,64.85277894,
921807269,-3.393877625,0.6765596902,65.93283192,
923641213,-3.88768642,0.6391689642,58.66907448,
925475158,-6.010047374,0.5006078221,27.18877178,
927309103,-18.82680918,0.1144615285,-40.99551545,
929143047,-4.438165881,0.5999177419,88.63834232,
930976992,-2.215333329,0.7748780049,47.38744057,
932810936,-4.502583886,0.5954849718,-14.90832362,
934644881,-4.280900657,0.6108786784,111.1034294,
936478826,-1.731126123,0.8193013941,62.05645106,
938312770,-2.454428829,0.7538389246,41.77298577,
940146715,-1.961512703,0.7978557235,26.03883913,
941980660,-5.64726342,0.5219595271,50.7296143,
943814604,-1.83617574,0.8094522098,24.71844739,
945648549,-2.101240172,0.7851235266,-3.591632473,
947482494,-8.094648404,0.3937926263,-54.20736138,
949316438,-4.41449993,0.6015545327,36.08864099,
951150383,-1.295319488,0.8614578356,28.98071849,
952984328,-1.186809826,0.8722872182,15.15205288,
954818272,-1.013393255,0.8898777279,7.864796434,
956652217,-0.9939168707,0.8918753409,-0.3338256566,
958486162,-1.188598875,0.87210757,-6.674189325,
960320106,-1.095729976,0.8814821072,-15.06204597,
962154051,-1.809468553,0.8119449264,-27.75894071,
963987995,-1.853020183,0.8078839698,-12.9507517,
965821940,-1.726476526,0.8197400873,-35.78948584,
967655885,-2.236833738,0.7729623012,-18.1921893,
969489829,-1.54495297,0.8370518325,-37.99550803,
971323774,-3.468463551,0.6707749297,-64.15985932,
973157719,-4.50924545,0.5950284451,4.677329037,
974991663,-1.282279283,0.8627521214,-30.14784762,
976825608,-2.134652395,0.7821091743,-43.77287883,
978659553,-1.459749836,0.8453031905,-62.36567539,
980493497,-3.008547401,0.7072494688,-75.75840482,
982327442,-5.843400724,0.5103051647,27.45177823,
984161387,-1.743077719,0.8181748284,-38.04967606,
985995331,-2.061253983,0.788746238,-52.80186934,
987829276,-2.405174093,0.7581258329,-73.1458346,
989663221,-10.45776331,0.299993493,-76.17469867,
991497165,-2.004412228,0.7939248371,-73.7379186,
993331110,-2.804741288,0.7240406267,-113.7788136,
995165055,-14.21220112,0.1947107564,118.5619231,
996998999,-8.076133777,0.3946329202,-108.9670009,
998832944,-9.317482033,0.3420785939,81.07248344,
1000666888,-3.519232903,0.666865661,5.967171165,
1002500833,-2.102135424,0.7850426084,-28.59890299,
1004334778,-7.305783694,0.4312318358,-49.37998302,
1006168722,-4.128651761,0.6216807387,-42.59578618,
1008002667,-1.34922122,0.856128469,-56.35718602,
1009836612,-1.312769863,0.8597288623,-71.63417911,
1011670556,-1.592514049,0.8324809373,-88.15602914,
1013504501,-3.104802829,0.699455128,-116.1449416,
1015338446,-7.813987883,0.4067247547,-92.66541719,
1017172390,-3.146210246,0.6961286174,-78.67176724,
1019006335,-2.171442619,0.7788034542,-109.4051938,
1020840280,-3.172146717,0.6940530453,-137.2817882,
1022674224,-4.871908724,0.570695652,176.9143913,
1024508169,-10.97695056,0.2825871906,84.69156631,
1026342114,-17.18802553,0.1382288591,-71.47433397,
1028176058,-8.518329331,0.3750451326,-44.22173128,
1030010003,-7.591099772,0.4172967587,-64.69807795,
1031843947,-6.325143765,0.4827728204,-179.1912286,
1033677892,-5.089138393,0.5565998441,39.40306114,
1035511837,-13.60112251,0.2089026141,-91.71876926,
1037345781,-4.850695736,0.5720911286,19.54887409,
1039179726,-2.569536221,0.7439147828,-19.01341947,
1041013671,-1.921200164,0.8015673,-41.03860846,
1042847615,-2.644321619,0.7375371811,-55.56868063,
1044681560,-2.423432674,0.7565338529,-71.38276276,
1046515505,-7.748952903,0.4097815066,-49.38194163,
1048349449,-3.61796054,0.6593286885,-52.89011073,
1050183394,-2.266350077,0.7703400832,-62.55053281,
1052017339,-2.016831521,0.7927904755,-69.76290475,
1053851283,-1.749241523,0.8175944295,-87.00013274,
1055685228,-3.357072806,0.6794325667,-76.79427558,
1057519173,-2.998471008,0.7080704162,-80.56744895,
1059353117,-4.759139055,0.5781533511,-113.2486791,
1061187062,-5.806775416,0.5124614832,-94.29009611,
1063021007,-2.440311522,0.7550651465,-71.65814831,
1064854951,-1.214740579,0.8694867557,-96.55810591,
1066688896,-4.746389491,0.5790026154,-101.1114776,
1068522840,-3.902190344,0.6381025539,-76.10969534,
1070356785,-1.769987376,0.8156439726,-95.90384064,
1072190730,-2.66283411,0.7359669204,-114.8310063,
1074024674,-3.843025613,0.6424638847,-96.63559341,
1075858619,-3.435930223,0.6732920537,-89.72818956,
1077692564,-2.59362729,0.7418543294,-100.9661669,
1079526508,-1.487777362,0.8425799722,-111.8019451,
1081360453,-1.928579945,0.8008865547,-124.9933726,
1083194398,-3.540985225,0.6651976997,-128.538406,
1085028342,-18.53903854,0.1183172517,-145.723867,
1086862287,-2.989067985,0.7088373622,-87.37501365,
1088696232,-2.120897277,0.7833487164,-108.629513,
1090530176,-2.546255238,0.7459113887,-106.6072011,
1092364121,-1.450928786,0.8461620835,-119.5072686,
1094198066,-2.452076056,0.7540431469,-132.6645051,
1096032010,-3.062988819,0.7028304339,-146.1617666,
1097865955,-7.861467172,0.4045075588,-88.23207427,
1099699899,-3.3827264,0.6774288372,-113.0102506,
1101533844,-2.473510401,0.7521846734,-124.3973758,
1103367789,-2.078799442,0.7871545822,-119.4540039,
1105201733,-1.414468172,0.8497214693,-117.6363895,
1107035678,-0.8747439265,0.9041964626,-128.1964173,
1108869623,-0.9858583005,0.8927031865,-137.2204662,
1110703567,-2.968632309,0.7105070385,-140.7923673,
1112537512,-1.205714424,0.8703907738,-146.5259604,
1114371457,-3.72145406,0.6515193175,-166.8537999,
1116205401,-2.731469519,0.7301742681,-143.1103202,
1118039346,-1.395160086,0.8516124378,-140.6103668,
1119873291,-3.196505157,0.6921093911,-155.167141,
1121707235,-1.903929885,0.8031626533,-148.8910146,
1123541180,-5.172170949,0.5513043923,-170.169704,
1125375125,-2.136729437,0.7819221721,-141.338603,
1127209069,-1.680148163,0.824124057,-156.754023,
1129043014,-1.359836829,0.8550827761,-157.363621,
1130876958,-1.673174426,0.8247859965,-161.1099484,
1132710903,-1.78694348,0.8140532715,-179.3589878,
1134544848,-4.457443242,0.598587768,-141.0252835,
1136378792,-4.284049071,0.6106572906,-164.9217512,
1138212737,-2.498019709,0.7500651968,-148.1144928,
1140046682,-1.297497855,0.8612418145,-167.9913738,
1141880626,-2.61192391,0.7402932756,178.5694209,
1143714571,-4.160743774,0.6193880345,161.9404788,
1145548516,-6.217967229,0.4887667327,-144.4224603,
1147382460,-2.052649009,0.7895280237,-162.5272758,
1149216405,-2.164288804,0.7794451513,-175.2317208,
1151050350,-2.152624893,0.7804925381,179.3027802,
1152884294,-2.450867944,0.7541480333,167.4399849,
1154718239,-3.888864339,0.6390822905,151.7649324,
1156552184,-5.909838695,0.5064167541,-164.8566749,
1158386128,-4.152440328,0.6199804337,159.1072241,
1160220073,-10.84299947,0.2869789395,136.6675963,
1162054018,-10.60749194,0.2948664783,-144.7854456,
1163887962,-7.821490619,0.4063735838,-151.3365191,
1165721907,-4.247131627,0.6132582772,-167.9445072,
1167555851,-2.567365461,0.7441007237,-168.0424469,
1169389796,-2.902944872,0.7159006494,169.849716,
1171223741,-6.099822073,0.49546034,147.3865441,
1173057685,-19.82045228,0.1020886324,-91.47322568,
1174891630,-2.949090045,0.7121073982,-152.0387913,
1176725575,-3.030426089,0.7054702362,172.5635519,
1178559519,-7.45392754,0.4239392459,173.786479,
1180393464,-6.043566173,0.4986797021,179.6345044,
1182227409,-11.4318473,0.268168421,-115.3126532,
1184061353,-2.849267891,0.720338464,-169.3738927,
1185895298,-7.971302945,0.3994246403,-146.2088535,
1187729243,-2.499493186,0.7499379663,-162.1466995,
1189563187,-1.724027978,0.8199712042,-172.5037467,
1191397132,-1.515405454,0.8399041503,171.7537958,
1193231077,-8.003679175,0.3979385757,119.7985112,
1195065021,-3.299523472,0.6839491693,-164.9970304,
1196898966,-1.46951198,0.8443536809,-175.672361,
1198732910,-1.525884452,0.838891468,177.6859066,
1200566855,-1.150398093,0.87595157,167.2383235,
1202400800,-2.275997656,0.7694849272,148.9987304,
1204234744,-6.645609006,0.4652855334,-164.3119952,
1206068689,-1.373489228,0.8537398208,175.5551663,
1207902634,-2.523805611,0.7478417714,157.607912,
1209736578,-1.796043365,0.8132008646,170.5881937,
1211570523,-1.251614249,0.8658034012,160.6678346,
1213404468,-1.21949944,0.8690105081,156.9593254,
1215238412,-1.456951053,0.8455756095,148.9251725,
1217072357,-1.814467567,0.8114777599,148.4103226,
1218906302,-2.134993773,0.7820784359,136.5134407,
1220740246,-2.549105985,0.7456666175,133.4610049,
