Frequency,S11_Magnitude,S11_Magnitude (linear),S11_Phase,
500000000,-0.5968264733,0.9335953423,96.9031615,
501833944,-0.6659125403,0.9261991391,92.30034856,
503667889,-1.014262454,0.889788682,84.15534968,
505501833,-2.738405731,0.7295914123,103.3476073,
507335778,-1.012163772,0.8900036985,84.47458601,
509169723,-2.970926589,0.7103193908,59.40765894,
511003667,-4.708794269,0.5815141495,132.7480712,
512837612,-1.205671691,0.8703950559,105.9360405,
514671557,-0.831206529,0.9087400601,94.06925691,
516505501,-3.659939854,0.6561498098,125.4841533,
518339446,-0.7294993479,0.9194434697,90.59943908,
520173391,-0.7283399707,0.9195662036,82.59484743,
522007335,-4.77591409,0.5770378427,68.10307146,
523841280,-0.8402918503,0.9077900275,82.1101499,
525675225,-0.7682065872,0.9153552371,73.88257824,
527509169,-0.8402195055,0.9077975885,65.36336341,
529343114,-1.100926354,0.8809549137,52.70249511,
531177059,-2.11192231,0.7841585544,26.39897736,
533011003,-8.227579372,0.3878118108,-77.52286165,
534844948,-3.760507658,0.6485965244,151.2173692,
536678892,-1.633071553,0.8286028493,116.2236847,
538512837,-1.111107865,0.8799228725,101.6150493,
540346782,-0.9166665941,0.8998428502,93.17000322,
542180726,-0.8209349646,0.9098153332,87.33101688,
544014671,-0.7662999373,0.9155561898,82.77698486,
545848616,-0.7351332296,0.9188472894,78.73265286,
547682560,-0.746659307,0.9176287981,76.00338341,
549516505,-0.71085566,0.9214191139,72.80589337,
551350450,-0.6964698542,0.9229464577,69.89632338,
553184394,-0.6845951902,0.9242091002,67.08819271,
555018339,-0.6694727647,0.9258195809,64.12185666,
556852284,-0.6968896684,0.9229018501,59.2474098,
558686228,-0.885716353,0.9030549601,62.73209909,
560520173,-0.818221202,0.9100996344,58.73565725,
562354118,-0.7097242287,0.9215391465,56.4106063,
564188062,-0.7061636048,0.9219169923,53.83776804,
566022007,-0.7045190952,0.9220915565,51.38072291,
567855951,-0.704237395,0.9221214622,48.75340343,
569689896,-0.7602097913,0.9161983608,47.58803394,
571523841,-0.7057867318,0.9219569944,44.53907007,
573357785,-0.7159534688,0.9208784853,41.697037,
575191730,-0.8138414973,0.9105586516,39.38911079,
577025675,-1.02369452,0.888822979,34.79679141,
578859619,-0.9650009274,0.8948494049,37.53259335,
580693564,-0.8263208177,0.9092513596,34.24499715,
582527509,-0.9076532217,0.9007771044,30.63842263,
584361453,-0.7855050248,0.9135340697,29.43491193,
586195398,-0.7904308626,0.9130161441,26.70665093,
588029343,-0.824814271,0.9094090807,23.8769188,
589863287,-1.048849304,0.8862526255,21.90313163,
591697232,-0.8423566813,0.907574251,20.21048213,
593531177,-0.8128971878,0.9106576508,17.34606411,
595365121,-0.812902881,0.9106570539,14.52540139,
597199066,-0.8173310427,0.9101929093,11.51815166,
599033011,-0.8477260615,0.9070133867,7.577774243,
600866955,-1.006902189,0.8905429923,8.997827474,
602700900,-0.9284799969,0.8986198344,4.228550984,
604534844,-1.646748364,0.827299157,0.5810220075,
606368789,-0.810329148,0.9109269324,-0.5337830798,
608202734,-0.8455118046,0.9072446373,-4.409561191,
610036678,-0.8754912236,0.9041186728,-8.165887304,
611870623,-0.9095861843,0.9005766673,-12.3456383,
613704568,-0.9784737603,0.8934624646,-17.64643221,
615538512,-1.254336997,0.8655320421,-27.25484602,
617372457,-12.32820988,0.2418741779,15.61423477,
619206402,-1.185673367,0.8724013554,-10.45379784,
621040346,-1.041041264,0.8870496662,-20.07626772,
622874291,-1.06709448,0.8843929583,-26.82445995,
624708236,-1.22799817,0.8681606385,-34.24155152,
626542180,-2.826531301,0.7222265256,-37.67666439,
628376125,-1.460170184,0.8452622836,-43.16627675,
630210070,-1.98759456,0.7954635279,-64.07257758,
632044014,-10.15542446,0.3106195434,113.2946019,
633877959,-1.341911783,0.8568492302,-12.76306247,
635711903,-1.024674892,0.8887226636,-31.28771563,
637545848,-1.078095031,0.8832735967,-42.59386596,
639379793,-1.540878319,0.8374445952,-44.95712211,
641213737,-1.292305441,0.8617568177,-53.07774953,
643047682,-1.331136828,0.8579128219,-59.96420495,
644881627,-1.416573891,0.8495154964,-66.90752978,
646715571,-1.546321892,0.836919921,-74.40507302,
648549516,-1.743279447,0.8181558266,-82.95830778,
650383461,-2.090265854,0.7861161296,-93.60883089,
652217405,-2.966298351,0.7106979823,-109.9417661,
654051350,-22.51900468,0.07482552384,-80.6864303,
655885295,-4.918823858,0.5676214609,-98.19496556,
657719239,-1.760053293,0.8165773612,-117.1571641,
659553184,-3.107896417,0.6992060527,-154.380194,
661387129,-5.729536056,0.5170388741,148.6991833,
663221073,-7.48425493,0.4224616136,31.98724409,
665055018,-5.517101498,0.5298402233,-76.85254339,
666888962,-9.380508409,0.339605394,177.4748996,
668722907,-8.42111448,0.3792663185,125.6267081,
670556852,-3.206832581,0.6912869699,-4.874622884,
672390796,-3.527456278,0.6662346041,-85.78997693,
674224741,-8.72483098,0.3662338234,56.76767799,
676058686,-3.17719713,0.6936496053,-73.21726574,
677892630,-4.142390584,0.6206981783,-147.5147926,
679726575,-3.823585975,0.6439033748,52.08763202,
681560520,-1.753260092,0.817216253,-19.21670099,
683394464,-1.44574109,0.8466676094,-67.66521084,
685228409,-13.15827479,0.2198296459,128.5019802,
687062354,-9.20743907,0.3464400132,-9.845586001,
688896298,-3.732148835,0.6507176075,-52.76083818,
690730243,-2.339730555,0.7638594789,-55.44196353,
692564188,-2.065738614,0.7883391038,-76.44872187,
694398132,-1.446337095,0.8466095151,-98.24451575,
696232077,-1.855792006,0.8076262007,-129.7521406,
698066022,-3.577432027,0.6624123162,178.5432505,
699899966,-4.142839666,0.6206660875,30.08371297,
701733911,-2.073695518,0.7876172587,-48.72699175,
703567855,-13.57503645,0.2095309478,-177.7976241,
705401800,-1.55047834,0.8365195266,-72.46617674,
707235745,-1.097857031,0.8812662708,-89.62346082,
709069689,-1.064558834,0.8846511742,-103.2975509,
710903634,-1.06766687,0.8843346797,-114.9800013,
712737579,-1.153148128,0.8756742793,-127.3876726,
714571523,-1.988703307,0.7953619942,-146.7040213,
716405468,-3.673277841,0.6551430043,-166.7144777,
718239413,-2.406673187,0.7579949996,-121.451715,
720073357,-4.016580788,0.6297540376,-161.468001,
721907302,-1.442330587,0.8470001176,-141.8132366,
723741247,-1.662723974,0.8257789372,-169.6148066,
725575191,-5.586300312,0.525635858,-111.2518718,
727409136,-7.368238469,0.4281422396,169.6170168,
729243081,-1.225557425,0.868404627,-162.3356636,
731077025,-1.246555894,0.8663077613,179.1463182,
732910970,-1.47699704,0.8436263731,167.2447159,
734744914,-2.353155437,0.7626797721,140.0879402,
736578859,-9.048786137,0.352826091,-101.4328183,
738412804,-1.171744181,0.8738015102,170.1960172,
740246748,-1.080924169,0.8829859467,144.8268637,
742080693,-1.256343785,0.8653320927,123.3332035,
743914638,-1.617099257,0.8301279511,98.09508643,
745748582,-2.335617849,0.7642212465,62.37549009,
747582527,-3.607285828,0.6601394828,4.67250963,
749416472,-4.027384732,0.628971205,-72.88593393,
751250416,-2.563244174,0.744453869,-144.5232611,
753084361,-1.883493435,0.8050545859,171.4158728,
754918306,-1.630450344,0.828852941,138.326917,
756752250,-1.884624745,0.8049497368,102.4914081,
758586195,-2.005420879,0.7938326477,124.3342482,
760420140,-1.561614157,0.835447747,71.2373837,
762254084,-2.905249583,0.7157107178,8.761614463,
764088029,-3.295456343,0.6842695004,99.99325525,
765921973,-1.878352107,0.8055312527,30.73022802,
767755918,-2.118603927,0.7835555726,-17.32911768,
769589863,-1.890207498,0.8044325312,-68.90459205,
771423807,-2.042921276,0.7904127482,-161.3947113,
773257752,-4.351644469,0.6059234723,23.37756058,
775091697,-4.20194345,0.6164570554,-11.00480622,
776925641,-11.88830119,0.2544397385,-1.846783905,
778759586,-2.584791666,0.7426093563,-74.00144119,
780593531,-1.983589908,0.795830363,-113.8257355,
782427475,-1.828823463,0.8101376705,-146.4771979,
784261420,-2.624386578,0.7392318514,175.5719743,
786095365,-2.285771315,0.7686195634,149.7026007,
787929309,-3.230206951,0.6894291666,131.7993856,
789763254,-5.948518567,0.5041666005,-8.01438753,
791597199,-4.729186066,0.5801505345,-157.7810302,
793431143,-8.1609243,0.3907993071,-155.3074616,
795265088,-4.813980798,0.5745144549,56.61297354,
797099033,-16.17340673,0.155356584,-151.7215925,
798932977,-3.212412085,0.6908430546,-87.80656583,
800766922,-2.033385339,0.7912809916,-142.5807474,
802600866,-2.101181646,0.7851288168,-178.1924337,
804434811,-2.302877478,0.7671073185,-160.5216315,
806268756,-1.679130467,0.8242206225,153.3847902,
808102700,-1.617294821,0.8301092609,153.8033907,
809936645,-1.470505327,0.8442571234,130.5125567,
811770590,-3.013158675,0.706874095,98.49351784,
813604534,-8.785610367,0.363680053,164.6775273,
815438479,-2.374498608,0.7608079983,132.2786985,
817272424,-1.613941381,0.8304298105,112.7111923,
819106368,-1.408694621,0.8502864709,96.64674181,
820940313,-1.330169009,0.8580084196,78.89954562,
822774258,-4.025050951,0.6291402237,45.47423042,
824608202,-1.807108414,0.8121655789,65.30939165,
826442147,-1.637417941,0.8281883231,41.61020077,
828276092,-2.035060127,0.7911284337,15.54462583,
830110036,-2.622002598,0.7394347731,-16.25153235,
831943981,-4.767116621,0.5776225892,-76.09793074,
833777925,-3.74873454,0.6494762478,-153.9900032,
835611870,-2.439426879,0.7551420526,109.6583597,
837445815,-6.357200856,0.4809943303,7.961308779,
839279759,-4.622027687,0.5873522214,91.80261793,
841113704,-1.965027505,0.7975329313,30.13184664,
842947649,-3.856607795,0.6414600448,-27.2171978,
844781593,-3.082261006,0.7012727278,-50.70113382,
846615538,-4.471282985,0.5976347621,-102.3459855,
848449483,-6.241653035,0.4874357161,159.7539926,
850283427,-3.226788434,0.6897005595,-69.43453125,
852117372,-2.132178204,0.7823319911,-151.1554895,
853951317,-2.157250097,0.7800770393,157.0259629,
855785261,-4.368424869,0.6047540097,94.82957685,
857619206,-5.94193499,0.5045488847,-177.907679,
859453151,-2.802609272,0.7242183696,113.3757797,
861287095,-7.350290619,0.4290278343,26.30265183,
863121040,-4.24145333,0.6136593186,88.25844724,
864954984,-5.545129303,0.5281332797,156.4471859,
866788929,-3.014870003,0.7067348376,51.08829478,
868622874,-5.164537641,0.5517891009,-8.415015297,
870456818,-12.24347013,0.2442454564,-111.2704753,
872290763,-6.175053045,0.4911875471,49.34273248,
874124708,-7.111022975,0.4410104204,-47.04091471,
875958652,-8.852892765,0.3608738075,-119.843528,
877792597,-8.803538635,0.3629301667,-166.6300727,
879626542,-6.71060894,0.4618166143,153.282583,
881460486,-5.138494222,0.5534460458,100.329902,
883294431,-9.461404331,0.3364571667,119.4769694,
885128376,-17.5325198,0.1328538089,-143.1293645,
886962320,-9.173912528,0.3477798162,99.85591412,
888796265,-10.84282075,0.2869848445,41.37972173,
890630210,-3.110264127,0.6990154802,177.7533405,
892464154,-3.342467701,0.6805759765,135.4986854,
894298099,-1.355727303,0.8554874342,106.9024786,
896132044,-1.23534725,0.8674264036,86.17576356,
897965988,-1.210835697,0.8698777354,68.31495409,
899799933,-1.455263889,0.8457398717,44.92443447,
901633877,-16.00913637,0.1583226977,-98.98489797,
903467822,-1.294069534,0.8615818138,55.58674559,
905301767,-1.296243052,0.8613662423,27.02432,
907135711,-6.635286711,0.4658388065,-9.460698586,
908969656,-6.886515024,0.4525580024,-74.71210712,
910803601,-3.891161724,0.638913278,60.19826338,
912637545,-3.756868464,0.6488683288,-4.614727138,
914471490,-10.759376,0.2897551742,-144.2698837,
916305435,-2.549348117,0.7456458312,70.37334039,
918139379,-4.602048179,0.5887048193,17.36639315,
919973324,-8.399670471,0.3802038204,27.44621239,
921807269,-3.752311185,0.6492088639,34.03223372,
923641213,-2.355501073,0.7624738373,3.165371894,
925475158,-4.445448428,0.5994149612,-70.76264038,
927309103,-4.675394068,0.5837545741,-6.339224509,
929143047,-4.388838356,0.603334392,7.503573022,
930976992,-4.155334285,0.6197739036,-26.50005246,
932810936,-4.247332957,0.6132440627,-2.667044593,
934644881,-2.26393499,0.7705543038,-57.27728168,
936478826,-2.954308499,0.7116796949,-108.7669813,
938312770,-3.741237333,0.6500370839,-177.6650886,
940146715,-3.469729363,0.6706771835,102.3700104,
941980660,-3.125355685,0.6978020095,39.05312529,
943814604,-14.43313387,0.1898205846,156.0927587,
945648549,-6.080042253,0.4965899058,-48.55198451,
947482494,-2.598773777,0.7414149025,43.81153632,
949316438,-2.242581099,0.7724510094,-47.59346943,
951150383,-4.14813312,0.6202879494,-173.0528956,
952984328,-3.818810702,0.6442574732,107.5376416,
954818272,-4.371265165,0.6045562868,69.42067341,
956652217,-4.119173382,0.622359511,-7.206189387,
958486162,-2.767934209,0.7271153106,80.76306329,
960320106,-1.897378809,0.8037686435,28.23842701,
962154051,-5.439751439,0.534579657,38.07200881,
963987995,-1.57165051,0.8344829631,-9.787516206,
965821940,-5.375813056,0.5385293125,39.14624281,
967655885,-4.235280608,0.6140955773,-1.044232001,
969489829,-1.489232651,0.8424388128,-26.41166045,
971323774,-1.599160278,0.831844187,-60.16872169,
973157719,-3.240464299,0.6886154859,-120.2421024,
974991663,-8.67498015,0.3683417885,77.01299226,
976825608,-3.205881247,0.6913626883,112.0732416,
978659553,-9.956893606,0.3178010441,110.4646642,
980493497,-1.72361472,0.8200102178,45.37149176,
982327442,-1.402829769,0.8508607918,19.26214991,
984161387,-1.586816647,0.833027172,9.65419542,
985995331,-1.236719926,0.8672893305,-6.246259451,
987829276,-2.326641541,0.7650114282,-33.3412815,
989663221,-1.399636109,0.8511736969,-16.31594975,
991497165,-1.279887344,0.8629897406,-25.10766327,
993331110,-1.312659648,0.8597397715,-41.84520348,
995165055,-2.231905521,0.7734009905,-65.88997134,
996998999,-26.60951296,0.04672231491,-147.7057237,
998832944,-3.294800853,0.6843211415,-25.56878965,
1000666888,-4.903553036,0.5686202843,-35.9173778,
1002500833,-3.86326987,0.6409682337,-3.352058451,
1004334778,-2.599433771,0.7413585685,-85.95286963,
1006168722,-2.797715788,0.724626497,39.44141717,
1008002667,-1.588183929,0.8328960521,-18.84512463,
1009836612,-1.302162818,0.8607793883,-48.595883,
1011670556,-3.8716231,0.6403521101,-72.87348087,
1013504501,-1.212563746,0.8697046912,-30.93098711,
1015338446,-2.167107635,0.7791922391,-42.8110478,
1017172390,-4.032504478,0.6286005781,-43.8414053,
1019006335,-4.693080747,0.5825671109,-76.50508048,
1020840280,-1.223501671,0.868610183,-56.57679099,
1022674224,-1.298375676,0.8611547792,-63.84660424,
1024508169,-1.091982142,0.881862536,-72.79979145,
1026342114,-8.515984702,0.3751463842,-109.6129129,
1028176058,-1.833645668,0.8096880256,-52.25755145,
1030010003,-1.156617547,0.8753245772,-71.32263076,
1031843947,-1.997082161,0.7945951172,-85.70191237,
1033677892,-1.371943072,0.8538918067,-68.97285882,
1035511837,-2.545827847,0.7459480924,-94.76139665,
1037345781,-1.012774801,0.8899410913,-88.92156203,
1039179726,-0.968027905,0.8945376099,-97.51357692,
1041013671,-5.551209201,0.5277637294,-123.4316388,
1042847615,-1.105447072,0.8804965251,-99.66840599,
1044681560,-0.9423938861,0.8971814915,-115.7667847,
1046515505,-1.61027782,0.8307801456,-140.1852751,
1048349449,-2.022115137,0.7923083687,-127.2337438,
1050183394,-3.782758096,0.6469371563,-176.0117361,
1052017339,-2.844355988,0.7207459333,-131.9949375,
1053851283,-2.74601556,0.728952487,157.7618786,
1055685228,-2.974371845,0.7100376987,64.36295361,
1057519173,-2.80210589,0.7242603422,-22.48213368,
1059353117,-1.45487427,0.8457778096,-46.90257901,
1061187062,-1.419795702,0.8492004485,-83.13703797,
1063021007,-3.379342709,0.677692789,-130.9278718,
1064854951,-2.606282166,0.7407742743,-30.14640336,
1066688896,-3.319400032,0.6823858275,-30.27785934,
1068522840,-1.187323526,0.8722356309,-78.202774,
1070356785,-4.377897425,0.6040948436,-56.26504434,
1072190730,-2.384812734,0.7599051071,-83.30767496,
1074024674,-5.056463842,0.5586976028,-86.01507055,
1075858619,-3.434208275,0.6734255447,-84.61421671,
1077692564,-0.9051591712,0.901035789,-95.14615178,
1079526508,-1.330508025,0.8579749315,-112.4043439,
1081360453,-1.824348745,0.8105551374,-100.7484882,
1083194398,-1.485416083,0.8428090607,-110.3705348,
1085028342,-1.308435037,0.8601580302,-116.7610465,
1086862287,-2.986753711,0.7090262504,-131.7193947,
1088696232,-4.308774997,0.6089214181,-114.8645014,
1090530176,-4.865274023,0.5711317434,-170.6105642,
1092364121,-6.146649418,0.4927964029,-100.916253,
1094198066,-2.162504346,0.7796052996,-108.4451372,
1096032010,-1.438026909,0.8474198926,-110.8876172,
1097865955,-1.073271387,0.8837642523,-121.4068069,
1099699899,-1.089054178,0.8821598569,-130.2475589,
1101533844,-1.45527585,0.8457387071,-143.9917802,
1103367789,-2.50734081,0.74926071,-119.8714643,
1105201733,-2.330620426,0.7646610674,-159.038559,
1107035678,-3.710463826,0.6523442049,-124.3837638,
1108869623,-1.629795,0.8289154797,-153.2236994,
1110703567,-1.609376226,0.8308663849,-129.9941558,
1112537512,-5.053025934,0.5589187811,-151.5735137,
1114371457,-1.194478809,0.8715173944,-147.620034,
1116205401,-2.412368021,0.7574981891,-171.4824977,
1118039346,-3.853569502,0.6416844645,148.8238173,
1119873291,-3.690951869,0.6538112762,-88.89866166,
1121707235,-2.372189369,0.7610102943,-137.3198799,
1123541180,-1.176971297,0.8732758198,-130.1104825,
1125375125,-0.9242849276,0.8990539504,-147.9119888,
1127209069,-1.104047225,0.8806384404,-162.7200485,
1129043014,-2.252858551,0.7715375586,-154.5353343,
1130876958,-2.944164008,0.7125113709,167.4929304,
1132710903,-3.010339541,0.7071035587,-132.6488171,
1134544848,-3.06299079,0.7028302745,159.8927611,
1136378792,-3.68350542,0.6543720317,-131.2636859,
1138212737,-3.161268214,0.6949228455,-119.1335831,
1140046682,-1.688920293,0.8232921706,-164.0021879,
1141880626,-3.506299172,0.6678593976,160.6652866,
1143714571,-3.164787225,0.6946413607,-100.4728713,
1145548516,-4.067082915,0.6261031003,-173.3041146,
1147382460,-7.523998546,0.4205329916,-66.72032348,
1149216405,-1.432899594,0.8479202756,-138.5704894,
1151050350,-2.318846628,0.7656982748,179.9976744,
1152884294,-6.56143704,0.4698163733,-138.573931,
1154718239,-1.275600334,0.8634157832,-141.3188427,
1156552184,-6.358589828,0.48091742,-141.3920384,
1158386128,-3.693867626,0.6535918358,-173.0611476,
1160220073,-1.100758258,0.8809719628,-167.5194148,
1162054018,-1.743902437,0.8180971471,-144.2517019,
1163887962,-0.9539733259,0.8959862268,-168.8300872,
1165721907,-3.641022056,0.6575804563,-166.0695309,
1167555851,-1.619784878,0.8298713206,178.510823,
1169389796,-1.753733668,0.8171716976,146.5467584,
1171223741,-3.922686641,0.6365985835,-179.7720134,
1173057685,-1.906114998,0.8029606267,-161.4539639,
1174891630,-2.41747547,0.7570528984,163.7742796,
1176725575,-13.61593417,0.2085466854,-105.1164821,
1178559519,-3.91179827,0.6373971048,170.9212937,
1180393464,-1.971053068,0.7969798597,-149.9575368,
1182227409,-1.013990901,0.8898165005,-174.8774215,
1184061353,-1.908258931,0.8027624569,157.9042088,
1185895298,-4.957312524,0.5651117974,-131.6101935,
1187729243,-1.420763721,0.8491058127,-167.9617662,
1189563187,-1.038512903,0.8873079136,-177.6872457,
1191397132,-1.055546068,0.885569594,171.040925,
1193231077,-1.701381322,0.8221118987,154.6152999,
1195065021,-11.51720855,0.265545883,-147.5179273,
1196898966,-2.286952621,0.7685150361,156.6533428,
1198732910,-1.54506523,0.8370410142,179.4084077,
1200566855,-1.802251152,0.8126198794,165.1140862,
1202400800,-2.063918262,0.7885043379,178.4856979,
1204234744,-3.004168392,0.70760612,167.9547314,
1206068689,-1.733918129,0.8190380789,174.0761305,
1207902634,-2.260251351,0.7708811611,153.6950585,
1209736578,-12.43474609,0.2389256056,110.8915297,
1211570523,-2.020359874,0.7924684963,177.9704855,
1213404468,-1.318278074,0.8591838327,154.9163077,
1215238412,-3.508001647,0.6677285069,170.8088771,
1217072357,-2.862245906,0.7192629745,136.344741,
1218906302,-4.772059514,0.5772939742,-153.7685009,
