Frequency,S11_Magnitude,S11_Magnitude (linear),S11_Phase,
500000000,-1.1288244,0.8781299304,108.2696172,
501833944,-1.188683288,0.8720990945,104.7257865,
503667889,-2.441662421,0.7549477219,116.8976125,
505501833,-0.7862833309,0.9134522155,110.5031995,
507335778,-0.6682567881,0.9259491996,106.4538708,
509169723,-0.6396073126,0.9290083861,103.5261434,
511003667,-0.6345473781,0.9295497344,100.9430602,
512837612,-0.6360910961,0.9293845429,98.45485254,
514671557,-0.6672443611,0.9260571345,95.68913283,
516505501,-1.647390511,0.8272379971,88.69564051,
518339446,-0.5854436112,0.9348196214,94.27063831,
520173391,-0.596797179,0.9335984909,91.24723035,
522007335,-0.6130963617,0.9318482242,88.76710085,
523841280,-0.6318173757,0.9298419407,86.30704551,
525675225,-0.682100869,0.9244745429,83.73790969,
527509169,-0.8003010406,0.9119792309,80.94708427,
529343114,-1.151061794,0.8758846399,78.38462642,
531177059,-1.541626369,0.8373724756,79.93042921,
533011003,-1.079514433,0.8831292686,80.3421969,
534844948,-0.8043106749,0.9115583345,77.41420483,
536678892,-0.7061771118,0.9219155587,74.03047646,
538512837,-0.737839935,0.918561002,70.20234213,
540346782,-0.9288077537,0.8985859262,66.08145356,
542180726,-1.412684264,0.849896003,60.85021254,
544014671,-3.331171521,0.6814616555,52.90636176,
545848616,-2.723282221,0.7308628531,85.81562856,
547682560,-0.9548206314,0.895898828,74.24844578,
549516505,-0.7530045698,0.9169586918,68.14106218,
551350450,-0.7262657573,0.9197858247,63.68927686,
553184394,-0.8237322441,0.9095223756,58.90954334,
555018339,-1.961308425,0.797874488,65.71403875,
556852284,-0.6638420904,0.9264199429,57.41135643,
558686228,-0.6948470561,0.9231189093,52.10999218,
560520173,-1.021080822,0.8890904777,45.16933252,
562354118,-2.865360153,0.7190051355,46.92248022,
564188062,-2.007153014,0.7936743578,46.36311989,
566022007,-3.878093762,0.6398752495,41.98727264,
567855951,-2.738112198,0.7296160687,62.46266577,
569689896,-1.301891394,0.860806287,55.83528731,
571523841,-0.9883858914,0.8924434479,50.63975368,
573357785,-0.8809307686,0.903552645,46.81623706,
575191730,-0.8345870986,0.9083864451,43.58771456,
577025675,-0.811996844,0.9107520507,40.69359014,
578859619,-0.8028113442,0.9117156984,37.96761128,
580693564,-0.7994000228,0.9120738386,35.44122792,
582527509,-0.7801925242,0.9140929802,32.94467889,
584361453,-0.7714862087,0.9150096822,30.41430253,
586195398,-0.7664791602,0.9155372986,27.91371382,
588029343,-0.7707361823,0.9150886966,25.4009902,
589863287,-0.7698772758,0.9151791899,22.95686492,
591697232,-0.7696166318,0.9152066528,20.43858439,
593531177,-0.7761745928,0.9145159205,17.92018842,
595365121,-0.7818662478,0.9139168565,15.37385176,
597199066,-0.7535977185,0.9168960759,12.80442836,
599033011,-0.7788740359,0.9142317469,9.926264345,
600866955,-0.7925813752,0.9127901212,7.172708681,
602700900,-0.804429861,0.9115458264,4.255146125,
604534844,-0.8235661709,0.9095397657,1.060879067,
606368789,-1.02290307,0.8889039714,-3.463068719,
608202734,-1.004584691,0.8907806315,-3.913228648,
610036678,-1.084689942,0.8826032105,-8.674902322,
611870623,-1.824063055,0.8105817981,-2.221174461,
613704568,-0.8925333309,0.9023464903,-11.45161841,
615538512,-0.983938672,0.8929005005,-16.57865782,
617372457,-1.257078146,0.865258935,-21.83977639,
619206402,-2.191716121,0.7769877897,-25.15543287,
621040346,-1.950805665,0.7988398413,-19.80503518,
622874291,-1.243813706,0.8665813032,-24.64211042,
624708236,-1.05169426,0.885962392,-30.75565084,
626542180,-0.992293661,0.8920420292,-37.38384162,
628376125,-1.054526857,0.8856735136,-45.73435598,
630210070,-1.535951331,0.8379197624,-57.94840696,
632044014,-3.56719985,0.6631931129,-66.58997163,
633877959,-4.544011597,0.592651544,-77.77444814,
635711903,-13.36507935,0.214657483,-168.7788264,
637545848,-2.806204409,0.7239186737,-4.70331484,
639379793,-3.092305407,0.7004622416,-40.30826382,
641213737,-7.77968199,0.4083343361,-44.30872287,
643047682,-3.51122868,0.6674804745,-18.79261287,
644881627,-1.730119292,0.8193963695,-35.01676005,
646715571,-1.428726011,0.8483278004,-46.48178962,
648549516,-1.418954827,0.8492826631,-55.44524285,
650383461,-1.399183418,0.8512180596,-62.69519024,
652217405,-1.510766642,0.8403528318,-71.93665376,
654051350,-1.742036625,0.818272901,-80.56301104,
655885295,-2.058431579,0.7890025759,-90.12778898,
657719239,-2.538383455,0.7465876941,-101.4348997,
659553184,-3.117597866,0.6984255311,-116.1026961,
661387129,-5.191259361,0.5500941569,-140.6850189,
663221073,-9.92115997,0.3191111665,178.5383324,
665055018,-16.33709817,0.1524562003,44.55983509,
666888962,-7.139586219,0.4395625549,27.96692546,
668722907,-2.617059995,0.7398556595,-32.73406857,
670556852,-1.682250435,0.823924616,-62.07361998,
672390796,-1.750838425,0.8174441285,-87.02887296,
674224741,-5.433210109,0.5349823998,-97.11460775,
676058686,-2.806408516,0.7239016628,-101.0482739,
677892630,-4.745459583,0.5790646065,-151.5803497,
679726575,-4.698411129,0.582209709,-99.27655349,
681560520,-2.724966614,0.7307211358,-134.85338,
683394464,-3.757912433,0.6487903451,-171.4957273,
685228409,-4.54257658,0.5927494654,144.5599655,
687062354,-4.951402348,0.5654964496,82.52174182,
688896298,-3.193952279,0.6923128395,22.75282493,
690730243,-3.006150888,0.7074446321,-26.63177751,
692564188,-2.688164176,0.7338237969,-52.96623786,
694398132,-2.539133337,0.7465232415,-74.21927528,
696232077,-2.945634406,0.712390763,-94.61535397,
698066022,-5.12693007,0.5541833792,-99.37675015,
699899966,-5.419775867,0.5358104836,-102.3542466,
701733911,-5.171105819,0.5513720016,-114.4900034,
703567855,-3.320918041,0.6822665793,-103.0878265,
705401800,-2.507395303,0.7492560094,-121.0789817,
707235745,-2.373102633,0.7609302833,-133.3981499,
709069689,-2.42907207,0.7560428255,-146.0218343,
710903634,-2.241918002,0.7725099821,-155.9606001,
712737579,-3.074799052,0.7018754425,-174.2906053,
714571523,-2.916151565,0.7148129663,179.9376635,
716405468,-3.220611041,0.690191248,148.8765666,
718239413,-8.660800413,0.3689435985,141.9267349,
720073357,-6.922825463,0.4506700807,118.8728682,
721907302,-8.194034859,0.3893124183,52.24860719,
723741247,-7.952609231,0.4002852051,-53.32033142,
725575191,-4.222061609,0.6150308769,-149.0300815,
727409136,-14.43602328,0.1897574502,-28.73222794,
729243081,-9.089994247,0.3511561571,97.50726725,
731077025,-4.928030698,0.5670201142,-82.15306076,
732910970,-2.545071134,0.7460130821,-132.13854,
734744914,-1.809287552,0.8119618462,-160.8348106,
736578859,-1.511597241,0.8402724758,177.2785104,
738412804,-1.403201233,0.8508244043,158.2866155,
740246748,-1.35452258,0.8556060977,140.6108121,
742080693,-1.362419366,0.854828576,122.9819428,
743914638,-1.429145075,0.8482868726,104.8677754,
745748582,-1.59044308,0.8326794487,85.61756388,
747582527,-2.058149244,0.7890282228,65.51002408,
749416472,-1.634456665,0.828470725,42.56761045,
751250416,-2.455131483,0.7537779445,6.572262245,
753084361,-6.02095887,0.4999793372,-57.36152745,
754918306,-7.90208918,0.4026201822,127.1327592,
756752250,-3.032485383,0.7053029996,42.82730568,
758586195,-2.630390746,0.7387210299,2.802896952,
760420140,-2.535713282,0.7468172417,-33.13961221,
762254084,-4.946632317,0.5658070886,-98.14441096,
764088029,-3.210739328,0.6909761122,7.793058466,
765921973,-1.519532604,0.8395051599,-50.91152758,
767755918,-1.61319201,0.8305014585,-83.93762748,
769589863,-1.528637414,0.8386256264,-108.4994288,
771423807,-1.756287007,0.8169315138,-138.8863024,
773257752,-2.632022458,0.7385822685,-174.3053227,
775091697,-4.960404871,0.5649106423,139.9204073,
776925641,-10.56744147,0.2962292416,80.49132563,
778759586,-16.00744324,0.1583535625,8.011348484,
780593531,-22.0163083,0.07928382331,-114.7554587,
782427475,-10.30026135,0.3054829195,-16.53208391,
784261420,-13.06861811,0.2221105025,-94.21182197,
786095365,-6.041876395,0.4987767261,-68.16930514,
787929309,-6.280332742,0.4852699099,-104.6940225,
789763254,-30.14816892,0.03108791199,-75.32017527,
791597199,-3.647648542,0.6570789779,-94.72048857,
793431143,-2.293357992,0.767948507,-131.3567303,
795265088,-2.516363913,0.7484827648,-160.7736628,
797099033,-5.354790929,0.539834273,166.906889,
798932977,-12.92847334,0.22572327,151.3260872,
800766922,-8.444578643,0.3782431467,-143.8316515,
802600866,-3.150119746,0.6958153619,-172.245604,
804434811,-3.673648807,0.6551150244,147.1663313,
806268756,-9.297793643,0.3428548662,77.558453,
808102700,-10.85631752,0.2865392527,-112.895472,
809936645,-9.856321396,0.321502186,-164.6407713,
811770590,-4.057883542,0.6267665679,-150.1418639,
813604534,-3.361146796,0.6791139634,176.3733733,
815438479,-4.356637029,0.6055752938,156.4564778,
817272424,-8.032549354,0.3966181023,135.8418473,
819106368,-7.902056316,0.4026217055,-166.5257064,
820940313,-2.907379988,0.7155351956,165.2498167,
822774258,-3.474650992,0.6702972697,141.7010942,
824608202,-4.329707821,0.6074556963,142.4806463,
826442147,-3.886098957,0.6392857916,116.1986918,
828276092,-11.18436603,0.2759190578,126.0073612,
830110036,-7.401378437,0.4265118267,104.0085602,
831943981,-3.405935521,0.6756211305,159.0413293,
833777925,-2.034643742,0.7911663598,131.2272482,
835611870,-1.936675417,0.8001404556,111.6023736,
837445815,-3.125765835,0.6977690598,86.63046416,
839279759,-11.79674318,0.2571359745,130.8537068,
841113704,-5.654617398,0.521517793,113.8684192,
842947649,-2.599573938,0.7413466051,117.1885513,
844781593,-1.663155877,0.8257378766,95.73791265,
846615538,-2.192762787,0.7768941669,75.93236944,
848449483,-5.089468213,0.5565787094,92.42652314,
850283427,-1.725790046,0.8198048772,70.19539271,
852117372,-2.210528044,0.7753068084,44.89421165,
853951317,-7.620662834,0.4158788729,-2.666819372,
855785261,-4.105207055,0.6233610283,76.71674982,
857619206,-8.544692644,0.3739085256,49.67251624,
859453151,-12.25105163,0.2440323592,19.31532458,
861287095,-3.969934749,0.6331451181,135.419471,
863121040,-1.781191995,0.814592487,85.48593701,
864954984,-1.329105886,0.8581134432,64.15512281,
866788929,-1.345904657,0.8564554299,47.33549703,
868622874,-1.400605304,0.851078726,34.16836687,
870456818,-1.391537241,0.8519677156,19.42139737,
872290763,-2.173964245,0.7785773903,0.4243641206,
874124708,-4.420205848,0.6011594904,-17.65832155,
875958652,-9.791615252,0.3239061823,-8.035164888,
877792597,-4.436720293,0.6000175942,1.508819792,
879626542,-3.551800064,0.6643699746,-37.88801276,
881460486,-16.88390675,0.1431543873,-118.7714547,
883294431,-6.553739074,0.4702329378,15.45607427,
885128376,-3.964339778,0.6335530866,-20.515628,
886962320,-4.066960341,0.6261119358,-47.72679426,
888796265,-3.214222598,0.6906990682,-68.74207536,
890630210,-2.66989008,0.7353693015,-98.62665048,
892464154,-3.905220863,0.6378799579,-140.994718,
894298099,-6.602735416,0.4675878624,-172.2010261,
896132044,-9.240919634,0.3451071986,161.2696713,
897965988,-14.50272182,0.188305892,55.14284338,
899799933,-8.305371608,0.3843540128,-100.4289293,
901633877,-4.702647326,0.5819258287,-173.4381859,
903467822,-5.04924878,0.559161886,150.8878189,
905301767,-5.217356703,0.5484438424,120.0265744,
907135711,-6.089519988,0.49604834,112.5734834,
908969656,-8.192849342,0.3893655583,111.0265908,
910803601,-4.755909565,0.5783683536,107.2438066,
912637545,-4.218147346,0.6153081007,74.87753746,
914471490,-10.84831607,0.2868033346,114.2580232,
916305435,-4.687787338,0.5829222507,88.9202478,
918139379,-2.439275456,0.7551552172,61.35864869,
919973324,-3.488694956,0.6692143611,33.10343873,
921807269,-8.469420093,0.3771629252,-12.73483644,
923641213,-11.7991595,0.2570644521,71.5408503,
925475158,-11.497353,0.2661536032,98.94384594,
927309103,-3.611319967,0.659832954,86.02432292,
929143047,-2.010031648,0.7934113659,55.80036976,
930976992,-1.950937242,0.7988277403,31.18028725,
932810936,-3.837819317,0.642849091,-9.124063835,
934644881,-23.40118724,0.06759905703,69.81878437,
936478826,-4.562137915,0.5914160471,67.59905108,
938312770,-2.904350537,0.7157848023,46.68282638,
940146715,-3.485818821,0.669435993,33.37224785,
941980660,-2.410863833,0.757629381,27.47555502,
943814604,-1.768782645,0.8157571101,8.732356644,
945648549,-8.94866222,0.3569167165,4.058759768,
947482494,-5.645773901,0.5220490442,9.849235109,
949316438,-3.39972047,0.6761047335,-14.15550167,
951150383,-7.748930187,0.4097825783,17.61925579,
952984328,-4.315680598,0.6084374956,8.01575745,
954818272,-2.48461414,0.751223721,-4.025461012,
956652217,-4.728283373,0.5802108305,-20.39561464,
958486162,-3.613991298,0.6596300546,-1.918873396,
960320106,-2.752756486,0.7283869826,-21.10709793,
962154051,-2.766739057,0.7272153664,-30.31976965,
963987995,-5.207241435,0.549082912,-60.89723763,
965821940,-5.658491924,0.5212852107,-40.64337605,
967655885,-11.09886896,0.2786483988,-56.51813514,
969489829,-6.044236754,0.4986412037,-43.34804891,
971323774,-8.97628553,0.3557834347,21.22588376,
973157719,-3.821109179,0.644087011,-1.074394248,
974991663,-2.529135784,0.7473829925,-18.37931626,
976825608,-2.131959953,0.7823516491,-32.55575935,
978659553,-2.376876306,0.7605997611,-47.04362515,
980493497,-3.568427007,0.6630994225,-43.23173563,
982327442,-2.538642848,0.7465653985,-63.04156381,
984161387,-6.168294418,0.4915698966,-64.05430552,
985995331,-3.210033027,0.6910323019,-71.54589778,
987829276,-3.463655068,0.6711463715,-91.24248919,
989663221,-11.71154248,0.2596706565,-137.414418,
991497165,-6.005419096,0.5008746422,-69.1934465,
993331110,-7.016033031,0.4458598324,-97.76712626,
995165055,-6.951289908,0.4491956114,-143.6104896,
996998999,-16.78818553,0.1447407183,-5.082328921,
998832944,-10.75219252,0.2899949092,-90.94059057,
1000666888,-12.9073084,0.2262739613,-161.7027619,
1002500833,-9.75939845,0.3251098124,89.70347103,
1004334778,-4.828595152,0.5735486243,21.00401557,
1006168722,-4.924924218,0.5672229434,-31.8630755,
1008002667,-6.669335076,0.4640163101,-20.82749175,
1009836612,-3.039686524,0.704718502,-36.58289581,
1011670556,-3.150501294,0.6957847973,-80.91671894,
1013504501,-10.58686527,0.2955675396,-142.7280519,
1015338446,-5.331304388,0.5412959537,1.458905051,
1017172390,-4.309854369,0.6088457538,-65.0246881,
1019006335,-11.94915601,0.2526633207,-105.7175133,
1020840280,-6.941058998,0.4497250203,-36.57294718,
1022674224,-14.003475,0.1994464221,-24.15879123,
1024508169,-10.54928102,0.2968492452,-36.16467311,
1026342114,-5.788976504,0.5135126833,-16.94776853,
1028176058,-3.623025694,0.6589443147,-41.60013514,
1030010003,-2.849725532,0.7203005119,-71.15400355,
1031843947,-5.072083774,0.5576937935,-134.7188074,
1033677892,-4.806369952,0.5750180829,37.12768268,
1035511837,-2.253095342,0.7715165255,-28.13376997,
1037345781,-3.24185951,0.6885048826,-44.6295202,
1039179726,-4.729872789,0.5801046685,-60.60787107,
1041013671,-2.726895566,0.7305588761,-56.3005233,
1042847615,-3.556570144,0.6640052189,-74.08791539,
1044681560,-4.485956327,0.5966260115,-83.67570062,
1046515505,-5.061936071,0.5583457265,-75.60425675,
1048349449,-4.927757773,0.5670379312,-82.60944649,
1050183394,-4.700534679,0.5820673862,-76.3516255,
1052017339,-4.986823118,0.5631950695,-87.30622659,
1053851283,-5.75903356,0.515285975,-91.45396799,
1055685228,-7.117662507,0.4406734389,-94.70668639,
1057519173,-5.735882872,0.5166612096,-105.568762,
1059353117,-28.49012961,0.03762647377,-145.0729017,
1061187062,-4.33841878,0.6068467928,-39.07548465,
1063021007,-7.438544698,0.424690714,-54.42060306,
1064854951,-2.512738035,0.7487952801,-57.83819057,
1066688896,-1.767249764,0.8159010871,-73.90454603,
1068522840,-2.088685574,0.7862591659,-82.60032406,
1070356785,-1.760551376,0.8165305367,-87.5464964,
1072190730,-1.538575283,0.8376666705,-96.39410097,
1074024674,-2.191372128,0.7770185619,-104.7770707,
1075858619,-2.815678567,0.7231294879,-104.8786025,
1077692564,-2.713057005,0.7317237472,-116.1146284,
1079526508,-4.901699627,0.5687416304,-120.5403334,
1081360453,-5.76868679,0.5147136201,-109.3922059,
1083194398,-6.329944899,0.4825060409,-102.4634167,
1085028342,-3.407793482,0.6754766267,-101.0595899,
1086862287,-3.419972366,0.6745301737,-116.7901309,
1088696232,-7.21696312,0.4356641699,-129.2974691,
1090530176,-3.960451575,0.6338367576,-98.38545147,
1092364121,-3.587771034,0.6616243012,-105.8434262,
1094198066,-4.57862781,0.590294327,-128.6414592,
1096032010,-7.294693116,0.4317828059,-87.98689838,
1097865955,-2.84330909,0.720832809,-97.25378959,
1099699899,-2.626984613,0.7390107729,-108.4463564,
1101533844,-1.573482504,0.8343069757,-115.2039426,
1103367789,-3.038129282,0.7048448581,-135.7318549,
1105201733,-3.179800149,0.693441761,-108.0970575,
1107035678,-2.171279757,0.778818057,-121.7195901,
1108869623,-3.936545581,0.6355836562,-136.5196258,
1110703567,-1.927651697,0.8009721487,-111.4272769,
1112537512,-1.506774894,0.840739119,-126.6113007,
1114371457,-2.847835875,0.7204572337,-130.0157766,
1116205401,-1.458052926,0.8454683485,-128.4055296,
1118039346,-2.739324382,0.7295142521,-130.9100572,
1119873291,-0.990805198,0.8921949076,-136.5440827,
1121707235,-1.066161476,0.8844879614,-140.8009014,
1123541180,-0.8691593283,0.9047780033,-146.2552283,
1125375125,-0.8777880816,0.9038796233,-151.9627082,
1127209069,-0.9762650388,0.8936896906,-159.0162443,
1129043014,-1.594292787,0.8323104754,-168.1897943,
1130876958,-2.629238703,0.7388190158,-172.4279489,
1132710903,-4.182957467,0.6178060069,-178.2022092,
1134544848,-5.450948042,0.5338909976,169.8877925,
1136378792,-13.56712908,0.2097217852,-130.8681466,
1138212737,-4.498433786,0.5957695612,-137.7633375,
1140046682,-5.971034035,0.5028613978,-155.9776302,
1141880626,-4.583565875,0.5899588308,-140.1455486,
1143714571,-2.924172334,0.7141531947,-160.574067,
1145548516,-16.56480875,0.1485113215,-153.0532539,
1147382460,-2.052042931,0.7895831167,-130.0860446,
1149216405,-1.389826401,0.8521355422,-147.1600192,
1151050350,-1.548567778,0.836703549,-157.829462,
1152884294,-1.573393087,0.8343155646,-164.5279426,
1154718239,-2.211245472,0.7752427731,-170.6487668,
1156552184,-2.438596975,0.755214207,-177.2796369,
1158386128,-3.660847642,0.6560812373,168.2760708,
1160220073,-9.875401892,0.3207967098,166.7182965,
1162054018,-7.144643789,0.4393066835,-148.0935712,
1163887962,-8.254674411,0.3866039433,-159.6364641,
1165721907,-2.539540522,0.7464882461,-135.4383221,
1167555851,-1.672006172,0.8248969377,-153.9191939,
1169389796,-1.746863761,0.8178182766,-160.2042733,
1171223741,-1.382001868,0.8529035197,-167.9589922,
1173057685,-1.66737919,0.8253364782,-176.4285603,
1174891630,-2.575925987,0.7433677239,-179.1148716,
1176725575,-3.673451623,0.6551298967,172.1812214,
1178559519,-3.604142604,0.6603784154,-168.5458731,
1180393464,-2.733688227,0.7299877776,172.8379535,
1182227409,-5.802839887,0.5126937293,-150.8464182,
1184061353,-2.216868305,0.7747410801,-162.4419541,
1185895298,-1.327387983,0.8582831785,-174.7871405,
1187729243,-1.787972327,0.8139568524,179.064088,
1189563187,-2.494763858,0.7503464067,178.24131,
1191397132,-1.761132751,0.8164758855,177.830339,
1193231077,-1.664413303,0.825618346,171.8219825,
1195065021,-2.087693029,0.7863490176,168.1320496,
1196898966,-3.752137886,0.6492218169,168.4224901,
1198732910,-1.943769024,0.7994872623,174.2560218,
1200566855,-2.343976468,0.7634861737,167.0666958,
1202400800,-1.77703222,0.8149826983,175.6679813,
1204234744,-1.100309439,0.8810174858,168.5616193,
1206068689,-1.041015626,0.8870522845,163.6364474,
1207902634,-0.9962363445,0.891637207,158.6117827,
1209736578,-1.151784687,0.8758117463,152.3077788,
1211570523,-3.217114544,0.6904691399,145.1440614,
1213404468,-2.089294328,0.7862040625,155.1685695,
1215238412,-2.170893922,0.7788526536,149.8734996,
1217072357,-2.276156662,0.7694708409,154.0737795,
1218906302,-1.811537277,0.8117515679,148.5884247,
