Frequency,S11_Magnitude,S11_Magnitude (linear),S11_Phase,
500000000,-0.5724020268,0.9362242773,106.9019179,
501833944,-0.5757479805,0.9358636971,104.089024,
503667889,-1.915652923,0.8020793842,103.5119226,
505501833,-0.5684567891,0.9366496184,100.6712365,
507335778,-0.5665024359,0.9368603914,98.15118559,
509169723,-0.5671754379,0.9367878041,95.76942782,
511003667,-0.5764438698,0.9357887213,93.09271649,
512837612,-0.6240385822,0.9306750492,92.74147405,
514671557,-0.5822567603,0.9351626694,88.78803755,
516505501,-2.180489697,0.7779926878,80.14013084,
518339446,-0.6306922468,0.9299623958,84.19609588,
520173391,-0.7420381189,0.9181171377,77.5421411,
522007335,-4.991002472,0.5629241444,113.6785507,
523841280,-0.6778454553,0.9249275748,86.74498532,
525675225,-0.6111443561,0.9320576647,81.39360005,
527509169,-0.6005892961,0.9331909861,77.74827514,
529343114,-0.6044465333,0.9327766659,74.3995779,
531177059,-0.6160916648,0.9315269345,70.91166049,
533011003,-0.6327756315,0.9297393631,66.9173337,
534844948,-0.6756948008,0.9251566182,61.39922719,
536678892,-1.285164144,0.8624656215,42.0025526,
538512837,-0.7318398355,0.9191957512,60.13463999,
540346782,-0.9057809415,0.9009712916,46.08430697,
542180726,-1.724240218,0.8199511685,20.49118236,
544014671,-7.39553361,0.4267989276,-106.2646426,
545848616,-1.695444936,0.8226739645,114.616582,
547682560,-0.822689416,0.9096315794,87.04491768,
549516505,-0.6859102777,0.9240691809,72.43382689,
551350450,-4.016795911,0.6297384407,52.86485293,
553184394,-2.250740175,0.7717257496,74.48420381,
555018339,-1.004243193,0.8908156544,69.71992622,
556852284,-0.8376876676,0.9080622397,64.61232883,
558686228,-0.7714961624,0.9150086336,60.55761228,
560520173,-0.7423434884,0.91808486,56.90787204,
562354118,-0.7233919023,0.9200901998,53.8963041,
564188062,-0.6961278044,0.9229828039,50.13134162,
566022007,-0.6803142139,0.9246647234,46.30524712,
567855951,-0.6771137789,0.9250054915,41.52184453,
569689896,-0.8098712997,0.9109749502,32.71717573,
571523841,-6.312928012,0.4834522652,53.1296249,
573357785,-1.48672837,0.8426817365,30.52345376,
575191730,-1.186884802,0.8722796887,50.79550048,
577025675,-0.9165690871,0.8998529519,41.05090326,
578859619,-0.8459286648,0.9072010971,35.39882969,
580693564,-0.8162026079,0.9103111654,28.7508268,
582527509,-9.769021745,0.3247498153,-11.06793033,
584361453,-0.9718060562,0.8941485924,32.86416761,
586195398,-1.20774971,0.8701868468,32.64229287,
588029343,-0.9539104714,0.8959927106,25.9388813,
589863287,-0.9214261042,0.8993499085,21.68242243,
591697232,-0.9268817243,0.8987852028,16.92076091,
593531177,-1.360446044,0.855022804,19.55483019,
595365121,-1.032140117,0.887959165,11.62537548,
597199066,-1.207621357,0.8701997059,2.982912142,
599033011,-2.432414189,0.7557519746,43.05830853,
600866955,-0.9148007111,0.9000361732,11.86077505,
602700900,-0.9340352335,0.8980452877,5.14667411,
604534844,-1.001136334,0.8911343476,-0.9803823563,
606368789,-5.583958281,0.5257776076,-7.841455787,
608202734,-1.112884043,0.8797429553,-2.240083259,
610036678,-1.135270078,0.8774785241,-8.819363556,
611870623,-1.335513616,0.8574806317,-16.66478428,
613704568,-7.407463415,0.4262131346,37.51677381,
615538512,-1.002052227,0.8910403859,-12.2435507,
617372457,-1.115363993,0.8794918116,-20.21446259,
619206402,-1.276997717,0.8632768884,-27.09538427,
621040346,-1.293860482,0.8616025505,-31.74560303,
622874291,-1.550215663,0.8365448248,-41.07579947,
624708236,-1.998927304,0.7944263392,-53.03918981,
626542180,-3.150944369,0.6957493056,-74.25421182,
628376125,-7.85546644,0.4047871133,-137.843079,
630210070,-4.006678416,0.6304723998,55.56837039,
632044014,-1.239377494,0.867024012,3.837174155,
633877959,-0.9073778265,0.9008056649,-17.84884091,
635711903,-1.015373892,0.8896748328,-31.92551406,
637545848,-1.181672889,0.8728032516,-46.09526733,
639379793,-4.526371639,0.5938563683,-93.28766112,
641213737,-1.125498575,0.8784662305,-23.68617595,
643047682,-0.9181043964,0.8996939088,-44.31952694,
644881627,-0.9971829993,0.8915400348,-55.37114078,
646715571,-1.117212848,0.8793046252,-64.9835198,
648549516,-1.272051762,0.8637685991,-74.77249899,
650383461,-1.490384074,0.8423271445,-85.80972079,
652217405,-1.820024957,0.8109587277,-99.58827171,
654051350,-2.550341574,0.7455605522,-122.1093002,
655885295,-3.445116544,0.6725803468,-111.5264939,
657719239,-4.257112026,0.6125540262,-156.7626886,
659553184,-6.119768703,0.4943238502,146.2481563,
661387129,-5.935352218,0.5049314119,95.88869248,
663221073,-3.50273436,0.6681335528,23.70496824,
665055018,-2.34192449,0.763666563,-29.41104718,
666888962,-5.654740142,0.5215104232,18.840147,
668722907,-1.787959627,0.8139580424,-34.42118654,
670556852,-1.519129953,0.8395440777,-60.1766057,
672390796,-2.718971296,0.7312256803,-64.81445025,
674224741,-1.54227057,0.837310373,-107.5890722,
676058686,-3.991701394,0.631560457,23.68417874,
677892630,-1.288266645,0.8621576136,-67.04877711,
679726575,-1.138120636,0.8771905981,-90.93498876,
681560520,-1.267238425,0.8642473942,-115.4760717,
683394464,-2.379086081,0.7604062817,-147.9641596,
685228409,-2.410758671,0.7576385538,-177.1343165,
687062354,-3.473796025,0.6703632514,81.82069057,
688896298,-2.546325765,0.7459053322,-22.91479023,
690730243,-2.919515169,0.7145362091,-93.77545578,
692564188,-3.132108487,0.6972597176,-56.38644386,
694398132,-12.73842218,0.2307166254,164.2972378,
696232077,-1.658014745,0.8262267711,-91.33991833,
698066022,-1.95703279,0.7982673389,-127.2174417,
699899966,-6.115913056,0.4945433282,-162.6687964,
701733911,-7.287669504,0.4321320967,69.52402941,
703567855,-2.589817551,0.7421797872,-107.5165933,
705401800,-2.778472827,0.7262336343,-71.69958416,
707235745,-1.200362718,0.8709272198,-119.5721001,
709069689,-1.229015854,0.8680589262,-151.3901414,
710903634,-7.013653261,0.4459820063,148.8677004,
712737579,-2.047633799,0.7899840267,-157.1283142,
714571523,-1.519855444,0.8394739574,152.3735304,
716405468,-3.226207401,0.6897466978,126.5589499,
718239413,-4.317848611,0.6082856476,-10.69248402,
720073357,-4.757745485,0.5782461178,172.220929,
721907302,-3.832030858,0.6432776419,-29.86654904,
723741247,-11.13274432,0.277563774,153.8909821,
725575191,-1.621544384,0.82970323,-85.7988605,
727409136,-1.063250159,0.8847844718,-126.4494573,
729243081,-0.9682550297,0.8945142192,-150.5794775,
731077025,-0.9408492584,0.8973410531,-170.084383,
732910970,-0.9562994576,0.8957463086,173.5499383,
734744914,-0.9501865624,0.8963769326,156.8655363,
736578859,-0.9748149867,0.8938388987,140.5539741,
738412804,-1.02332197,0.8888611026,122.9771047,
740246748,-3.326028084,0.6818653094,126.2290224,
742080693,-1.19542296,0.8714226663,97.10514577,
743914638,-1.195984667,0.871366314,78.94210298,
745748582,-1.232771404,0.8676836815,60.85501783,
747582527,-1.286352696,0.8623476123,41.53375135,
749416472,-1.56058517,0.8355467254,15.31915695,
751250416,-1.614179163,0.8304070772,17.3410457,
753084361,-1.8206682,0.8108986736,-21.2059037,
754918306,-1.97902074,0.7962491156,12.49003583,
756752250,-1.276624409,0.8633139917,-38.03056195,
758586195,-1.561730686,0.8354365388,-95.45100501,
760420140,-3.973860913,0.6328589908,68.54847017,
762254084,-1.636540331,0.8282720063,-17.30373926,
764088029,-1.441805547,0.8470513182,-48.28105623,
765921973,-1.438002183,0.8474223049,-71.88749598,
767755918,-1.667307975,0.8253432452,-100.2205513,
769589863,-4.228104282,0.6146031558,169.7370627,
771423807,-1.726021788,0.8197830048,-51.74755937,
773257752,-1.684723722,0.8236900388,-53.97095054,
775091697,-1.054345093,0.8856920477,-97.40346582,
776925641,-2.703159005,0.7325580578,-72.43919822,
778759586,-1.071607046,0.8839336104,-110.6580205,
780593531,-1.008394969,0.8903899545,-125.4191317,
782427475,-1.346867308,0.8563605149,-128.5988813,
784261420,-1.117968611,0.8792281199,-145.2854435,
786095365,-1.666773686,0.8253940154,-156.2355536,
787929309,-1.005141101,0.8907235707,-163.0356962,
789763254,-3.144903947,0.6962333183,155.7827973,
791597199,-1.035352974,0.8876307752,-171.2473189,
793431143,-1.035585854,0.887606977,169.9661774,
795265088,-1.685850027,0.8235832373,146.7927191,
797099033,-2.925655132,0.7140312896,101.1792645,
798932977,-4.944060938,0.5659746155,-95.1586119,
800766922,-1.978949004,0.7962556918,-170.7133946,
802600866,-2.688344787,0.7338085382,-175.8944936,
804434811,-5.576219626,0.5262462555,86.44496029,
806268756,-1.700020796,0.8222406813,-178.9577327,
808102700,-2.070236023,0.7879310206,153.7116635,
809936645,-7.358579497,0.4286186116,94.04050455,
811770590,-1.626125221,0.8292657696,160.8351272,
813604534,-1.854779507,0.8077203498,138.244514,
815438479,-3.955036773,0.6342320159,103.5075067,
817272424,-2.181608549,0.777892479,151.8875486,
819106368,-2.639207936,0.7379715225,97.62816407,
820940313,-6.317443826,0.4832009825,129.4727754,
822774258,-2.096948454,0.7855115538,144.0392575,
824608202,-1.174593196,0.8735149459,123.4597957,
826442147,-1.020956687,0.8891031843,110.4538099,
828276092,-0.9841154307,0.8928823301,98.9069086,
830110036,-1.323472244,0.8586701935,85.88759547,
831943981,-1.067693833,0.8843319346,79.31628492,
833777925,-1.062584563,0.8848522751,64.85652447,
835611870,-1.230912934,0.8678693547,47.7858058,
837445815,-2.251668058,0.7716433132,21.62368805,
839279759,-4.681193659,0.5833649298,-1.402697803,
841113704,-9.602622482,0.33103116,-69.16173931,
842947649,-11.45058215,0.2675906242,22.94827641,
844781593,-4.555210603,0.591887911,-166.5953938,
846615538,-2.458445794,0.7534903771,119.5675594,
848449483,-1.889371261,0.8045099819,81.16026409,
850283427,-1.501999746,0.8412014501,49.11734456,
852117372,-1.673158494,0.8247875093,14.39201651,
853951317,-2.869251859,0.718683058,-41.01847024,
855785261,-6.46986874,0.4747954659,-135.5663633,
857619206,-9.22535439,0.3457261903,100.1847816,
859453151,-3.401674484,0.6759526513,149.5886015,
861287095,-3.331765962,0.6814150195,58.78114399,
863121040,-4.994801986,0.5626779554,56.1351277,
864954984,-5.530958467,0.5289956206,-12.73005525,
866788929,-7.005566892,0.4463973989,-89.9228135,
868622874,-5.850572752,0.5098839745,175.4063698,
870456818,-6.31178658,0.4835158009,159.2358626,
872290763,-4.129971728,0.621586271,50.56092774,
874124708,-8.514336526,0.3752175762,-78.46757066,
875958652,-4.556854775,0.5917758818,139.5873251,
877792597,-3.079602496,0.7014874008,89.79459072,
879626542,-7.604331549,0.4166615475,11.66527017,
881460486,-3.376638594,0.677903803,76.97844044,
883294431,-4.191128146,0.6172251199,-73.06926428,
885128376,-3.487500583,0.6693063893,130.2766009,
886962320,-2.461552457,0.7532209261,66.50800648,
888796265,-6.838499352,0.4550666745,111.6216964,
890630210,-3.093823737,0.7003398086,-0.03117372171,
892464154,-6.524505916,0.471818216,-104.9997625,
894298099,-3.800876402,0.6455890861,163.68611,
896132044,-2.539646334,0.7464791524,108.9049326,
897965988,-2.626171994,0.7390799152,71.70015704,
899799933,-9.602862243,0.3310220225,-8.399619717,
901633877,-2.854288059,0.7199222515,89.86212591,
903467822,-9.322063526,0.3418982073,89.15421834,
905301767,-2.517757091,0.7483627211,48.91019017,
907135711,-13.80173637,0.2041329828,159.3059329,
908969656,-2.083828736,0.7866989368,60.25215523,
910803601,-1.767969471,0.8158334849,31.57742419,
912637545,-2.478395037,0.7517617903,4.771748668,
914471490,-2.892254489,0.7167823051,0.682980901,
916305435,-9.272237633,0.3438651145,-92.04208498,
918139379,-11.84150216,0.2558143437,46.87708758,
919973324,-9.779334025,0.3243644865,45.39979012,
921807269,-3.675990093,0.6549384616,101.431546,
923641213,-1.318351413,0.8591765782,34.928112,
925475158,-4.060597913,0.6265707317,-14.52691592,
927309103,-1.342635447,0.8567778448,-25.03898599,
929143047,-1.824355735,0.8105544851,-87.01432143,
930976992,-3.615548471,0.6595118093,-172.753258,
932810936,-2.477826758,0.7518109764,114.1616948,
934644881,-1.433183869,0.847892525,73.38820728,
936478826,-1.14648392,0.8763463941,45.27391888,
938312770,-1.040407325,0.8871144098,21.6561843,
940146715,-1.303570067,0.86063994,-10.80013358,
941980660,-15.27296899,0.1723262949,-29.97675456,
943814604,-4.181742809,0.6178924086,76.91350024,
945648549,-4.077828859,0.6253289816,17.05038018,
947482494,-1.423538779,0.848834575,16.1250025,
949316438,-3.621930662,0.6590273932,10.46378608,
951150383,-1.434933114,0.8477217858,-34.83759596,
952984328,-6.242222159,0.487403779,178.5025102,
954818272,-19.92412458,0.1008773746,-101.8900758,
956652217,-1.729797358,0.8194267402,25.81560948,
958486162,-1.427783777,0.848419831,-1.822692022,
960320106,-2.048492225,0.7899059565,12.67805339,
962154051,-1.107773857,0.8802606885,-11.82286806,
963987995,-1.304136797,0.8605837875,-20.3305731,
965821940,-1.001163164,0.891131595,-35.548077,
967655885,-1.564075444,0.8352110429,-55.3888447,
969489829,-1.458331031,0.8454412787,-59.73388272,
971323774,-1.877910129,0.8055722429,-50.16396328,
973157719,-1.778477219,0.8148471277,-91.63465976,
974991663,-4.804840877,0.5751193187,176.1884781,
976825608,-6.085247683,0.4962923899,-22.3841806,
978659553,-2.815372251,0.7231549903,-72.73520738,
980493497,-11.58617641,0.2634457397,151.712067,
982327442,-1.504123406,0.8409958054,-24.50755537,
984161387,-2.513618624,0.74871937,-86.42163557,
985995331,-2.551817431,0.7454338815,-0.2674381484,
987829276,-1.288485802,0.8621358604,-56.88499582,
989663221,-2.531376857,0.7471901828,-72.00459089,
991497165,-8.100277834,0.3935374873,54.01410515,
993331110,-1.247520814,0.8662115281,-65.66741172,
995165055,-1.134394015,0.8775670315,-99.19397812,
996998999,-1.356465526,0.8554147286,-131.5090637,
998832944,-2.039454867,0.7907282531,-163.7340979,
1000666888,-1.831855497,0.8098549204,145.2010789,
1002500833,-1.909076671,0.8026868837,93.42272237,
1004334778,-8.311852012,0.3840673593,5.103673565,
1006168722,-1.66684989,0.8253867741,38.34564667,
1008002667,-1.431632037,0.848044024,7.855453588,
1009836612,-1.220102379,0.8689501871,-8.105970727,
1011670556,-1.294536181,0.8615355267,-37.09894325,
1013504501,-1.737143609,0.8187339879,-59.00188123,
1015338446,-3.052884006,0.7036485543,-65.51788895,
1017172390,-4.432383378,0.6003172613,143.7724579,
1019006335,-2.104503273,0.7848286281,18.71873273,
1020840280,-1.307752703,0.8602256039,-26.04080103,
1022674224,-3.983673346,0.6321444549,-39.38950033,
1024508169,-7.784835219,0.4080921483,-67.79084535,
1026342114,-3.050348396,0.7038539954,3.863621366,
1028176058,-5.046907204,0.5593126473,-13.97855152,
1030010003,-2.470164789,0.752474454,-77.75778789,
1031843947,-2.857893446,0.7196234843,-37.12363715,
1033677892,-6.051267105,0.4982377673,-97.89852605,
1035511837,-2.345200074,0.7633786267,-16.18067022,
1037345781,-1.08516002,0.8825554456,-39.15455219,
1039179726,-1.011913776,0.8900293148,-55.94103888,
1041013671,-1.185598577,0.8724088673,-67.88721692,
1042847615,-3.890484837,0.6389630701,-26.39749779,
1044681560,-1.001385544,0.8911087802,-63.28608171,
1046515505,-3.396997485,0.6763167224,-80.49873213,
1048349449,-1.163780173,0.8746030577,-75.23274895,
1050183394,-1.267551719,0.8642162219,-67.44451991,
1052017339,-0.8910263214,0.9025030618,-80.05900359,
1053851283,-0.9021202028,0.9013510933,-88.32693286,
1055685228,-2.456040084,0.7536990985,-100.587991,
1057519173,-1.371450515,0.8539402303,-90.20808382,
1059353117,-0.8481195379,0.9069722994,-105.8060519,
1061187062,-1.798967639,0.8129271309,-114.5822187,
1063021007,-9.700974638,0.3273039663,165.4396932,
1064854951,-2.023476728,0.792184177,-79.58162008,
1066688896,-1.083423143,0.8827319438,-91.23915992,
1068522840,-1.813248704,0.81159164,-90.34989845,
1070356785,-1.084900701,0.8825817949,-106.0273097,
1072190730,-1.578392435,0.8338354948,-115.1748225,
1074024674,-7.568136234,0.4184014571,-105.1702356,
1075858619,-3.206985189,0.6912748244,-114.6882433,
1077692564,-2.356800365,0.76235979,-120.6119192,
1079526508,-1.092224896,0.8818378899,-111.2031631,
1081360453,-1.655398173,0.8264757045,-126.9016641,
1083194398,-1.030969769,0.8880788179,-137.7486945,
1085028342,-4.35150958,0.6059328822,-113.812741,
1086862287,-4.940443518,0.5662103766,-134.2359658,
1088696232,-7.976476216,0.3991868159,-156.342305,
1090530176,-4.356317979,0.6055975382,-168.5912093,
1092364121,-7.371184999,0.4279970248,-146.993717,
1094198066,-11.92376691,0.2534029432,83.25129842,
1096032010,-8.894210925,0.3591612329,-42.15195724,
1097865955,-1.245790568,0.8663840963,-96.47496536,
1099699899,-1.944646135,0.7994065333,-124.8526291,
1101533844,-1.825043141,0.8104903399,-135.2342579,
1103367789,-10.1361708,0.3113088449,-87.10149453,
1105201733,-2.253330661,0.7714956239,-145.4184037,
1107035678,-1.431006781,0.8481050729,-141.3989245,
1108869623,-7.140767868,0.4395027599,157.1235804,
1110703567,-10.10778771,0.31232778,-46.93040644,
1112537512,-5.556289814,0.5274551163,-145.9419349,
1114371457,-2.308223898,0.7666352867,-176.451874,
1116205401,-4.78621616,0.5763538413,-54.10168568,
1118039346,-2.520899351,0.7480920378,-135.2517944,
1119873291,-3.281300342,0.6853856115,-176.6003213,
1121707235,-4.658914401,0.5848631782,-42.16430292,
1123541180,-2.740607356,0.7294065051,-97.65960588,
1125375125,-0.9855975805,0.8927299827,-121.7964064,
1127209069,-1.404190577,0.8507274989,-147.1324364,
1129043014,-2.708935216,0.7320710606,-98.24234554,
1130876958,-1.61224661,0.8305918579,-125.147284,
1132710903,-0.8452897687,0.9072678293,-135.2655795,
1134544848,-0.7874758171,0.9133268162,-147.1131981,
1136378792,-0.918785053,0.8996234084,-157.6594968,
1138212737,-4.341578611,0.6066260687,177.187728,
1140046682,-2.681289493,0.7344048316,-127.0253018,
1141880626,-2.42761906,0.7561693099,-118.4042509,
1143714571,-0.9952418744,0.8917392987,-153.677266,
1145548516,-1.416171604,0.8495548426,177.4863849,
1147382460,-6.400243958,0.4786166494,-41.74108972,
1149216405,-3.745120701,0.6497465242,-138.1457159,
1151050350,-1.27301989,0.8636723289,-139.8431151,
1152884294,-0.951495904,0.8962418198,-150.0373037,
1154718239,-0.9137500626,0.9001450485,-159.9870148,
1156552184,-2.65941482,0.7362566985,171.0794977,
1158386128,-1.171405406,0.8738355917,-152.6502558,
1160220073,-0.7709179798,0.9150695438,-165.9654617,
1162054018,-2.873047906,0.7183690362,-178.8062765,
1163887962,-1.176012079,0.8733722646,-158.3233267,
1165721907,-1.705247189,0.8217460791,170.1184849,
1167555851,-2.136757615,0.7819196355,-167.7123097,
1169389796,-2.132602538,0.7822937726,-178.8951455,
1171223741,-1.325427987,0.8584768744,-156.3508803,
1173057685,-2.218160688,0.7746258141,-158.5129672,
1174891630,-0.8947889293,0.9021121945,-175.4765239,
1176725575,-1.051374036,0.8859950555,170.7295474,
1178559519,-4.291264771,0.6101502049,-167.6247776,
1180393464,-5.868056684,0.5088586552,-137.6387743,
1182227409,-1.266340133,0.864336779,174.0218512,
1184061353,-19.85771985,0.1016515506,63.09528548,
1185895298,-1.468463321,0.844455627,-175.0441877,
1187729243,-2.080865113,0.786967404,174.0788482,
1189563187,-1.835014311,0.8095604524,-159.2215506,
1191397132,-1.751404508,0.8173908552,-160.167228,
1193231077,-0.9138191063,0.9001378933,-176.0389842,
1195065021,-0.7967285133,0.9123544073,173.7849961,
1196898966,-1.610857544,0.8307246985,168.2281111,
1198732910,-0.8754766054,0.9041201944,168.2957473,
1200566855,-3.518308494,0.666936637,160.5294113,
1202400800,-1.36300593,0.8547708507,169.5249964,
1204234744,-1.414523707,0.8497160364,169.1008357,
1206068689,-2.101785742,0.7850742137,159.6881827,
1207902634,-2.34360388,0.7635189246,160.0458911,
1209736578,-2.182359076,0.777825266,153.5242555,
1211570523,-1.110635985,0.8799706774,155.2901028,
1213404468,-1.253530376,0.865612424,139.0650361,
1215238412,-12.30802246,0.2424369865,135.1938368,
1217072357,-1.562254014,0.8353862049,161.6152961,
1218906302,-11.99442162,0.251350017,168.2030865,
