Frequency,S11_Magnitude,S11_Magnitude (linear),S11_Phase,
500000000,-0.5655559113,0.9369624891,104.3012059,
501833944,-0.6404202149,0.9289214454,101.0086141,
503667889,-0.5854269598,0.9348214135,102.4543235,
505501833,-0.5675146964,0.9367512153,99.81892312,
507335778,-0.5720513457,0.9362620769,97.74884979,
509169723,-0.5775424259,0.935670374,95.71021978,
511003667,-0.5821085294,0.9351786288,93.79969373,
512837612,-0.5879003889,0.9345552479,91.59759835,
514671557,-0.6331079406,0.9297037934,88.65263781,
516505501,-0.6383990957,0.9291376212,89.97344091,
518339446,-0.6014563101,0.9330978409,86.74301789,
520173391,-0.6132365833,0.9318331809,84.38520012,
522007335,-0.6718930753,0.9255616385,82.24343119,
523841280,-0.6210858877,0.930991478,80.37216931,
525675225,-0.6094993808,0.932234199,77.93412258,
527509169,-0.613359495,0.9318199949,75.43826021,
529343114,-0.62885215,0.9301594282,72.80759705,
531177059,-0.6508824835,0.9278032208,69.94330979,
533011003,-0.675983388,0.9251258806,66.75974699,
534844948,-0.7105019717,0.9214566347,62.93627278,
536678892,-0.8229938812,0.9095996948,58.32122663,
538512837,-1.013280593,0.8898892703,51.64362923,
540346782,-1.617977865,0.830043985,40.06918852,
542180726,-5.355650523,0.5397808512,11.53409165,
544014671,-6.046272712,0.4985243368,114.583458,
545848616,-1.578295965,0.8338447558,78.25787425,
547682560,-1.892472429,0.8042227948,55.8454259,
549516505,-7.17542326,0.4377527036,83.87950222,
551350450,-1.532763266,0.8382273686,73.62517263,
553184394,-3.656032515,0.6564450446,41.05527983,
555018339,-1.564443969,0.8351756073,75.6724522,
556852284,-1.00336948,0.890905266,65.18442877,
558686228,-1.185692518,0.8723994319,61.82877246,
560520173,-0.8322073143,0.9086353614,55.21328372,
562354118,-0.8432228736,0.9074837485,47.09884369,
564188062,-6.143298443,0.4929865581,23.30098064,
566022007,-1.495004502,0.8418791907,60.46745346,
567855951,-1.035479171,0.8876178789,52.22211852,
569689896,-0.9264036144,0.8988346773,47.10683022,
571523841,-0.9151416314,0.9000008476,41.58336617,
573357785,-2.81750278,0.722977632,49.26703094,
575191730,-0.9781217278,0.8934986766,40.8800164,
577025675,-0.9075030258,0.9007926807,35.91588873,
578859619,-0.9081221614,0.9007284739,30.15760562,
580693564,-2.547631595,0.7457932018,8.259597385,
582527509,-1.25498823,0.8654671505,34.85816972,
584361453,-1.105650133,0.880475941,32.06763455,
586195398,-1.013480116,0.8898688289,27.26025165,
588029343,-1.00517913,0.8907196709,23.43393129,
589863287,-1.026300335,0.8885563671,19.76312191,
591697232,-1.094808381,0.8815756397,15.772045,
593531177,-1.450925577,0.8461623961,9.962334154,
595365121,-2.697137601,0.7330660722,14.94483741,
597199066,-1.063676542,0.8847410395,12.65187866,
599033011,-1.025889047,0.8885984425,6.6722874,
600866955,-1.107267906,0.880311965,1.10762865,
602700900,-1.398736614,0.8512618476,-7.117320222,
604534844,-8.896388055,0.35907122,-15.8905523,
606368789,-1.363066413,0.8547648987,6.974531604,
608202734,-1.190086325,0.8719582352,-2.685232553,
610036678,-1.243210642,0.8666414722,-8.838299574,
611870623,-1.362878754,0.8547833661,-14.47270009,
613704568,-1.580727851,0.8336113276,-20.31597029,
615538512,-2.193530587,0.7768254954,-28.39180088,
617372457,-5.823074128,0.5115007721,-22.28051941,
619206402,-1.205061706,0.8704561834,-22.97947085,
621040346,-1.386228378,0.852488602,-37.15168539,
622874291,-1.838884496,0.8091998157,-49.957187,
624708236,-2.65889722,0.7363005739,-66.96858431,
626542180,-4.58458511,0.5898896068,-96.35244235,
628376125,-9.403627484,0.3387026743,-172.8622672,
630210070,-5.226949878,0.5478384452,58.66120905,
632044014,-2.610074527,0.7404509142,-9.011406389,
633877959,-15.1200218,0.17538761,-176.4197795,
635711903,-8.089812116,0.3940119504,52.92820363,
637545848,-2.302143627,0.7671721324,7.145285989,
639379793,-1.506871787,0.8407297404,4.256115826,
641213737,-0.9076535158,0.9007770739,-13.56646894,
643047682,-0.891127205,0.9024925796,-24.25850824,
644881627,-0.9439603942,0.8970196986,-33.36684136,
646715571,-1.086007957,0.8824692927,-42.57663233,
648549516,-1.467790723,0.8445210205,-53.82846759,
650383461,-3.417341262,0.6747345313,-73.65272887,
652217405,-6.20668856,0.4894018109,-7.54727377,
654051350,-1.341867775,0.8568535715,-39.56146509,
655885295,-1.320670854,0.8589471783,-56.05098077,
657719239,-3.466179231,0.6709513614,-64.53871837,
659553184,-1.545528368,0.8369963837,-59.42072419,
661387129,-1.150401418,0.8759512346,-72.8679132,
663221073,-1.386097765,0.8525014214,-86.96542728,
665055018,-3.296652746,0.6841752549,-107.8818112,
666888962,-13.8774399,0.2023615535,-142.9050153,
668722907,-3.034066933,0.7051745878,-66.75892972,
670556852,-5.87466194,0.5084718365,-105.5196172,
672390796,-2.980002578,0.7095775573,-98.63893924,
674224741,-9.252605814,0.3446431962,-135.3435983,
676058686,-6.239386186,0.487562944,-24.05919895,
677892630,-2.695857478,0.7331741192,-81.09518867,
679726575,-2.207070197,0.7756155191,-90.59263909,
681560520,-2.378085748,0.760493861,-111.9923223,
683394464,-3.658281314,0.6562751113,-125.2756116,
685228409,-7.064490355,0.4433793703,-170.5505729,
687062354,-8.156898119,0.3909804968,-74.95670046,
688896298,-4.539426539,0.5929644721,-134.6870976,
690730243,-8.366565617,0.3816556703,145.3490414,
692564188,-6.933900181,0.4500958316,-3.162811528,
694398132,-3.524191065,0.6664851031,-58.07554654,
696232077,-3.764104212,0.6483280166,-95.06247565,
698066022,-2.729284638,0.730357962,-105.2861093,
699899966,-5.002652227,0.5621696411,-151.3104117,
701733911,-8.645847542,0.3695792867,-124.11228,
703567855,-2.602890511,0.7410635873,-88.80562824,
705401800,-1.709393153,0.8213539354,-130.4277927,
707235745,-6.466428662,0.4749835477,160.4318241,
709069689,-3.609844349,0.6599450604,-98.06410081,
710903634,-2.049816069,0.7897855736,-133.7753721,
712737579,-2.017099629,0.7927660047,-158.6266327,
714571523,-2.767240652,0.7271733722,170.2133313,
716405468,-6.784812056,0.4578881425,112.7791953,
718239413,-14.448551,0.1894839591,-78.00776215,
720073357,-18.32999573,0.1211993284,62.00475085,
721907302,-3.127108143,0.6976612357,-82.31847623,
723741247,-5.979234324,0.5023868738,-133.2739478,
725575191,-1.811423312,0.8117622187,-121.4113007,
727409136,-1.300831682,0.8609113151,-146.9753532,
729243081,-3.647733843,0.657072525,-148.9572335,
731077025,-1.602646036,0.8315104243,-169.0880951,
732910970,-2.905145744,0.7157192742,-163.7919127,
734744914,-1.286198649,0.8623629064,178.2045685,
736578859,-1.28426513,0.8625548938,164.2371892,
738412804,-1.672871243,0.8248147863,147.0088259,
740246748,-11.37692157,0.2698695726,-156.563447,
742080693,-1.191032869,0.8718632189,153.9629222,
743914638,-1.134838357,0.8775221392,137.576226,
745748582,-1.20444475,0.8705180139,124.3935685,
747582527,-1.361163385,0.8549521932,110.4282422,
749416472,-4.431551977,0.6003747256,93.25609068,
751250416,-1.655316949,0.8264834331,85.71422815,
753084361,-4.750460376,0.5787313132,31.17484623,
754918306,-1.81551657,0.8113797629,92.35408666,
756752250,-3.989571989,0.6317153073,37.20211674,
758586195,-4.507435641,0.5951524393,104.8838291,
760420140,-2.04081007,0.7906048906,64.71911122,
762254084,-2.073922079,0.787596715,43.22760334,
764088029,-2.492785801,0.7505173042,23.66909235,
765921973,-3.183500331,0.6931464183,4.230100129,
767755918,-5.294816946,0.5435745972,-19.62579061,
769589863,-12.40348051,0.239787188,-2.277067521,
771423807,-4.804870646,0.5751173476,3.487634632,
773257752,-2.99355729,0.708471094,-25.1248304,
775091697,-3.451657511,0.6720740463,-55.8690836,
776925641,-6.549519418,0.4704614352,-96.04547709,
778759586,-8.978867807,0.3556776776,-42.62381719,
780593531,-11.25391826,0.2737184595,-3.834850435,
782427475,-5.471515683,0.5326282728,-78.641855,
784261420,-9.937288565,0.3185191674,-57.07338937,
786095365,-3.455483016,0.6717781116,-86.6158158,
787929309,-9.767598569,0.3248030296,-126.5541636,
789763254,-2.649345661,0.7371107024,-115.264381,
791597199,-8.262322601,0.3862636766,-151.7993818,
793431143,-3.588105774,0.6615988038,-126.6236786,
795265088,-2.837694365,0.7212989197,-162.7465061,
797099033,-8.382426859,0.3809593675,-177.003957,
798932977,-7.560383612,0.4187750695,160.634652,
800766922,-6.095727738,0.4956939441,-132.2758296,
802600866,-2.399633878,0.7586095508,163.5675078,
804434811,-5.744929819,0.5161233518,83.16844159,
806268756,-5.984324049,0.5020925733,-87.88459144,
808102700,-5.258040368,0.545881004,-166.5063434,
809936645,-3.585632168,0.6617872436,171.4111678,
811770590,-4.102716826,0.6235397704,159.2032921,
813604534,-3.516797936,0.6670526337,133.8655463,
815438479,-6.754886577,0.4594684244,105.2782498,
817272424,-10.81679851,0.2878459177,136.4865964,
819106368,-4.229575346,0.6144990739,127.3547193,
820940313,-3.271204025,0.6861827542,94.35052129,
822774258,-4.232056391,0.6143235729,46.1214779,
824608202,-10.70160378,0.2916888384,-84.47609882,
826442147,-6.213552397,0.4890152245,142.2550509,
828276092,-6.036575701,0.499081205,103.3616659,
830110036,-4.643242853,0.5859193723,82.03710742,
831943981,-3.912742149,0.6373278439,44.30648371,
833777925,-5.282238193,0.5443623626,7.606394983,
835611870,-7.763762643,0.4090834104,-38.83978046,
837445815,-12.25190142,0.2440084853,-109.0848074,
839279759,-14.89752375,0.1799383826,156.7759406,
841113704,-11.28647525,0.2726944112,70.53557335,
842947649,-9.841838874,0.3220386937,4.862031437,
844781593,-7.965408163,0.3996958065,-37.9150972,
846615538,-6.965323612,0.4484704366,-105.2251212,
848449483,-9.536407053,0.3335643642,-168.4903858,
850283427,-5.97410881,0.5026834181,-134.2978633,
852117372,-12.90846489,0.2262438358,115.1712132,
853951317,-13.46418562,0.2122221544,-45.11202154,
855785261,-6.086001989,0.4962492924,-119.7988594,
857619206,-8.574088572,0.3726452342,-143.9959171,
859453151,-3.24589881,0.6881847737,-168.7906577,
861287095,-2.900075906,0.7161371518,152.9886986,
863121040,-7.393609582,0.4268934791,-127.3687697,
864954984,-1.60122851,0.8316461369,159.7776565,
866788929,-1.42593473,0.8486004613,134.9977431,
868622874,-1.681133838,0.8240305408,111.5176236,
870456818,-4.878510081,0.5702620828,66.07717771,
872290763,-4.485593325,0.5966509463,156.6822616,
874124708,-2.18012418,0.7780254277,114.0671948,
875958652,-3.050328347,0.7038556201,97.75915973,
877792597,-6.701641056,0.4622936704,87.24328509,
879626542,-3.608002704,0.6600850015,101.3568244,
881460486,-2.269557913,0.770055637,86.05437009,
883294431,-2.64239412,0.7377008672,62.53353898,
885128376,-2.947235924,0.7122594234,67.30320462,
886962320,-4.074921513,0.6255383272,47.73047737,
888796265,-4.598991729,0.5889120132,33.57115795,
890630210,-8.590320811,0.371949483,-9.34787729,
892464154,-8.040600383,0.3962506438,137.8576938,
894298099,-3.714391076,0.6520493198,83.24130303,
896132044,-3.820714562,0.6441162739,76.88561245,
897965988,-1.987324328,0.7954882765,52.93365813,
899799933,-2.062882012,0.7885984142,32.92655143,
901633877,-2.690217338,0.7336503568,13.63432807,
903467822,-3.991928983,0.631543909,-4.176375448,
905301767,-7.057343702,0.443744328,-31.69250095,
907135711,-9.612864521,0.3306410519,-138.3966343,
908969656,-6.251705322,0.486871927,100.2780264,
910803601,-4.011126903,0.6301495854,56.75016956,
912637545,-3.572411162,0.6627953333,28.29713283,
914471490,-3.956627392,0.6341158817,4.269840581,
916305435,-4.396191615,0.6028238402,-20.83775379,
918139379,-5.316231298,0.542236109,-65.05704661,
919973324,-19.57012485,0.1050736351,-134.4805209,
921807269,-8.009488396,0.3976725189,167.2893825,
923641213,-5.339807775,0.5407662904,110.4530105,
925475158,-4.120726353,0.6222482478,78.74861023,
927309103,-3.493344435,0.6688562325,58.6170135,
929143047,-2.766778126,0.7272120954,38.03777995,
930976992,-3.271572052,0.6861536808,17.97095347,
932810936,-4.130641758,0.6215383237,-2.613718106,
934644881,-7.149314259,0.4390705284,-31.05022283,
936478826,-24.21914762,0.06152372453,43.8574877,
938312770,-9.87074452,0.3209687671,-17.35904756,
940146715,-15.44599182,0.168927521,6.651031826,
941980660,-7.356061297,0.4287428941,50.49257433,
943814604,-4.405229424,0.6021969184,19.52544285,
945648549,-9.355821757,0.3405719784,-81.91851369,
947482494,-4.87753363,0.5703261942,60.57656727,
949316438,-5.774278847,0.5143823493,39.40609653,
951150383,-4.0343081,0.628470063,24.32349096,
952984328,-4.84544736,0.5724369143,34.28039066,
954818272,-2.833949881,0.7216099385,1.377470184,
956652217,-3.139711327,0.6966496666,4.854978852,
958486162,-7.235548193,0.4347329822,5.250181898,
960320106,-2.3298616,0.7647278734,-8.1471346,
962154051,-2.977585051,0.7097750802,-32.72657219,
963987995,-6.946820236,0.4494268225,4.766714011,
965821940,-2.720201338,0.7311221359,-19.07641092,
967655885,-3.112478281,0.6988373142,-43.04500075,
969489829,-6.123250475,0.4941257383,-60.93720686,
971323774,-12.23873939,0.2443785202,-35.66192903,
973157719,-5.215770434,0.5485440116,-25.12697586,
974991663,-4.096617954,0.6239777479,-52.67269177,
976825608,-5.485568093,0.5317672604,-76.50048538,
978659553,-7.152065132,0.4389314942,-117.8549802,
980493497,-8.12302152,0.3925083716,-62.31628633,
982327442,-13.23977818,0.2177765386,-153.7586897,
984161387,-16.4592317,0.1503274931,87.4825803,
985995331,-21.10135303,0.08809116393,134.5042141,
987829276,-5.007595295,0.561849806,55.27236446,
989663221,-6.32125014,0.4829892815,41.45556808,
991497165,-2.634870494,0.7383401328,26.31380384,
993331110,-1.589119518,0.8328063426,4.919256279,
995165055,-1.671103605,0.8249826589,-11.01009248,
996998999,-1.68437466,0.8237231412,-22.91187167,
998832944,-1.896732944,0.8038284123,-34.70548744,
1000666888,-2.30844707,0.7666155894,-49.06041573,
1002500833,-5.402376761,0.5368848659,-81.98440287,
1004334778,-5.099898942,0.5559107251,-43.53721045,
1006168722,-6.049202092,0.4983562341,-40.46995635,
1008002667,-15.19791964,0.1738217101,-36.13091337,
1009836612,-3.410008457,0.6753043965,-21.36873286,
1011670556,-2.840182513,0.721092327,-46.97561919,
1013504501,-4.816783847,0.5743290815,-44.00621502,
1015338446,-4.366140628,0.6049130706,-63.59601199,
1017172390,-4.418431101,0.601282335,-64.59777051,
1019006335,-6.300864687,0.4841241703,-84.88888247,
1020840280,-16.35825241,0.1520853493,33.37559827,
1022674224,-3.742016087,0.6499788059,-25.8265883,
1024508169,-1.935359743,0.8002616641,-40.93806308,
1026342114,-4.632889604,0.5866181822,-51.04841594,
1028176058,-1.971302969,0.7969569302,-64.65138099,
1030010003,-6.453112014,0.4757123204,-50.80159773,
1031843947,-2.161152424,0.7797266513,-68.07349706,
1033677892,-4.582211394,0.5900508364,-97.59499373,
1035511837,-9.65645365,0.3289859247,-61.96448705,
1037345781,-4.229288632,0.6145193583,-24.34434732,
1039179726,-3.784517413,0.6468061332,-42.23807486,
1041013671,-1.306907046,0.8603093594,-56.53392386,
1042847615,-1.153800918,0.8756084703,-67.26410714,
1044681560,-1.163337202,0.8746476626,-74.87635005,
1046515505,-1.870606068,0.8062499424,-85.83219889,
1048349449,-2.337520813,0.764053834,-75.62302703,
1050183394,-1.26515008,0.8644552098,-86.89050353,
1052017339,-2.986815733,0.7090211876,-85.83619878,
1053851283,-1.740788167,0.8183905231,-88.89373765,
1055685228,-2.657504807,0.7364186179,-99.2397706,
1057519173,-1.615129009,0.830316273,-98.19606676,
1059353117,-1.756117689,0.8169474388,-108.3016594,
1061187062,-3.529178451,0.6661025212,-116.6139579,
1063021007,-3.449877184,0.6722118139,-102.1245352,
1064854951,-2.179287524,0.7781003736,-110.68166,
1066688896,-2.629815132,0.7387699866,-131.7240661,
1068522840,-8.382664044,0.3809489649,-129.2307506,
1070356785,-14.10683108,0.197087212,-32.30509195,
1072190730,-3.034166358,0.7051665159,-77.40696822,
1074024674,-2.02118367,0.7923933397,-96.8116493,
1075858619,-1.999793748,0.7943470968,-107.3143755,
1077692564,-1.928028912,0.8009373645,-116.7781814,
1079526508,-4.851603924,0.5720313144,-145.3056994,
1081360453,-4.16214785,0.6192879184,-94.98990128,
1083194398,-2.831851655,0.7217842768,-110.9366183,
1085028342,-3.169150863,0.6942924728,-111.1694545,
1086862287,-1.126414527,0.8783735986,-119.8337186,
1088696232,-1.542986953,0.8372413173,-134.5381043,
1090530176,-3.007052108,0.7073712337,-139.7363596,
1092364121,-4.363301665,0.6051108173,-145.110922,
1094198066,-5.487552211,0.5316458026,-142.8037477,
1096032010,-7.198094099,0.4366116252,-131.4405504,
1097865955,-4.996141557,0.5625911837,-125.9706886,
1099699899,-3.356727316,0.6794595923,-135.3722967,
1101533844,-7.974514243,0.3992769946,-156.1741928,
1103367789,-3.724379071,0.6512999524,-125.8077341,
1105201733,-6.803224623,0.4569185278,-138.8789045,
1107035678,-2.545330384,0.745990816,-127.6383609,
1108869623,-3.372206545,0.6782497975,-151.1665663,
1110703567,-2.6921518,0.7334869814,-147.0702405,
1112537512,-10.41250547,0.3015606888,-141.8571469,
1114371457,-4.42284097,0.6009771385,-132.8786793,
1116205401,-3.758882992,0.6487178535,-151.6637031,
1118039346,-4.64764715,0.5856223493,-136.3123548,
1119873291,-3.154916925,0.6954311723,-148.590595,
1121707235,-3.691075548,0.6538019666,-165.6377097,
1123541180,-7.451339445,0.424065584,179.0721612,
1125375125,-7.40895291,0.426140052,-137.3980708,
1127209069,-8.131568976,0.3921223089,-154.7506998,
1129043014,-4.673572239,0.583877027,-147.9425995,
1130876958,-4.6181632,0.5876136017,-164.6032863,
1132710903,-10.18304922,0.3096332126,175.0644108,
1134544848,-11.65692348,0.2613086738,-130.5830186,
1136378792,-7.530029564,0.4202410973,-145.7996289,
1138212737,-10.87178762,0.2860293632,-124.3827375,
1140046682,-6.492885463,0.4735389718,-125.78254,
1141880626,-6.472422159,0.4746559093,-129.4659157,
1143714571,-7.762638116,0.4091363762,-129.8447021,
1145548516,-3.996875021,0.6311843889,-122.2749798,
1147382460,-4.47494459,0.5973828775,-136.1786322,
1149216405,-3.634131537,0.658102322,-125.8013472,
1151050350,-2.062369466,0.78864495,-141.037269,
1152884294,-2.935096218,0.7132555983,-148.8233782,
1154718239,-4.703102281,0.581895349,-148.0225862,
1156552184,-4.576569679,0.5904342145,-140.3420865,
1158386128,-3.081447077,0.701338445,-145.4309154,
1160220073,-2.176904494,0.7783138797,-148.437506,
1162054018,-4.091056966,0.6243773666,-147.8670642,
1163887962,-1.577707067,0.8339012919,-147.563539,
1165721907,-1.81389488,0.8115312648,-154.340811,
1167555851,-1.271488441,0.8638246203,-155.9980562,
1169389796,-1.147588661,0.8762349404,-161.1082378,
1171223741,-1.315187386,0.8594896093,-164.5154014,
1173057685,-1.264884797,0.8644816123,-167.1749014,
1174891630,-1.547302801,0.8368254118,-172.837738,
1176725575,-1.070442232,0.8840521576,-171.2377344,
1178559519,-2.139909859,0.7816359162,-179.5460355,
1180393464,-1.555868882,0.836000536,-169.2877257,
1182227409,-1.003948392,0.8908458894,-175.1254301,
1184061353,-1.119264643,0.879096939,-179.1362936,
1185895298,-0.8370465529,0.9081292672,177.9410491,
1187729243,-0.9559235746,0.895785073,172.6286519,
1189563187,-2.199048438,0.7763321612,168.405265,
1191397132,-1.724330798,0.8199426177,175.9298287,
1193231077,-1.406308695,0.8505200681,169.0075899,
1195065021,-1.809409222,0.8119504726,170.6132668,
1196898966,-1.303763828,0.8606207414,167.9502699,
1198732910,-1.188395319,0.8721280083,163.3800868,
1200566855,-2.851341721,0.7201664975,161.3019305,
1202400800,-1.868387714,0.8064558829,164.550874,
1204234744,-1.481618565,0.8431776219,161.7276355,
1206068689,-1.768904922,0.8157456262,155.5018295,
1207902634,-1.47017072,0.8442896474,157.0279453,
1209736578,-2.243719346,0.7723497898,159.5155782,
1211570523,-1.082868264,0.8827883369,154.2687787,
1213404468,-1.047426681,0.8863977927,147.653874,
1215238412,-1.550218792,0.8365445235,142.1625239,
1217072357,-2.522699063,0.7479370496,135.4993833,
1218906302,-3.079415272,0.7015025215,135.0471147,
1220740246,-4.309052583,0.6089019584,143.1187424,
