Frequency,S11_Magnitude,S11_Magnitude (linear),S11_Phase,
500000000,-0.6627599101,0.9265353733,116.856491,
501833944,-0.6336267833,0.9296482601,113.1251145,
503667889,-0.6137664534,0.9317763375,109.8363466,
505501833,-0.6010127533,0.933145492,106.8105591,
507335778,-0.5974544012,0.9335278524,103.8232604,
509169723,-0.5944545574,0.9338503204,100.7057557,
511003667,-0.6023938203,0.9329971325,97.05964257,
512837612,-0.6527043193,0.9276086377,91.06399619,
514671557,-16.44481601,0.1505771939,50.9892468,
516505501,-0.7059599808,0.9219386052,100.919995,
518339446,-0.6259190074,0.9304735873,94.64426786,
520173391,-0.6138373491,0.9317687322,90.64789437,
522007335,-0.6417705258,0.9287770462,86.75708323,
523841280,-0.6122256818,0.931941638,83.14881685,
525675225,-0.6413837508,0.9288184048,77.96312274,
527509169,-0.752756793,0.9169848496,69.36031733,
529343114,-1.717264634,0.8206099307,43.21844739,
531177059,-3.761269754,0.6485396193,146.5687182,
533011003,-0.965824107,0.8947646022,101.0449576,
534844948,-0.7242677384,0.9199974277,90.2528165,
536678892,-0.6416242605,0.9287926864,84.01536807,
538512837,-1.869273002,0.8063736909,73.30698722,
540346782,-0.7597710215,0.916244644,79.75074066,
542180726,-0.6920205097,0.9234193578,76.04720106,
544014671,-0.6717100546,0.9255811413,72.9923057,
545848616,-0.6614544721,0.9266746366,69.98762437,
547682560,-0.871308953,0.9045541123,64.56436769,
549516505,-0.7004388996,0.9225248106,65.36271473,
551350450,-0.6900701114,0.923626733,61.72532021,
553184394,-0.7746429866,0.9146771938,55.32692037,
555018339,-0.8261344585,0.9092708681,57.39909123,
556852284,-0.9152019992,0.8999945925,49.17117786,
558686228,-3.011560446,0.7070041738,19.63696337,
560520173,-0.9703514026,0.8942983508,72.33389266,
562354118,-0.9675699973,0.8945847699,49.25156235,
564188062,-1.153411191,0.8756477589,68.56071276,
566022007,-0.7628888939,0.9159158093,58.16953213,
567855951,-0.7161112177,0.9208617609,53.5917527,
569689896,-0.700953395,0.9224701679,50.07959877,
571523841,-0.7024381277,0.9223124979,46.85133631,
573357785,-0.7475924635,0.9175302192,42.83134322,
575191730,-0.7336209966,0.9190072768,44.99308725,
577025675,-0.6690857003,0.9258608386,39.87648292,
578859619,-1.610613117,0.8307480761,35.26441258,
580693564,-0.7615215614,0.9160600041,35.16012707,
582527509,-1.535254193,0.8379870174,21.855562,
584361453,-0.8925393914,0.9023458607,34.58491218,
586195398,-0.8038716084,0.9116044144,30.73717887,
588029343,-0.7845709239,0.9136323186,27.87974758,
589863287,-0.7799669329,0.9141167215,25.24510282,
591697232,-0.783716191,0.9137222288,22.6039446,
593531177,-0.8134536086,0.9105993156,19.66666228,
595365121,-0.8040804497,0.9115824963,18.33783028,
597199066,-0.8374675935,0.9080852475,14.7284096,
599033011,-0.9291592242,0.8985495661,17.01360016,
600866955,-0.7940272896,0.9126381844,11.688418,
602700900,-0.8101034195,0.9109506059,8.797211,
604534844,-0.8402807677,0.9077911857,6.046629201,
606368789,-1.002806731,0.8909629886,4.851870536,
608202734,-0.7961698714,0.9124130882,1.092729728,
610036678,-0.8198139985,0.9099327579,-1.695354143,
611870623,-0.8357645671,0.9082633116,-4.463212982,
613704568,-0.842438479,0.9075657042,-7.25291476,
615538512,-0.8754439194,0.9041235967,-10.14376825,
617372457,-0.8963833762,0.9019466112,-13.07080112,
619206402,-0.9270805648,0.8987646277,-16.13465616,
621040346,-0.9230120212,0.8991857152,-19.07000449,
622874291,-0.9613643746,0.8952241332,-22.42366567,
624708236,-1.006973682,0.8905356624,-25.90027203,
626542180,-1.070948653,0.8840006154,-29.67441405,
628376125,-1.175607024,0.8734129941,-33.96007926,
630210070,-1.426165596,0.8485779063,-39.38623798,
632044014,-3.152530808,0.6956222417,-40.16224068,
633877959,-6.808058577,0.4566643099,-47.02104683,
635711903,-1.002680527,0.8909759343,-34.27460782,
637545848,-1.153934618,0.8755949923,-38.06926631,
639379793,-1.105309419,0.8805104793,-49.51597115,
641213737,-1.605542107,0.8312332263,-57.74530783,
643047682,-1.269477501,0.8640246345,-65.69551778,
644881627,-12.47921309,0.2377055629,-20.37603173,
646715571,-1.201951276,0.8707679509,-43.38943049,
648549516,-0.8782094874,0.9038357716,-56.86445367,
650383461,-0.8673593001,0.9049655252,-65.56395391,
652217405,-0.9108259245,0.9004481368,-73.52817744,
654051350,-1.03944342,0.8872128616,-83.20610246,
655885295,-1.431007644,0.8481049887,-80.9425057,
657719239,-1.193833315,0.8715821639,-96.34647195,
659553184,-1.422256766,0.8489598698,-111.7114478,
661387129,-2.054337201,0.7893745856,-135.3235193,
663221073,-3.609083839,0.6600028456,164.5447273,
665055018,-3.485081579,0.6694928158,36.91272668,
666888962,-1.61179566,0.8306349813,-33.2789813,
668722907,-1.234072079,0.8675537594,-63.35265638,
670556852,-1.547935657,0.8367644428,-85.17102868,
672390796,-4.280393897,0.6109143199,-76.6202112,
674224741,-1.309309296,0.8600714572,-92.0735561,
676058686,-1.214504162,0.8695104221,-105.0879513,
677892630,-1.287586358,0.8622251412,-117.5977019,
679726575,-1.549049102,0.8366571847,-127.6877089,
681560520,-1.923605082,0.8013453956,-131.6455728,
683394464,-2.381675439,0.7601796302,-159.3255065,
685228409,-4.583486946,0.5899641918,-128.2140373,
687062354,-3.179270944,0.6934840116,-137.589443,
688896298,-1.970078376,0.7970692983,178.6597836,
690730243,-2.844574119,0.7207278332,132.2696613,
692564188,-6.155684257,0.4922840752,-17.5122462,
694398132,-2.995513127,0.7083115827,173.1853717,
696232077,-4.518686095,0.5943820633,81.31818669,
698066022,-3.671869908,0.6552492078,48.14233952,
699899966,-3.422151279,0.6743609846,21.60388293,
701733911,-1.598360625,0.831920773,-37.97411884,
703567855,-1.76478673,0.8161324828,-78.87528404,
705401800,-1.171892673,0.8737865719,-90.62043166,
707235745,-1.11980535,0.8790422159,-114.485535,
709069689,-1.482254555,0.8431158858,-140.3124063,
710903634,-18.14022429,0.1238764598,173.5659347,
712737579,-1.655584013,0.8264580217,-136.7121735,
714571523,-7.566621164,0.4184744448,144.0099374,
716405468,-1.620771024,0.8297771071,-163.3470628,
718239413,-1.896829874,0.8038194421,160.6209604,
720073357,-7.151783059,0.4389457486,19.91090482,
721907302,-2.32194788,0.765424935,-154.9039701,
723741247,-1.922004591,0.8014930678,149.5114941,
725575191,-5.336346982,0.5409817954,20.66505195,
727409136,-2.318476699,0.7657308863,176.5953808,
729243081,-3.327599056,0.6817419951,87.80589391,
731077025,-4.513213984,0.5947566421,-64.87369839,
732910970,-1.712741373,0.8210373825,-131.9646819,
734744914,-1.28156052,0.8628235176,-172.2361315,
736578859,-1.212437399,0.8697173423,162.6565703,
738412804,-1.279727804,0.8630055919,140.655944,
740246748,-2.045438915,0.7901836773,144.8966552,
742080693,-1.30436033,0.8605616404,114.9302804,
743914638,-1.350346834,0.8560175296,96.22090234,
745748582,-1.433267799,0.847884332,76.91442171,
747582527,-1.582250339,0.8334652226,53.80431023,
749416472,-4.098209635,0.6238634151,-10.10860486,
751250416,-1.635175071,0.8284022055,34.25060961,
753084361,-1.645957428,0.8273744942,-1.375056772,
754918306,-1.688832485,0.8233004936,-33.41107526,
756752250,-1.653067883,0.8266974649,-74.1140921,
758586195,-1.786071078,0.8141350383,-124.8020095,
760420140,-1.666397637,0.825429751,-158.2744528,
762254084,-1.52273152,0.8391960364,157.3236866,
764088029,-1.487442547,0.8426124517,119.2430367,
765921973,-1.50408382,0.8409996383,86.05139683,
767755918,-1.672726984,0.8248284852,55.41965857,
769589863,-1.616831088,0.8301535809,25.59527594,
771423807,-2.17730593,0.7782779091,-17.58978333,
773257752,-4.354245702,0.6057420387,75.70650088,
775091697,-1.74276808,0.8182039956,-15.05233291,
776925641,-3.215891238,0.6905663913,-89.89644496,
778759586,-1.953556354,0.798586901,-59.66414682,
780593531,-2.878246207,0.7179392379,167.9720712,
782427475,-3.269578142,0.6863112105,-22.95177941,
784261420,-7.978208165,0.3991072267,105.5200534,
786095365,-2.29650565,0.7676702624,10.57193237,
787929309,-3.987894509,0.6318373204,-24.18572051,
789763254,-1.671683604,0.8249275725,-54.71862569,
791597199,-1.818236019,0.8111257692,-78.62098303,
793431143,-9.207843471,0.3464238839,-99.73318583,
795265088,-1.894932968,0.8039950068,-86.7767991,
797099033,-4.904771919,0.568540496,-109.8900916,
798932977,-1.498733418,0.8415178434,-109.765746,
800766922,-1.680298328,0.8241098094,-131.3195724,
802600866,-1.634913196,0.8284271817,-135.1657699,
804434811,-2.753701771,0.7283077166,-162.923556,
806268756,-3.01328865,0.7068635175,-114.7405434,
808102700,-2.568679609,0.7439881521,-146.9846104,
809936645,-1.407425837,0.8504106848,-162.9660445,
811770590,-2.361576758,0.7619406816,-179.5212187,
813604534,-4.20116916,0.6165120109,139.9808313,
815438479,-4.798796179,0.575519696,-139.6545956,
817272424,-1.800978523,0.8127389506,179.9746089,
819106368,-4.240133528,0.6137525699,168.7349453,
820940313,-4.817378093,0.5742897901,124.7721741,
822774258,-3.444301888,0.6726434316,-164.1152692,
824608202,-1.611064881,0.8307048689,170.5518639,
826442147,-2.051538998,0.7896289276,163.3531035,
828276092,-1.401242365,0.8510163065,151.8658935,
830110036,-1.236313789,0.8673298844,140.251597,
831943981,-1.26503041,0.86446712,126.0151226,
833777925,-5.648667043,0.5218751863,92.68966648,
835611870,-1.640107072,0.8279319577,121.6085966,
837445815,-2.384435064,0.7599381491,76.84869398,
839279759,-3.311349826,0.6830185656,121.4919588,
841113704,-8.704100656,0.3671089454,122.1837091,
842947649,-3.903805406,0.6379839155,91.44127699,
844781593,-7.225309406,0.4352457406,-156.8846853,
846615538,-1.551575518,0.8364138663,127.7055364,
848449483,-1.884907509,0.8049235326,100.2759265,
850283427,-3.474056106,0.6703431791,30.7167717,
852117372,-1.81582327,0.8113511134,130.0691286,
853951317,-1.809474352,0.8119443842,96.70848648,
855785261,-1.55347014,0.8362314423,88.89910945,
857619206,-1.349254892,0.8561251502,69.10197168,
859453151,-2.313623318,0.7661588704,40.60982867,
861287095,-4.784474019,0.576469453,45.31996176,
863121040,-2.766361713,0.7272469598,123.1474527,
864954984,-1.85963974,0.8072685122,44.35333214,
866788929,-16.87110887,0.1433654679,59.59336649,
868622874,-4.555198311,0.5918887486,-112.6042275,
870456818,-3.618945205,0.6592539487,109.8863142,
872290763,-2.729418384,0.730346716,98.60990579,
874124708,-2.225972324,0.7739294692,61.12402942,
875958652,-3.667842908,0.6555530685,23.63902535,
877792597,-8.933017778,0.3575601502,-79.60740722,
879626542,-7.344174847,0.429330021,98.80799006,
881460486,-6.030496,0.4994306599,40.36561483,
883294431,-5.586013929,0.5256531891,151.9288804,
885128376,-17.9941754,0.1259769908,-96.17050545,
886962320,-3.993912609,0.6313996976,111.9382559,
888796265,-2.746045505,0.7289499739,102.1952449,
890630210,-1.40629898,0.8505210193,76.96250148,
892464154,-1.271982511,0.8637754857,53.88271443,
894298099,-6.221393243,0.4885739843,69.42498883,
896132044,-3.687092372,0.654101856,77.80890004,
897965988,-2.854118654,0.7199362927,55.64310468,
899799933,-1.01683639,0.8895250453,44.94825649,
901633877,-0.903732618,0.9011837855,32.63233285,
903467822,-1.166921702,0.8742867869,16.05716268,
905301767,-1.716752128,0.8206583517,40.53583503,
907135711,-0.9371875322,0.8977194266,17.83573026,
908969656,-1.708487674,0.8214395637,0.2725617944,
910803601,-1.003406743,0.890901444,-0.1681452235,
912637545,-1.211913811,0.8697697707,-12.74938885,
914471490,-1.117914493,0.879233598,-26.32553203,
916305435,-1.557074237,0.8358845309,-38.37620616,
918139379,-2.508525291,0.7491585414,-70.37182304,
919973324,-3.711391761,0.6522745171,-151.9203289,
921807269,-6.742892394,0.460103334,74.2939097,
923641213,-3.60933179,0.6599840052,73.37886167,
925475158,-1.297382789,0.8612532238,15.55826035,
927309103,-1.290631993,0.8619228622,-9.844865324,
929143047,-1.55060211,0.8365076066,-25.43672623,
930976992,-1.303513072,0.8606455874,-50.8545039,
932810936,-2.318409399,0.7657368194,-86.97110346,
934644881,-2.432255587,0.7557657746,-109.6804971,
936478826,-5.639000801,0.5224562874,144.8020781,
938312770,-4.085730589,0.6247603658,111.6346373,
940146715,-3.05787405,0.7032444242,30.20197699,
941980660,-16.11097515,0.1564772635,-106.4274246,
943814604,-3.728017661,0.6510271747,26.65016,
945648549,-2.512941468,0.7487777427,-31.63851677,
947482494,-8.392912345,0.3804997561,-70.30730572,
949316438,-2.855453732,0.7198256422,-0.881862385,
951150383,-6.656480719,0.4647035221,-152.9017906,
952984328,-2.084796732,0.7866112683,-1.218412975,
954818272,-1.800321857,0.8128003972,-63.72178966,
956652217,-10.22170253,0.3082583672,-5.070298987,
958486162,-2.398205627,0.7587343018,-136.6731417,
960320106,-2.826868757,0.7221984669,123.3757125,
962154051,-1.958590513,0.7981241909,60.42806553,
963987995,-1.569150924,0.8347231414,10.52613397,
965821940,-15.4638582,0.1685804039,177.1484334,
967655885,-2.434920651,0.7555339209,-17.74740366,
969489829,-1.291689137,0.8618179654,-23.10054825,
971323774,-1.206635921,0.8702984378,-47.63303337,
973157719,-1.609138476,0.8308891277,-74.48329063,
974991663,-4.496166252,0.5959251129,-110.544184,
976825608,-2.247050077,0.7720536779,-62.21788094,
978659553,-2.051840673,0.789601503,-122.5339341,
980493497,-1.871752911,0.806143496,-115.7308382,
982327442,-2.201614414,0.7761028519,-179.4361864,
984161387,-5.246656494,0.5465969139,70.30399673,
985995331,-5.779582604,0.5140683543,41.24478053,
987829276,-5.945776735,0.5043257735,125.6837137,
989663221,-6.493861994,0.4734857361,170.7832524,
991497165,-6.06779508,0.4972905953,151.1888029,
993331110,-2.508483545,0.7491621421,69.46129745,
995165055,-1.776007461,0.8150788555,31.318342,
996998999,-1.480397143,0.8432961991,1.1215166,
998832944,-1.635179128,0.8284018185,-34.77332498,
1000666888,-4.010769117,0.6301755428,-112.9931934,
1002500833,-4.190711812,0.6172547055,67.74339742,
1004334778,-2.222641795,0.7742262827,6.137424932,
1006168722,-1.710678275,0.8212324209,-16.22183118,
1008002667,-3.753581181,0.6491139476,-17.68225347,
1009836612,-3.413429453,0.6750384757,-103.1985631,
1011670556,-5.826775544,0.5112828469,-96.27589132,
1013504501,-3.403179682,0.675835524,53.51556754,
1015338446,-2.776258035,0.7264188383,0.1206151517,
1017172390,-2.479406051,0.7516742924,-31.65654338,
1019006335,-3.850145327,0.6419374809,4.218959831,
1020840280,-1.704561529,0.8218109499,-28.49649361,
1022674224,-17.42392489,0.1345252338,86.22966889,
1024508169,-1.332086312,0.8578190456,-26.14023199,
1026342114,-1.12565866,0.8784500401,-41.21966011,
1028176058,-1.150543381,0.8759369181,-53.68642508,
1030010003,-5.666911407,0.5207801587,-57.82413408,
1031843947,-3.297172977,0.6841342783,-45.86398414,
1033677892,-1.639114946,0.8280265317,-80.57485311,
1035511837,-2.534239765,0.7469439462,-60.27078776,
1037345781,-2.102876199,0.7849756589,-91.80332902,
1039179726,-9.020167614,0.35399051,60.37708838,
1041013671,-1.571503312,0.834497105,-41.66097845,
1042847615,-1.033337002,0.8878368158,-60.51426111,
1044681560,-0.8903845966,0.9025697423,-75.85322469,
1046515505,-5.898547417,0.5070755019,-74.20456533,
1048349449,-2.663565605,0.7359049425,-103.6681716,
1050183394,-5.943063919,0.5044833113,-3.88607946,
1052017339,-1.181893662,0.8727810675,-68.57906145,
1053851283,-1.448472777,0.8464013769,-83.81800234,
1055685228,-0.9737090801,0.8939527115,-93.34920113,
1057519173,-1.254099261,0.8655557324,-112.1434611,
1059353117,-6.018330353,0.5001306634,-68.58466215,
1061187062,-1.350404904,0.8560118066,-103.7972782,
1063021007,-5.176743736,0.5510142281,-134.7680069,
1064854951,-19.02790526,0.1118419517,-156.456781,
1066688896,-2.621943472,0.7394398065,-60.44839218,
1068522840,-1.414113349,0.8497561816,-105.3963401,
1070356785,-6.994909237,0.4469454682,-144.0821053,
1072190730,-3.719647147,0.6516548662,-83.52926599,
1074024674,-1.929121906,0.8008365844,-124.4306195,
1075858619,-2.025725116,0.7919791426,-93.68455757,
1077692564,-2.941439359,0.7127349114,-146.0669551,
1079526508,-5.40821787,0.5365239416,-60.40450794,
1081360453,-1.504334635,0.8409753538,-100.7393548,
1083194398,-1.582026057,0.8334867441,-124.2519963,
1085028342,-4.179059636,0.6180833123,-155.439749,
1086862287,-4.010573897,0.6301897065,-162.5181465,
1088696232,-2.304545512,0.7669600178,-99.46737261,
1090530176,-2.292696309,0.7680070109,-154.570743,
1092364121,-7.82208836,0.4063456192,40.25595199,
1094198066,-3.800455566,0.645620366,-80.39052033,
1096032010,-7.877013667,0.4037841959,-112.92109,
1097865955,-1.267499545,0.864221413,-100.2710697,
1099699899,-0.9192964395,0.8995704441,-115.8608353,
1101533844,-2.082890102,0.7867839553,-134.3131565,
1103367789,-1.297511556,0.8612404559,-142.7258336,
1105201733,-6.500562119,0.4731206393,162.4947983,
1107035678,-7.65124536,0.4144171617,-67.38947295,
1108869623,-1.246632054,0.8663001654,-124.0645577,
1110703567,-2.206944422,0.7756267503,-146.1802478,
1112537512,-1.887179996,0.8047129683,-113.4959103,
1114371457,-1.150538947,0.8759373653,-130.0973979,
1116205401,-0.9551201159,0.8958679384,-148.1054089,
1118039346,-1.218741201,0.8690863721,-167.8009909,
1119873291,-4.274797409,0.6113080707,-165.6252328,
1121707235,-4.593855635,0.5892603485,-41.00969206,
1123541180,-1.552221998,0.8363516154,-120.3880568,
1125375125,-1.906913544,0.8028868091,-134.535925,
1127209069,-4.391134204,0.6031749401,-124.0535317,
1129043014,-2.360132468,0.7620673876,-140.305974,
1130876958,-3.046600037,0.7041578062,-157.1080481,
1132710903,-2.062397028,0.7886424475,-151.0174286,
1134544848,-4.707326654,0.5816124136,-95.83547532,
1136378792,-1.237795981,0.8671818927,-146.0503979,
1138212737,-1.788400279,0.8139167499,-167.4709277,
1140046682,-7.573333279,0.418151189,124.2941197,
1141880626,-4.296351728,0.6097929705,-173.4415888,
1143714571,-2.343409594,0.7635360033,-151.4451734,
1145548516,-4.827283492,0.5736352426,-85.2576508,
1147382460,-1.545858576,0.8369645645,-138.3870306,
1149216405,-6.828370104,0.4555976704,-99.86422736,
1151050350,-1.062201553,0.8848912941,-139.9131818,
1152884294,-1.12673747,0.8783409411,-140.3902956,
1154718239,-0.9789210468,0.8934164562,-153.2779916,
1156552184,-0.8954656964,0.9020419085,-161.618661,
1158386128,-1.168812878,0.8740964493,-161.6619602,
1160220073,-0.7692730839,0.9152428521,-171.4681225,
1162054018,-0.9406172579,0.8973650215,178.2053866,
1163887962,-2.058204318,0.7890232199,160.216707,
1165721907,-4.020155768,0.6294948937,-105.7454726,
1167555851,-1.767400442,0.8158869335,-152.6377128,
1169389796,-1.133149126,0.8776928162,-179.7620992,
1171223741,-8.728157087,0.3660936076,-100.9471968,
1173057685,-1.104480265,0.8805945367,-160.6171743,
1174891630,-4.421984655,0.6010363899,-156.3708784,
1176725575,-0.9898294228,0.8922951427,-176.1331209,
1178559519,-2.562595659,0.7445094542,-157.8688685,
1180393464,-1.307476065,0.8602530018,-178.919944,
1182227409,-0.9252052044,0.8989586999,168.6760313,
1184061353,-8.265692534,0.3861138439,114.7482808,
1185895298,-1.449231393,0.8463274563,-172.9978488,
1187729243,-2.505240537,0.7494419053,-169.3636206,
1189563187,-1.141617595,0.8768375103,177.6901284,
1191397132,-2.426340406,0.7562806342,153.9277402,
1193231077,-1.094754684,0.8815810897,170.0810637,
1195065021,-2.098296271,0.785389673,141.4535367,
1196898966,-1.750257155,0.8174988346,-162.1617418,
1198732910,-0.8024522279,0.9117533939,173.8392764,
1200566855,-0.9661792542,0.894728018,164.0159681,
1202400800,-0.8144931522,0.9104903399,156.6723848,
1204234744,-1.10735345,0.8803032951,145.7463335,
1206068689,-4.386372465,0.6035057006,114.2736462,
1207902634,-3.409760769,0.6753236539,158.3079001,
1209736578,-3.087950252,0.7008135455,172.3436548,
1211570523,-1.587772023,0.832935551,136.3212836,
1213404468,-3.068207358,0.7024082957,152.273075,
1215238412,-2.949888371,0.7120419509,169.2917306,
1217072357,-2.917372626,0.714712485,167.1548667,
1218906302,-2.233491649,0.7732597728,178.7424419,
