Frequency,S11_Magnitude,S11_Magnitude (linear),S11_Phase,
500000000,-0.6986147893,0.922718569,108.5965588,
501833944,-0.6382410413,0.9291545286,105.4566739,
503667889,-0.6875850116,0.9238910275,102.8767093,
505501833,-0.635856995,0.9294095919,98.7654197,
507335778,-0.8374854669,0.9080833789,92.41608201,
509169723,-2.628295449,0.738899253,104.8790229,
511003667,-0.8280239246,0.9090730934,96.6262089,
512837612,-0.8166945896,0.9102596055,87.94292333,
514671557,-7.305538332,0.4312440176,125.5998671,
516505501,-0.7791206843,0.9142057864,98.64287154,
518339446,-0.6530478768,0.9275719482,92.46680823,
520173391,-0.6188042501,0.931236066,88.49320454,
522007335,-0.6002250065,0.9332301253,84.97871035,
523841280,-0.5873691422,0.9346124089,81.38002481,
525675225,-0.6080944967,0.9323849938,77.3346311,
527509169,-0.7170585655,0.9207613303,72.50760411,
529343114,-1.007962506,0.8904342873,67.25592102,
531177059,-1.238627873,0.8670988422,59.8090143,
533011003,-2.244837983,0.772250327,43.00702666,
534844948,-13.16260574,0.2197200621,-15.57078158,
536678892,-3.390332808,0.6768358588,122.1478068,
538512837,-1.342252356,0.8568156338,97.34583353,
540346782,-0.9994986841,0.8913023792,85.83223903,
542180726,-1.245219508,0.8664410593,84.16481554,
544014671,-0.7795275278,0.9141629664,77.77675195,
545848616,-0.78934637,0.9131301475,71.95334511,
547682560,-0.8923364145,0.9023669474,73.34317647,
549516505,-0.7053079941,0.922007811,68.64932698,
551350450,-0.6681160414,0.9259642038,64.99850014,
553184394,-0.6614037087,0.9266800524,60.83627235,
555018339,-1.658764635,0.8261554425,51.90338358,
556852284,-1.077647196,0.8833191385,61.42339293,
558686228,-0.8686042511,0.9048358255,56.42486373,
560520173,-1.088050544,0.8822617943,50.10057888,
562354118,-1.414679272,0.8497008181,60.5404376,
564188062,-0.8064613298,0.9113326576,53.04587342,
566022007,-0.7637343809,0.9158266582,48.99028876,
567855951,-0.7788638328,0.9142328209,44.94487437,
569689896,-1.215311857,0.8694295707,37.27507145,
571523841,-1.223135436,0.8686468082,50.07739678,
573357785,-0.8457703498,0.9072176325,42.99728016,
575191730,-0.7994738781,0.9120660834,39.43611747,
577025675,-0.7894460128,0.9131196723,36.36023374,
578859619,-0.7884656277,0.9132227429,33.40859545,
580693564,-0.7936731886,0.912675391,30.41775873,
582527509,-0.8140781517,0.910533843,27.28159009,
584361453,-0.8597118171,0.905762652,23.69491456,
586195398,-1.045731043,0.88657085,19.05054099,
588029343,-2.111408696,0.7842049245,17.37785412,
589863287,-1.404325647,0.8507142697,15.73679048,
591697232,-5.215104039,0.5485860984,10.13702086,
593531177,-1.032946316,0.8878767511,23.37331961,
595365121,-0.8459028526,0.9072037931,14.30646019,
597199066,-1.145592788,0.8764363077,3.554330833,
599033011,-2.062085002,0.7886707786,24.33393973,
600866955,-0.9882584613,0.892456541,11.88184794,
602700900,-0.9104742023,0.9004845998,6.309656848,
604534844,-0.9208030353,0.8994144243,1.432109886,
606368789,-1.083515869,0.8827225202,-5.112746127,
608202734,-2.409150076,0.7577788788,7.24218575,
610036678,-0.9880953595,0.8924732995,-4.530870206,
611870623,-1.050749399,0.8860587732,-12.56415222,
613704568,-2.608358853,0.7405971856,-1.092545993,
615538512,-1.16878685,0.8740990687,-11.90917104,
617372457,-1.154074882,0.8755808529,-17.83831851,
619206402,-1.411943884,0.8499684507,-24.00098366,
621040346,-1.573260032,0.8343283452,-22.82926951,
622874291,-1.4451366,0.8467265349,-31.27465164,
624708236,-2.510311003,0.7490045395,-42.33533292,
626542180,-3.388766284,0.676957939,-14.05356179,
628376125,-1.318211466,0.8591904214,-30.48618805,
630210070,-1.629272942,0.8289653025,-40.47988558,
632044014,-1.254047708,0.8655608697,-43.55224278,
633877959,-1.366669186,0.8544104289,-52.07139256,
635711903,-1.599518633,0.8318098682,-61.16401163,
637545848,-2.107993788,0.7845132999,-74.00533466,
639379793,-5.196957422,0.5497334061,-103.8795933,
641213737,-4.088451659,0.6245646748,-57.83817208,
643047682,-5.706907446,0.5183876277,-95.6161022,
644881627,-18.67641738,0.1164606289,-160.1842428,
646715571,-6.572935218,0.4691948528,15.93479348,
648549516,-2.479864826,0.7516345913,-18.83226625,
650383461,-1.460389197,0.8452409707,-39.40586385,
652217405,-1.154083823,0.8755799516,-54.34238449,
654051350,-1.10693876,0.8803453244,-67.73094845,
655885295,-1.75993339,0.8165886336,-82.94060745,
657719239,-1.509934151,0.8404333785,-93.89023813,
659553184,-2.389199612,0.7595214079,-124.5749785,
661387129,-8.368303855,0.3815793002,122.6082844,
663221073,-2.707140441,0.7322223449,-35.97659258,
665055018,-2.05092929,0.7896843577,-80.89830722,
666888962,-6.238409699,0.48761776,-60.37505915,
668722907,-2.31039846,0.7664433792,-106.0945006,
670556852,-7.387179862,0.4272096035,-172.988375,
672390796,-4.091759654,0.6243268566,-36.13760276,
674224741,-1.882505177,0.8051461881,-83.41276283,
676058686,-2.20221563,0.7760491338,-99.49077686,
677892630,-2.125236474,0.7829574778,-127.4657967,
679726575,-6.522226626,0.4719420435,-174.0170726,
681560520,-5.276173909,0.5447425564,-68.88887953,
683394464,-2.298863269,0.7674619213,-118.6701508,
685228409,-6.249894349,0.4869734485,-137.6869055,
687062354,-2.241219706,0.7725720899,-141.9716138,
688896298,-3.645319779,0.6572551701,-158.5861288,
690730243,-3.055672306,0.7034227089,172.6079615,
692564188,-4.946120159,0.5658404521,173.358332,
694398132,-9.87062144,0.3209733153,117.8626062,
696232077,-5.175223988,0.5511106461,114.5918856,
698066022,-11.47674253,0.2667859005,47.58655936,
699899966,-7.213614547,0.435832159,49.32815807,
701733911,-4.656398374,0.5850326191,-18.62141319,
703567855,-3.824706,0.6438203503,-80.25692837,
705401800,-3.287359805,0.6849076385,-130.0982511,
707235745,-3.364307657,0.6788668737,-177.5285439,
709069689,-3.638457547,0.6577746355,134.2672219,
710903634,-3.714944393,0.6520077837,82.0108511,
712737579,-3.610843841,0.6598691244,19.41649513,
714571523,-12.36358755,0.2408910267,-91.50030936,
716405468,-8.454678329,0.3778035927,-5.64641568,
718239413,-21.11180997,0.08798517482,31.4417488,
720073357,-3.983327952,0.6321695925,-19.27025338,
721907302,-3.464741976,0.671062393,-66.67889395,
723741247,-4.104456121,0.6234149229,-56.20738292,
725575191,-9.810017165,0.3232206816,-157.7911528,
727409136,-3.660794423,0.6560852572,-91.64749696,
729243081,-6.495734544,0.4733836705,-92.86252872,
731077025,-1.875815808,0.8057665039,-118.1906832,
732910970,-1.60124234,0.8316448127,-150.1921684,
734744914,-2.219789218,0.774480592,166.2071584,
736578859,-5.637154444,0.5225673575,54.16443001,
738412804,-3.229281893,0.6895025955,-93.42055023,
740246748,-2.120335104,0.7833994185,-150.4357953,
742080693,-2.167348378,0.7791706429,166.7742672,
743914638,-2.866305951,0.718926848,114.4232947,
745748582,-4.014169908,0.6299288581,35.29011787,
747582527,-4.530689866,0.5935612034,-63.12118533,
749416472,-14.44108578,0.1896468839,158.8507769,
751250416,-3.71734818,0.6518273679,-69.68801135,
753084361,-1.857277754,0.8074880655,-119.3204467,
754918306,-1.477887506,0.8435398901,-151.5639473,
756752250,-1.466278131,0.8446681013,-176.2198422,
758586195,-1.647102367,0.8272654402,151.5423346,
760420140,-2.795456,0.724815046,102.9435182,
762254084,-7.723176344,0.4109993952,-24.12349998,
764088029,-9.360796681,0.3403769685,-146.6867652,
765921973,-8.704207534,0.3671044283,137.8298156,
767755918,-5.747124249,0.5159929733,114.726336,
769589863,-5.50436192,0.5306179092,-73.1026196,
771423807,-3.100063082,0.6998369133,-150.2308011,
773257752,-2.275414497,0.7695365911,172.1745524,
775091697,-2.282412092,0.7689168806,141.319742,
776925641,-3.795958904,0.6459546885,108.6949372,
778759586,-2.866346395,0.7189235005,137.6159745,
780593531,-1.791392232,0.8136364352,100.7448329,
782427475,-1.843881066,0.8087344563,71.95553112,
784261420,-2.111029196,0.7842391884,38.8786528,
786095365,-3.218715478,0.6903418882,-9.614619934,
787929309,-9.114483179,0.3501675044,-120.4714829,
789763254,-6.087645314,0.4961554135,10.81626878,
791597199,-4.52663846,0.593838126,-65.5285704,
793431143,-3.601504527,0.6605790159,-125.7329625,
795265088,-2.51330653,0.7487462728,179.3597818,
797099033,-3.955003017,0.6342344807,132.2462038,
798932977,-7.494809449,0.4219485779,106.0500576,
800766922,-3.043014437,0.7044485478,85.84908996,
802600866,-2.731450159,0.7301758956,46.72716234,
804434811,-3.180313888,0.6934007477,10.00062156,
806268756,-4.544888813,0.5925916932,-27.22196176,
808102700,-5.547689787,0.5279776159,-44.38544345,
809936645,-6.182429277,0.4907705978,-84.22185487,
811770590,-8.258349643,0.3864403955,-129.149257,
813604534,-9.863221693,0.3212468777,-45.13048038,
815438479,-4.427883675,0.6006283347,176.0664617,
817272424,-6.711736702,0.4617566567,64.51080108,
819106368,-4.094570088,0.62412488,-44.24063308,
820940313,-5.405176114,0.5367118626,-138.9497182,
822774258,-18.08674466,0.1246415287,150.5543826,
824608202,-5.063442359,0.5582489078,-9.729261315,
826442147,-3.428572097,0.6738626649,-92.58474677,
828276092,-2.806779482,0.7238707463,-106.8453542,
830110036,-2.122449191,0.7832087675,-139.4005525,
831943981,-3.807787628,0.6450756053,-169.4083149,
833777925,-3.035804473,0.7050335376,-168.982477,
835611870,-3.188351456,0.6927593997,164.417862,
837445815,-7.47585345,0.4228704399,130.8194324,
839279759,-7.107598573,0.4411843225,159.7241149,
841113704,-8.236099784,0.3874315738,-147.3015113,
842947649,-3.150986873,0.695745901,175.7110335,
844781593,-2.366455563,0.7615128249,152.3995832,
846615538,-2.380099848,0.7603175367,131.4177833,
848449483,-3.740224027,0.6501129224,106.1106384,
850283427,-6.596492796,0.4679240423,122.5472671,
852117372,-3.917272491,0.6369955163,83.7997679,
853951317,-11.49237665,0.2663061325,-6.965127531,
855785261,-8.568885699,0.3728685167,-117.3513723,
857619206,-3.893649478,0.638730311,117.8438325,
859453151,-9.891590686,0.3201993645,-176.5081728,
861287095,-9.388832583,0.339280087,160.7830707,
863121040,-5.215773019,0.5485438484,152.0097981,
864954984,-3.509549305,0.6676095411,132.400649,
866788929,-2.657813033,0.7363924859,121.8745185,
868622874,-2.208251838,0.7755100103,105.6444755,
870456818,-2.342354128,0.76362879,89.03033989,
872290763,-2.42921125,0.756030711,71.68738622,
874124708,-6.080789761,0.4965471711,43.38033159,
875958652,-12.54280236,0.2359716788,2.438152395,
877792597,-6.741893824,0.4601562327,138.3300311,
879626542,-2.453346693,0.7539328478,93.32991263,
881460486,-2.535925941,0.7467989574,58.99077368,
883294431,-3.675287835,0.6549914158,22.538502,
885128376,-17.95221347,0.1265870638,-139.4313273,
886962320,-14.77820633,0.1824272382,85.57011593,
888796265,-13.16259989,0.21972021,-18.02446238,
890630210,-5.29316739,0.5436778384,154.8099127,
892464154,-3.000702008,0.7078885694,112.1033389,
894298099,-2.120376785,0.7833956591,83.96339423,
896132044,-2.75199965,0.7284504526,60.19055152,
897965988,-11.11780973,0.2780414299,67.83890697,
899799933,-3.3817306,0.677506506,67.69750422,
901633877,-6.666315853,0.4641776306,40.06082659,
903467822,-4.059633158,0.6266403298,67.91336057,
905301767,-6.662213551,0.4643969112,15.05693619,
907135711,-3.933681178,0.6357932913,90.86544901,
908969656,-4.94132947,0.5661526266,66.56752399,
910803601,-1.842227945,0.8088883914,54.07833572,
912637545,-1.697459985,0.8224831335,38.69019869,
914471490,-2.221891425,0.7742931707,29.60682813,
916305435,-1.917840953,0.8018773609,13.30264599,
918139379,-3.26626709,0.6865728815,26.23178598,
919973324,-3.154092249,0.6954972026,8.093079892,
921807269,-2.832923681,0.7216951986,3.192714941,
923641213,-2.820506454,0.7227276618,-19.88285923,
925475158,-4.906290617,0.5684410973,-54.40254201,
927309103,-8.815463854,0.3624322267,147.6590097,
929143047,-3.249460822,0.6879026127,43.44201135,
930976992,-2.78908449,0.7253469271,5.500609864,
932810936,-1.776961696,0.8149893156,-6.413437922,
934644881,-4.079732796,0.6251919252,-41.02506141,
936478826,-3.184854588,0.693038355,-50.6200061,
938312770,-6.483053995,0.4740752691,-109.1271271,
940146715,-19.97514057,0.1002866147,-49.97832014,
941980660,-6.363391773,0.480651621,159.2880642,
943814604,-4.898655492,0.5689409917,79.68141983,
945648549,-6.771309587,0.4586004966,79.12077643,
947482494,-2.557975438,0.7449055809,45.13233091,
949316438,-1.380652513,0.8530360287,12.83050375,
951150383,-2.655914582,0.7365534548,-10.72787661,
952984328,-5.721169816,0.5175371253,-65.83011959,
954818272,-6.515146546,0.4723268918,22.85096194,
956652217,-13.73160675,0.205787818,-21.46219313,
958486162,-2.193766721,0.7768043769,23.60075339,
960320106,-1.42528509,0.8486639327,-7.723815827,
962154051,-1.68342859,0.8238128664,-23.94832099,
963987995,-2.99280802,0.7085322114,-43.12389223,
965821940,-1.826384452,0.8103651903,-68.15822732,
967655885,-3.908721331,0.63762294,-126.8782513,
969489829,-26.71441002,0.04616145602,145.873312,
971323774,-4.749868632,0.5787707418,93.67849143,
973157719,-2.382766551,0.7600841433,37.22129566,
974991663,-1.758478178,0.8167254542,9.262117969,
976825608,-1.514311369,0.8400099523,-9.996731741,
978659553,-2.141486565,0.7814940427,-27.34619876,
980493497,-1.973654174,0.7967412292,-39.93656138,
982327442,-2.480884229,0.7515463822,-65.90709137,
984161387,-10.59464285,0.2953029989,48.47426473,
985995331,-3.160316646,0.6949989808,-44.89581903,
987829276,-3.678016449,0.6547856869,-33.77481412,
989663221,-2.01054659,0.79336433,-62.27281048,
991497165,-2.414834813,0.7572830902,-95.30955662,
993331110,-8.498172238,0.3759164997,-158.1355403,
995165055,-10.69298418,0.2919784449,165.9790235,
996998999,-5.782983716,0.5138671012,48.31071274,
998832944,-3.867939367,0.6406237446,-3.672938641,
1000666888,-4.123682646,0.622036498,-28.49860315,
1002500833,-4.037227912,0.6282588346,-48.20230265,
1004334778,-23.2668459,0.06865271312,-125.8989606,
1006168722,-2.490762425,0.7506921574,-43.97811744,
1008002667,-4.765855086,0.577706489,-77.29029548,
1009836612,-7.560530719,0.4187679771,-160.7842249,
1011670556,-4.744517724,0.5791274011,12.61049582,
1013504501,-9.190587111,0.3471128125,-57.38043369,
1015338446,-12.82527327,0.2284211621,-52.21706733,
1017172390,-5.074106374,0.5575639438,-20.53266458,
1019006335,-3.089557346,0.7006838905,-30.16458909,
1020840280,-3.216364859,0.6905287373,-45.76002544,
1022674224,-3.609438067,0.6599759299,-63.3688599,
1024508169,-9.986181071,0.3167312731,-47.59115199,
1026342114,-4.637817405,0.5862854681,-58.47055222,
1028176058,-8.350971938,0.3823414678,-63.8999599,
1030010003,-3.860072311,0.6412042385,-29.42974619,
1031843947,-1.950829481,0.798837651,-50.16243855,
1033677892,-1.716450918,0.8206868111,-65.02501354,
1035511837,-2.614387262,0.7400833553,-86.45358182,
1037345781,-16.5806214,0.1482412028,-68.33756605,
1039179726,-2.395278532,0.758990034,-43.35900068,
1041013671,-1.293987367,0.8615899642,-62.90092439,
1042847615,-1.3479358,0.8562551764,-76.01190906,
1044681560,-1.916570871,0.8019946228,-74.96181776,
1046515505,-1.058219727,0.8852970431,-86.39307296,
1048349449,-1.323818739,0.8586359404,-98.43336904,
1050183394,-3.274277503,0.6859399933,-113.788841,
1052017339,-4.400180878,0.6025470383,-112.7229509,
1053851283,-5.348883249,0.5402015644,-61.14510055,
1055685228,-1.497796992,0.8416085723,-93.78459449,
1057519173,-2.245962964,0.7721503129,-108.1103114,
1059353117,-2.332472166,0.7644980671,-125.8358106,
1061187062,-5.388607188,0.5377366541,-162.5487153,
1063021007,-16.1370919,0.156007474,-87.27220298,
1064854951,-9.69794806,0.3274180344,-77.05424087,
1066688896,-7.101914121,0.4414731486,-73.46001912,
1068522840,-6.664439883,0.4642778941,-98.1453505,
1070356785,-7.049599894,0.4441401197,-90.11396697,
1072190730,-2.763411334,0.7274940293,-88.81559308,
1074024674,-3.018380791,0.7064492371,-117.057769,
1075858619,-10.56587279,0.2962827457,-136.7435308,
1077692564,-10.21190012,0.3086064465,-64.52543419,
1079526508,-2.919260616,0.71455715,-75.02194302,
1081360453,-2.49715423,0.7501399385,-101.4679027,
1083194398,-5.094508225,0.5562558467,-118.1873929,
1085028342,-7.276286761,0.4326987713,-90.86479328,
1086862287,-4.492861673,0.5961518779,-92.88102959,
1088696232,-3.25107577,0.6877747244,-95.95733853,
1090530176,-3.436241798,0.6732679021,-102.217099,
1092364121,-2.312337524,0.7662722952,-104.7687477,
1094198066,-2.391476022,0.7593223775,-109.5043756,
1096032010,-2.686771477,0.7339414679,-114.2227705,
1097865955,-2.471745411,0.7523375344,-122.9329718,
1099699899,-2.926702112,0.7139452268,-100.4072575,
1101533844,-1.566513011,0.8349766861,-114.8381743,
1103367789,-1.622467453,0.8296150603,-119.5229948,
1105201733,-1.056460733,0.8854763442,-125.3518548,
1107035678,-1.171330062,0.8738431716,-131.7859156,
1108869623,-1.702896499,0.8219685009,-137.0075707,
1110703567,-1.270048316,0.8639678548,-143.0612931,
1112537512,-2.814195249,0.7232529897,-149.9826922,
1114371457,-4.808488877,0.5748778242,-160.9486659,
1116205401,-1.501411722,0.8412584004,-129.5469784,
1118039346,-1.349825834,0.8560688771,-143.1217763,
1119873291,-2.242012122,0.7725016112,-154.3270439,
1121707235,-1.813037388,0.8116113851,-146.592113,
1123541180,-1.416816689,0.8494917501,-158.7196598,
1125375125,-1.560157618,0.8355878551,-165.3800194,
1127209069,-1.576264152,0.8340398325,175.9953656,
1129043014,-5.783954203,0.5138096893,131.419346,
1130876958,-9.565002091,0.3324680341,-80.17783954,
1132710903,-6.241579793,0.4874398263,-166.5365099,
1134544848,-17.22214307,0.1376869712,-52.04428107,
1136378792,-3.556556983,0.664006225,-102.0308987,
1138212737,-2.123179738,0.7831428966,-127.7485759,
1140046682,-2.449289499,0.7542850934,-135.0352261,
1141880626,-1.83623263,0.8094469081,-144.820881,
1143714571,-2.549521211,0.745630972,-153.408925,
1145548516,-2.933633546,0.7133757181,-149.9069423,
1147382460,-1.908905678,0.8027026858,-151.7672911,
1149216405,-1.502268801,0.8411753934,-162.1030696,
1151050350,-3.149976769,0.6958268157,-173.6487679,
1152884294,-3.973756169,0.6328666226,-160.4926462,
1154718239,-2.404849065,0.7581542027,-163.3507277,
1156552184,-2.618251377,0.7397541857,-172.8995605,
1158386128,-2.399576017,0.7586146043,176.2914118,
1160220073,-3.808377867,0.6450317715,146.9435575,
1162054018,-29.42681894,0.03377995392,-102.2036596,
1163887962,-4.701232728,0.5820206098,-136.3023747,
1165721907,-6.353311658,0.4812097488,-147.9135785,
1167555851,-4.895060455,0.5691765216,-129.8253289,
1169389796,-1.387037514,0.8524091919,-144.2509257,
1171223741,-1.417625346,0.8494126661,-154.0075914,
1173057685,-1.079578689,0.8831227354,-162.2464812,
1174891630,-1.634796525,0.8284383095,-166.7314863,
1176725575,-1.393709952,0.8517546289,-169.6299098,
1178559519,-1.120807329,0.878940818,-172.5873685,
1180393464,-1.258836943,0.8650837474,-177.7530713,
1182227409,-2.103046644,0.7849602554,-179.3066618,
1184061353,-1.068634526,0.8842361655,-177.9348559,
1185895298,-0.8926541781,0.902333936,176.5288505,
1187729243,-0.9170991009,0.8997980444,172.9593169,
1189563187,-0.8653685165,0.9051729647,168.1397313,
1191397132,-1.102135526,0.8808322837,162.7765363,
1193231077,-1.503115833,0.8410933675,157.2381571,
1195065021,-3.196948037,0.6920741024,157.1445352,
1196898966,-2.138113718,0.7817975662,162.5423885,
1198732910,-1.955449751,0.7984128397,150.0378682,
1200566855,-1.919420334,0.8017315663,153.465655,
1202400800,-4.674803901,0.583794239,140.0874388,
1204234744,-10.12714268,0.3116325876,157.0009485,
1206068689,-4.572301928,0.5907243915,-178.7084826,
1207902634,-3.575090883,0.6625908829,171.5256261,
1209736578,-1.755271955,0.8170269878,159.8358845,
1211570523,-3.993673091,0.631417109,157.9358661,
1213404468,-4.19107558,0.6172288553,140.7394388,
1215238412,-8.149863593,0.3912972722,-178.5324827,
1217072357,-2.464173272,0.7529936892,-177.5596842,
1218906302,-1.435262137,0.8476896745,166.3369371,
