Frequency,S11_Magnitude,S11_Magnitude (linear),S11_Phase,
500000000,-0.9825394762,0.893044348,114.3232388,
501833944,-0.6552196957,0.9273400472,108.4071878,
503667889,-0.5984973103,0.9334157711,104.9768935,
505501833,-0.577991476,0.9356220023,102.1830781,
507335778,-0.5774012857,0.9356855782,99.47914825,
509169723,-0.5831564679,0.9350658078,96.54955006,
511003667,-0.6553033163,0.9273311196,92.11872354,
512837612,-1.612517533,0.8305659511,105.528106,
514671557,-0.61115181,0.9320568649,93.72505222,
516505501,-0.5939342574,0.9339062614,89.65839199,
518339446,-0.6636120407,0.9264444799,84.53550926,
520173391,-0.8351589066,0.9083266463,91.2174898,
522007335,-0.6145861588,0.931688408,83.821893,
523841280,-0.6189101264,0.9312247148,79.3296689,
525675225,-0.670884333,0.9256691355,74.13663975,
527509169,-0.8330490571,0.9085473106,66.25105905,
529343114,-1.683337934,0.8238214646,48.72621683,
531177059,-22.14456311,0.07812172861,-61.81579077,
533011003,-2.238333418,0.7728288554,111.5702155,
534844948,-1.245790739,0.8663840792,93.78456265,
536678892,-0.7958366661,0.9124480906,86.48537748,
538512837,-0.7637037927,0.9158298833,79.35013462,
540346782,-1.403738414,0.8507717865,86.06990525,
542180726,-0.7127033925,0.921223123,76.70665819,
544014671,-0.6816123485,0.9245265395,72.33648049,
545848616,-0.728853983,0.9195117873,66.96944108,
547682560,-0.8010369714,0.9119019648,75.324977,
549516505,-0.6240441828,0.9306744491,66.32588504,
551350450,-0.6251872572,0.9305519791,61.67695995,
553184394,-0.6759787634,0.9251263731,55.53269387,
555018339,-1.733924951,0.8190374356,36.51566242,
556852284,-2.094579126,0.7857258541,80.2792979,
558686228,-0.962336983,0.8951238955,65.88128604,
560520173,-0.8245415165,0.9094376384,60.53183187,
562354118,-0.817062589,0.9102210409,56.79792439,
564188062,-0.7105478823,0.9214517642,54.55909108,
566022007,-0.6991532528,0.9226613688,51.43341081,
567855951,-0.8292460933,0.9089451891,46.73719626,
569689896,-0.7258348584,0.9198314555,47.0827703,
571523841,-0.7018068174,0.9223795361,44.40556838,
573357785,-0.7037848436,0.9221695077,41.28319678,
575191730,-0.8103356087,0.9109262549,40.17308313,
577025675,-0.7607053105,0.9161460943,37.70074364,
578859619,-0.7482107765,0.9174649063,35.2710684,
580693564,-0.7441687534,0.9178919527,32.84143626,
582527509,-0.7415179843,0.9181721187,30.40225058,
584361453,-0.7434869932,0.9179640013,27.69076132,
586195398,-0.7783664386,0.9142851756,25.78263735,
588029343,-0.7636936837,0.9158309492,23.09298441,
589863287,-0.8173204495,0.9101940193,19.83675354,
591697232,-0.753455092,0.9169111319,19.05589817,
593531177,-0.7621346701,0.9159953447,15.96872256,
595365121,-0.7566300063,0.9165760388,13.0421537,
597199066,-0.7591353587,0.9163117003,9.609650537,
599033011,-1.612414078,0.8305758438,4.741382652,
600866955,-0.982150872,0.8930843034,7.038091771,
602700900,-0.8980022918,0.901778518,3.609561411,
604534844,-0.8860508295,0.9030201859,0.4539537108,
606368789,-0.8926526647,0.9023340932,-2.70173338,
608202734,-0.9068715814,0.9008581687,-5.992854342,
610036678,-0.947746996,0.8966287293,-9.569951921,
611870623,-1.554553396,0.8361271586,-14.39901177,
613704568,-0.8715203844,0.9045320939,-15.3167526,
615538512,-0.9723026717,0.8940974709,-20.16803298,
617372457,-0.9360935316,0.8978325028,-23.67272127,
619206402,-0.9758945237,0.8937278137,-28.87081008,
621040346,-1.020971821,0.8891016351,-34.86501697,
622874291,-1.095938757,0.8814609195,-42.89542598,
624708236,-1.281592102,0.8628203804,-57.02324098,
626542180,-3.123097571,0.6979834441,-124.0267157,
628376125,-1.258415374,0.8651257352,-12.55282128,
630210070,-1.199657738,0.8709979104,-42.29054394,
632044014,-1.551774622,0.8363946938,-67.88079915,
633877959,-3.389965627,0.6768644715,-20.93044909,
635711903,-2.41719315,0.7570775055,-74.25926,
637545848,-6.380108749,0.4797274423,-148.9248649,
639379793,-5.83998112,0.5105061096,-14.44798327,
641213737,-11.5152847,0.2656047056,-114.9182017,
643047682,-4.093939405,0.6241701995,45.0944697,
644881627,-1.300703804,0.8609239901,-1.614985756,
646715571,-0.9190637884,0.8995945394,-22.9074918,
648549516,-0.8690392685,0.9047905095,-36.60135967,
650383461,-0.910684205,0.9004628287,-47.50997988,
652217405,-0.9970320068,0.8915555332,-57.37485037,
654051350,-1.13061854,0.8779485644,-67.42621776,
655885295,-1.374428138,0.8536475399,-77.88844811,
657719239,-1.914890119,0.8021498268,-91.20757517,
659553184,-1.617333371,0.8301055766,-103.8654865,
661387129,-2.795580753,0.7248046357,-133.3061983,
663221073,-5.197430343,0.5497034756,173.4475523,
665055018,-5.975618987,0.5025960264,69.10009913,
666888962,-3.302177084,0.683740249,-13.7730371,
668722907,-2.937000804,0.7130992173,-27.5294943,
670556852,-2.326698922,0.7650063744,-74.05966274,
672390796,-20.88521645,0.09031069356,64.51359749,
674224741,-5.36655822,0.5391034225,19.29864205,
676058686,-1.114004306,0.8796294978,-44.81038382,
677892630,-0.9148796169,0.900027997,-62.95493012,
679726575,-0.8667938318,0.9050244421,-76.29266926,
681560520,-0.929516584,0.8985125982,-88.09025571,
683394464,-2.174059957,0.778568811,-100.1846692,
685228409,-1.336758824,0.8573577121,-99.48442406,
687062354,-1.275886619,0.8633873257,-115.1826104,
688896298,-3.162730883,0.6948058331,-102.4080118,
690730243,-1.222400774,0.8687202824,-126.2710432,
692564188,-1.589445906,0.832775049,-148.6363266,
694398132,-2.199368317,0.7763035714,-128.3105863,
696232077,-4.069593215,0.625922177,153.8107767,
698066022,-4.417047509,0.6013781221,-83.53152515,
699899966,-2.641328548,0.7377913728,-77.38854526,
701733911,-1.437050224,0.8475151861,-123.356345,
703567855,-6.805785382,0.4567838398,179.3181793,
705401800,-1.579650426,0.8337147377,-129.7890447,
707235745,-1.87955328,0.8054198633,-153.4620317,
709069689,-1.283941968,0.862586986,-157.4870477,
710903634,-1.916289072,0.8020206426,-177.8519919,
712737579,-6.219336197,0.4886897051,-152.2399565,
714571523,-1.127668517,0.8782467962,-179.3925138,
716405468,-1.446449038,0.8465986041,154.6730316,
718239413,-1.526111245,0.8388695644,136.9635495,
720073357,-4.579729465,0.5902194631,-164.1792406,
721907302,-2.069093299,0.7880346884,132.8645864,
723741247,-8.353674988,0.3822225016,34.24927093,
725575191,-6.175044498,0.4911880304,126.8061314,
727409136,-2.551499923,0.745461131,145.7065423,
729243081,-2.187616663,0.7773545892,109.8891578,
731077025,-2.548755141,0.7456967374,64.19801468,
732910970,-3.451634683,0.6720758127,-19.17151774,
734744914,-1.898227827,0.8036900815,-146.4877867,
736578859,-1.41039198,0.8501203278,154.2641361,
738412804,-1.442617342,0.8469721553,122.9454377,
740246748,-1.718529888,0.820490403,98.03879373,
742080693,-5.394255879,0.5373870618,119.4682,
743914638,-1.402341438,0.8509086295,77.59734268,
745748582,-1.456224978,0.8456462963,58.95850716,
747582527,-1.536447164,0.8378719313,41.81321,
749416472,-1.822698095,0.8107091884,20.68586522,
751250416,-1.647856817,0.8271935877,21.14629928,
753084361,-1.611952955,0.8306199393,-2.368914165,
754918306,-1.764769421,0.8161341091,-26.59201817,
756752250,-2.688391564,0.7338045864,-80.10507096,
758586195,-1.845365299,0.8085962727,19.24192477,
760420140,-1.997836044,0.7945261541,-50.16091992,
762254084,-3.089883922,0.7006575463,-12.55421663,
764088029,-1.761584454,0.8164334264,-66.19296762,
765921973,-2.035461297,0.7910918952,-79.88923263,
767755918,-7.68798737,0.4126678464,120.564431,
769589863,-4.586489552,0.5897602837,-162.6543833,
771423807,-2.317289923,0.7658355174,-38.88844265,
773257752,-1.723388626,0.820031563,-87.72202907,
775091697,-1.630807501,0.8288188599,-122.2666007,
776925641,-1.771139006,0.8155358365,-165.7456728,
778759586,-2.037994967,0.7908611677,122.7040289,
780593531,-2.137102027,0.7818886315,6.923499937,
782427475,-1.679590901,0.8241769322,-57.10847858,
784261420,-2.581053834,0.742928995,-116.8617517,
786095365,-1.682885999,0.82386433,-90.71313327,
787929309,-1.430766575,0.8481285274,-130.648299,
789763254,-2.253636991,0.7714684155,-138.3529523,
791597199,-1.316854217,0.8593246882,-172.7400876,
793431143,-2.261007205,0.7708140812,139.4428647,
795265088,-3.150414433,0.6957917553,79.58886066,
797099033,-4.460040098,0.5984088326,-51.71987997,
798932977,-4.913647209,0.5679598549,-137.6824783,
800766922,-12.80056047,0.2290719835,129.1269681,
802600866,-6.40486722,0.4783619626,-77.18259287,
804434811,-5.496552491,0.5310951989,-150.5402448,
806268756,-3.779619218,0.6471709866,-134.986194,
808102700,-2.411967565,0.7575331137,-149.1357667,
809936645,-2.108069881,0.7845064272,-176.1067274,
811770590,-3.485474608,0.6694625226,172.5401126,
813604534,-6.112517126,0.494736718,112.3907377,
815438479,-3.969641903,0.633166465,-163.131993,
817272424,-1.898814993,0.8036357539,165.8991008,
819106368,-1.950362702,0.7988805817,133.105258,
820940313,-3.968319744,0.6332628524,86.93759584,
822774258,-9.4433456,0.3371574186,-0.2484479644,
824608202,-12.79271622,0.2292789526,-151.9203891,
826442147,-2.905860238,0.715660402,-98.30027294,
828276092,-1.635864518,0.8283364533,-160.1243702,
830110036,-2.337630736,0.7640441647,163.9938646,
831943981,-3.734214779,0.6505628523,162.4712679,
833777925,-1.424935622,0.8486980785,160.8197447,
835611870,-1.386540964,0.8524579234,142.5502908,
837445815,-2.237607634,0.7728934348,121.859947,
839279759,-3.786299416,0.6466734476,150.418191,
841113704,-2.861889926,0.7192924532,109.9099292,
842947649,-6.752323723,0.4596040149,153.977575,
844781593,-2.155042182,0.7802753567,125.745754,
846615538,-10.93723488,0.2838822613,105.4688695,
848449483,-1.303116596,0.8606848732,125.8144664,
850283427,-0.9075798569,0.9007847128,111.8378912,
852117372,-0.8418114237,0.9076312259,100.9598803,
853951317,-0.8817939576,0.9034628559,90.48022198,
855785261,-0.9758843429,0.8937288612,84.22070913,
857619206,-1.060486831,0.8850660018,68.81615928,
859453151,-4.317254051,0.6083272869,98.45163914,
861287095,-1.192339005,0.8717321227,72.02995076,
863121040,-0.9663121046,0.8947143333,58.78356598,
864954984,-1.080446113,0.883034546,41.90239236,
866788929,-9.023701744,0.353846507,-3.054726186,
868622874,-2.143924769,0.7812747014,47.85228434,
870456818,-1.830654365,0.8099669192,29.08945458,
872290763,-2.338573059,0.7639612788,7.81442954,
874124708,-9.922377001,0.3190664571,-30.4329669,
875958652,-2.775382962,0.7264920261,-5.334284231,
877792597,-5.767911525,0.5147595633,-83.88637167,
879626542,-7.179665548,0.4375389524,143.9874268,
881460486,-3.592234296,0.6612844115,77.99008248,
883294431,-2.180184116,0.7780200591,37.71158559,
885128376,-2.874709605,0.718231618,15.83168482,
886962320,-7.980472208,0.39900321,-15.1368321,
888796265,-5.222157182,0.5481408146,-30.16834074,
890630210,-5.527773096,0.5291896544,0.5403763829,
892464154,-13.0088101,0.2236451554,-75.01955535,
894298099,-7.414001431,0.4258924375,-8.65749973,
896132044,-8.218334415,0.3882248039,135.1437558,
897965988,-2.576891107,0.7432851303,8.84484776,
899799933,-2.580238971,0.7429986958,-51.11900028,
901633877,-6.307656649,0.4837457556,-85.08019261,
903467822,-3.753805506,0.6490971835,-170.2205853,
905301767,-9.825785051,0.3226344568,-147.2119908,
907135711,-6.60393276,0.4675234101,149.2635613,
908969656,-3.952216644,0.6344379714,77.39394996,
910803601,-4.621915865,0.5873597831,39.52406227,
912637545,-4.047212234,0.6275370738,-52.88107777,
914471490,-8.518095509,0.3750552288,152.5669157,
916305435,-5.545236872,0.5281267391,79.30124912,
918139379,-11.82830588,0.2562032922,-89.47026733,
919973324,-2.205129015,0.7757888783,88.3911234,
921807269,-1.899331302,0.8035879854,34.31771685,
923641213,-4.043224443,0.6278252494,-14.6689447,
925475158,-7.527976262,0.420340452,-22.72397207,
927309103,-4.071463193,0.6257874372,-153.2620566,
929143047,-4.133184492,0.6213563992,113.5328315,
930976992,-3.677420826,0.6548305896,103.1604789,
932810936,-6.096563346,0.4956462591,65.4608566,
934644881,-2.454507873,0.7538320645,56.16868555,
936478826,-3.117949359,0.6983972683,69.00057273,
938312770,-1.460651313,0.8452154641,34.43898032,
940146715,-1.312154707,0.8597897525,9.625566153,
941980660,-2.094310389,0.7857501644,-30.2123305,
943814604,-8.525255711,0.3747461799,-88.80038158,
945648549,-4.170275663,0.6187086914,3.61636537,
947482494,-3.113791592,0.6987316576,-123.7471347,
949316438,-3.909231577,0.6375854845,100.0676444,
951150383,-3.52512338,0.6664135686,95.36444189,
952984328,-1.483677908,0.8429777361,57.95084804,
954818272,-1.292709252,0.8617167552,35.21837318,
956652217,-1.236316895,0.8673295743,26.8771309,
958486162,-1.252983893,0.8656668868,1.384460174,
960320106,-2.276859726,0.76940856,27.65620956,
962154051,-1.336323888,0.8574006444,-6.619053575,
963987995,-7.361433603,0.4284777945,45.66829891,
965821940,-2.075826856,0.7874240174,-1.45954253,
967655885,-1.140014174,0.87699939,-8.596380876,
969489829,-0.9371755917,0.8977206607,-17.70646473,
971323774,-0.9142522516,0.9000930066,-32.68437055,
973157719,-4.005730806,0.6305411866,-69.71474604,
974991663,-1.272571638,0.8637169015,-44.40601338,
976825608,-2.085502872,0.7865473214,-91.9476206,
978659553,-3.119635696,0.69826169,35.3032898,
980493497,-1.222644135,0.868695943,-23.92096914,
982327442,-1.074675058,0.8836214444,-45.42142765,
984161387,-1.165792093,0.8744004961,-67.25820781,
985995331,-2.365724787,0.7615768965,-110.8776023,
987829276,-4.058916613,0.6266920268,27.03954313,
989663221,-1.42695139,0.8485011406,-48.51766438,
991497165,-1.617154741,0.8301226484,-82.971474,
993331110,-1.812591781,0.8116530238,-65.69845552,
995165055,-1.518528108,0.8396022516,-105.1551142,
996998999,-2.54706579,0.7458417848,-157.428483,
998832944,-5.471797979,0.5326109624,51.17492556,
1000666888,-2.512651472,0.7488027426,-117.4031206,
1002500833,-2.821345652,0.7226578379,125.0437964,
1004334778,-2.730079885,0.7302910963,32.43719844,
1006168722,-7.537628905,0.4198735865,91.48088645,
1008002667,-1.426670638,0.848528567,-7.221631746,
1009836612,-3.292507827,0.6845018223,-65.24368119,
1011670556,-1.836848002,0.809389563,-17.93890655,
1013504501,-1.322429893,0.8587732445,-55.16762715,
1015338446,-3.797601291,0.6458325586,-74.8548988,
1017172390,-3.475519496,0.6702302499,-136.4738983,
1019006335,-5.356822525,0.5397080226,58.52927097,
1020840280,-5.617160841,0.523771614,57.66679505,
1022674224,-10.6168332,0.294549534,-73.00620352,
1024508169,-2.642200228,0.7377173348,31.23929555,
1026342114,-1.461438394,0.8451388775,-23.76906335,
1028176058,-1.429768601,0.8482259796,-43.80357974,
1030010003,-1.22917782,0.8680427397,-56.89883827,
1031843947,-4.033800341,0.6285068031,-99.85557145,
1033677892,-12.15210783,0.2468281046,-153.0230233,
1035511837,-2.320021802,0.7655946852,-39.86239457,
1037345781,-1.800173765,0.8128142553,-49.37560988,
1039179726,-2.133705258,0.7821944625,-66.49969226,
1041013671,-1.611933545,0.8306217954,-47.6706129,
1042847615,-0.9052536525,0.901025988,-65.10254373,
1044681560,-0.792960782,0.9127502507,-74.99707393,
1046515505,-0.9095878529,0.9005764943,-83.80943577,
1048349449,-0.8509238507,0.906679523,-94.55699419,
1050183394,-1.398629826,0.8512723133,-117.5235384,
1052017339,-2.576594423,0.7433105191,-86.48399733,
1053851283,-3.159671378,0.6950506137,-154.8867051,
1055685228,-7.649964927,0.4144782577,-66.98372293,
1057519173,-3.949211883,0.6346574842,-51.64918904,
1059353117,-1.68331928,0.8238232339,-79.16256638,
1061187062,-2.689419823,0.7337177217,-97.6012737,
1063021007,-1.847915612,0.808358891,-107.664973,
1064854951,-4.371071572,0.6045697614,-48.80148447,
1066688896,-1.072809305,0.8838112691,-95.89376211,
1068522840,-1.304808695,0.8605172195,-103.9971829,
1070356785,-1.443758553,0.8468608817,-124.8377085,
1072190730,-16.83863407,0.1439024859,-133.5240263,
1074024674,-21.08223451,0.08828527512,-94.32151019,
1075858619,-4.782855279,0.5765768963,-77.06526589,
1077692564,-3.289954634,0.6847030593,-74.01711318,
1079526508,-1.22883453,0.8680770478,-101.8166427,
1081360453,-1.124254813,0.8785920301,-115.9794928,
1083194398,-1.282663843,0.8627139247,-131.593423,
1085028342,-11.38744683,0.2695427523,173.0491825,
1086862287,-2.407068185,0.7579605299,-141.7920759,
1088696232,-2.278387226,0.7692732638,-92.77427874,
1090530176,-1.216338328,0.8693268303,-134.785845,
1092364121,-1.571674854,0.8344806243,-161.6154037,
1094198066,-4.239903206,0.6137688449,135.9699966,
1096032010,-4.091095011,0.6243746318,-85.04352525,
1097865955,-4.575214699,0.5905263281,162.9294482,
1099699899,-5.213969281,0.5486577725,0.9334557997,
1101533844,-2.213114103,0.7750760099,-57.24588378,
1103367789,-1.34998206,0.8560534798,-95.06441259,
1105201733,-1.823811114,0.81060531,-109.3220964,
1107035678,-3.85895868,0.6412864535,-82.49500566,
1108869623,-5.907686252,0.5065422643,-79.18690318,
1110703567,-2.09532542,0.7856583471,-108.3107849,
1112537512,-2.356259647,0.7624072502,-140.5316636,
1114371457,-1.180523045,0.8729188016,-118.929772,
1116205401,-1.106867439,0.8803525531,-135.0687038,
1118039346,-2.963426675,0.7109329878,-151.9570181,
1119873291,-0.9264418603,0.8988307195,-145.3877013,
1121707235,-0.9679850025,0.8945420283,-164.2449209,
1123541180,-3.709325418,0.6524297094,174.4720552,
1125375125,-4.327422677,0.607615531,-174.2925353,
1127209069,-4.850294781,0.5721175379,-78.42545162,
1129043014,-5.167549311,0.5515978115,-129.0722515,
1130876958,-3.46916441,0.6707208075,-76.53856352,
1132710903,-1.269782589,0.8639942865,-117.0032769,
1134544848,-6.358593524,0.4809172154,-92.1903117,
1136378792,-0.9846392861,0.892828481,-121.6594356,
1138212737,-1.369125349,0.8541688561,-130.0591963,
1140046682,-1.48336362,0.8430082387,-135.2167002,
1141880626,-0.7299688823,0.9193937686,-140.1695578,
1143714571,-0.6837557363,0.9242984254,-146.7506031,
1145548516,-0.7204853172,0.9203981438,-152.9366075,
1147382460,-1.148001895,0.8761932542,-159.6607307,
1149216405,-1.089784545,0.8820856822,-153.9622665,
1151050350,-1.022384257,0.8889570677,-171.2003154,
1152884294,-2.889562777,0.7170044667,172.0858574,
1154718239,-1.920294254,0.8016509052,-143.2390668,
1156552184,-10.11828519,0.3119505391,-173.3480515,
1158386128,-2.541033975,0.7463599059,-161.2170966,
1160220073,-5.197051427,0.5497274565,-146.3013843,
1162054018,-1.239450499,0.8670167246,-161.4136684,
1163887962,-2.882054031,0.717624568,-150.2315453,
1165721907,-2.250955963,0.7717065774,-161.0476274,
1167555851,-0.7500101385,0.9172748647,-170.6039019,
1169389796,-1.343543978,0.8566882318,178.7226741,
1171223741,-0.837309284,0.9081017985,176.9555678,
1173057685,-1.721226605,0.820235704,176.2892468,
1174891630,-1.326404583,0.8583803571,-166.9120201,
1176725575,-1.050743224,0.8860594031,175.4671448,
1178559519,-0.9939855816,0.8918682856,168.6441688,
1180393464,-1.360958581,0.8549723523,151.2671076,
1182227409,-4.906126341,0.5684518483,164.1717444,
1184061353,-3.550265155,0.6644873877,179.7376066,
1185895298,-1.823982642,0.8105893023,166.9278103,
1187729243,-3.81060252,0.6448665854,-146.0452348,
1189563187,-1.517102732,0.8397400438,-179.087878,
1191397132,-1.21213334,0.8697477882,165.8939517,
1193231077,-7.918272828,0.4018707141,167.8053786,
1195065021,-1.299839101,0.8610097015,156.9324035,
1196898966,-4.017058899,0.629719374,142.2454476,
1198732910,-2.256494034,0.7712146987,128.4241098,
1200566855,-3.546950781,0.6647409921,-129.82332,
1202400800,-1.592985756,0.8324357288,-168.6444415,
1204234744,-1.053143132,0.8858146191,176.6891724,
1206068689,-3.672436466,0.6552064691,169.7048433,
1207902634,-1.045105891,0.8866346617,161.8787295,
1209736578,-5.457647466,0.5334793664,156.9165392,
1211570523,-2.079633173,0.7870790293,152.6123798,
1213404468,-2.914861,0.7149191823,-160.0029614,
1215238412,-1.663875037,0.8256695114,178.5322041,
1217072357,-0.951968281,0.8961930796,167.0869397,
1218906302,-0.9904816842,0.8922281389,157.7751087,
