Frequency,S11_Magnitude,S11_Magnitude (linear),S11_Phase,
500000000,-1.606530192,0.8311386727,154.4763947,
501833944,-0.7379472004,0.9185496584,121.1186444,
503667889,-0.6359060996,0.9294043376,109.5720456,
505501833,-0.6255543858,0.9305126481,101.576272,
507335778,-0.6863914293,0.9240179939,92.99244137,
509169723,-1.077638257,0.8833200476,76.49965026,
511003667,-10.76562991,0.2895466232,-136.0284103,
512837612,-0.9377598768,0.8976602746,116.5631968,
514671557,-0.6915571005,0.9234686254,100.3319073,
516505501,-2.647059101,0.7373047723,119.5056557,
518339446,-0.6938524624,0.9232246187,99.02463407,
520173391,-0.6268795325,0.930370697,93.24516817,
522007335,-0.6127544919,0.9318849017,88.76082479,
523841280,-0.6084133623,0.9323507658,84.80156368,
525675225,-0.6220225755,0.9308910852,80.32252639,
527509169,-0.6671002615,0.926072498,75.11280497,
529343114,-0.7986757499,0.9121498951,68.0384377,
531177059,-1.28142802,0.8628366798,55.7963316,
533011003,-5.895529833,0.5072516967,21.81141581,
534844948,-14.42801357,0.1899325161,162.4257177,
536678892,-2.492847828,0.7505119447,110.8205196,
538512837,-1.36864685,0.8542159129,95.37886176,
540346782,-1.047501642,0.886390143,87.3749515,
542180726,-0.9228123154,0.8992063895,81.93732561,
544014671,-0.8722766821,0.9044533379,77.48787001,
545848616,-0.9327128535,0.8981820206,72.85999142,
547682560,-0.8008723218,0.9119192509,78.82267011,
549516505,-0.6593027991,0.9269042213,70.16714447,
551350450,-0.6677891864,0.925999049,66.59439581,
553184394,-0.6697969951,0.9257850221,63.31382607,
555018339,-0.671190375,0.9256365207,59.49721859,
556852284,-0.9381931449,0.8976154987,49.33157498,
558686228,-0.786744243,0.9134037449,58.23793218,
560520173,-3.124209628,0.6978940868,57.81476062,
562354118,-3.790432636,0.6463657983,65.33049134,
564188062,-0.8229553975,0.9096037248,54.94056042,
566022007,-0.7518533554,0.9170802321,50.71644745,
567855951,-0.7318107424,0.91919883,47.3314098,
569689896,-0.726302611,0.9197819221,43.99845022,
571523841,-0.732411992,0.9191352039,40.208915,
573357785,-0.789656793,0.9130975139,34.61538174,
575191730,-2.340140972,0.7638233866,11.77299909,
577025675,-1.015255462,0.8896869634,46.46383072,
578859619,-0.8213405707,0.9097728484,34.79128312,
580693564,-1.312291686,0.8597761936,42.55002728,
582527509,-5.022205956,0.5609055048,27.7645683,
584361453,-0.8797562474,0.9036748332,33.16768009,
586195398,-0.7999635431,0.9120146673,28.80425399,
588029343,-0.7649839539,0.9156949146,25.15626154,
589863287,-0.7366488569,0.918686971,21.18478926,
591697232,-1.276155457,0.8633606033,11.21314311,
593531177,-1.141042734,0.8768955442,20.84120698,
595365121,-0.9418947724,0.8972330474,16.49628611,
597199066,-0.8983262633,0.9017448835,13.17468145,
599033011,-0.8540281276,0.9063555399,9.938062494,
600866955,-0.9127507915,0.9002486119,7.028354333,
602700900,-0.9183194564,0.8996716329,3.975213578,
604534844,-0.9574328575,0.8956294326,0.8607069597,
606368789,-0.8825196031,0.9033873811,-2.053597023,
608202734,-0.922206086,0.8992691516,-5.656711907,
610036678,-0.9473025934,0.8966746054,-9.243075123,
611870623,-0.9667222043,0.8946720908,-13.15014469,
613704568,-1.172767152,0.8736986052,-16.33927906,
615538512,-1.093344726,0.8817242061,-21.49884013,
617372457,-1.172507571,0.8737247164,-27.37394386,
619206402,-1.514201729,0.8400205557,-38.15815001,
621040346,-1.459233126,0.8453534778,-18.4394176,
622874291,-1.267290819,0.864242181,-36.25726729,
624708236,-1.441929573,0.8470392232,-46.85340237,
626542180,-1.758442367,0.8167288215,-60.22181951,
628376125,-2.454200469,0.7538587439,-82.94207604,
630210070,-4.312940103,0.6086294947,-140.6899955,
632044014,-2.645163308,0.737465715,72.19473483,
633877959,-2.87099491,0.7185388499,31.90984857,
635711903,-1.062827225,0.8848275548,-4.669381893,
637545848,-0.9700743876,0.8943268727,-23.87882896,
639379793,-1.553434922,0.836234833,-43.99255506,
641213737,-1.364690513,0.8546050884,-25.98788086,
643047682,-0.92401914,0.8990814618,-44.66614869,
644881627,-1.04062731,0.8870919424,-56.56074512,
646715571,-1.212947002,0.8696663173,-68.50325535,
648549516,-1.482036422,0.8431370596,-83.06241943,
650383461,-1.992538659,0.7950108706,-104.3944368,
652217405,-3.154317997,0.6954791267,-145.7238625,
654051350,-4.427988193,0.6006211074,101.1005382,
655885295,-6.647669718,0.4651751583,-43.67717596,
657719239,-4.869546021,0.5708509116,17.86007328,
659553184,-1.419551438,0.84922433,-35.39754937,
661387129,-1.619902657,0.8298600677,-75.73823115,
663221073,-6.289267336,0.4847710019,-157.6802033,
665055018,-4.205801727,0.6161832857,17.09490092,
666888962,-2.218667265,0.7745806379,-30.88725677,
668722907,-1.309584826,0.8600441749,-56.82964138,
670556852,-1.853867061,0.8078052046,-84.12842356,
672390796,-6.869003064,0.4534713426,-160.5340744,
674224741,-1.784588819,0.8142739835,-34.31661324,
676058686,-1.87562428,0.8057842716,-81.60363597,
677892630,-2.646627763,0.7373413875,-44.12785507,
679726575,-1.006116167,0.8906235849,-74.79474361,
681560520,-0.9507856206,0.8963151125,-90.57474719,
683394464,-1.287130664,0.8622703779,-105.14064,
685228409,-1.11361406,0.8796690193,-118.1121975,
687062354,-1.791263099,0.8136485317,-142.1777782,
688896298,-7.442758119,0.4244847516,150.0887067,
690730243,-2.923562726,0.7142033184,-86.28102456,
692564188,-2.228122449,0.7737379127,-143.6125093,
694398132,-11.66092167,0.261188419,-58.01039994,
696232077,-5.48700443,0.5316793323,-154.3278282,
698066022,-2.584179609,0.7426616866,175.3897979,
699899966,-3.547875336,0.6646702387,105.6061703,
701733911,-3.328640469,0.6816602611,10.08946691,
703567855,-2.04627043,0.7901080353,-61.17812877,
705401800,-2.168486695,0.7790685365,-121.9766327,
707235745,-3.751547031,0.6492659815,-72.330415,
709069689,-2.747284752,0.7288459794,-158.3452969,
710903634,-6.017321473,0.5001887578,73.96795516,
712737579,-7.281420225,0.4324431167,-80.88205049,
714571523,-2.375543387,0.7607164902,-83.72878439,
716405468,-1.447908635,0.8464563517,-120.7750667,
718239413,-1.582485875,0.8334426218,-156.6344266,
720073357,-14.33047698,0.1920773482,134.4172074,
721907302,-7.26455655,0.4332835216,67.77652561,
723741247,-3.859545305,0.641243144,-59.3966446,
725575191,-2.203397523,0.7759435436,-111.7490169,
727409136,-1.662537847,0.8257966327,-129.8760606,
729243081,-5.816707972,0.5118758042,-107.0979767,
731077025,-2.495020016,0.7503242784,-147.1349032,
732910970,-1.392557075,0.8518676896,-174.9337487,
734744914,-1.532351324,0.8382671239,156.4175549,
736578859,-2.353546506,0.7626454344,104.0534975,
738412804,-3.737073937,0.65034874,-43.1991014,
740246748,-2.027143602,0.7918498156,-166.048411,
742080693,-3.374474825,0.6780726988,83.27537772,
743914638,-2.338256908,0.7639890862,-92.53822976,
745748582,-1.473693556,0.8439472885,-157.9526151,
747582527,-1.592280484,0.8325033232,160.7533329,
749416472,-2.770058224,0.7269375264,101.3829284,
751250416,-3.939923081,0.6353365581,-65.23918921,
753084361,-1.46690472,0.8446071702,-172.1196265,
754918306,-1.572899521,0.834362975,126.0060405,
756752250,-3.539576819,0.6653055694,-8.805647816,
758586195,-6.099151329,0.495498602,109.8964638,
760420140,-2.238358226,0.772826648,173.987069,
762254084,-4.864013384,0.5712146415,49.36480643,
764088029,-2.292799374,0.7679978978,-129.3574805,
765921973,-1.219751883,0.868985252,179.6284279,
767755918,-1.048788246,0.8862588556,151.2100598,
769589863,-1.261578993,0.864810692,122.8100778,
771423807,-13.05498259,0.2224594558,-49.80771461,
773257752,-1.055498139,0.8855744805,132.7402546,
775091697,-0.8777425139,0.9038843652,105.8486846,
776925641,-7.419246356,0.4256353424,99.74584396,
778759586,-1.200535006,0.8709099447,68.26880944,
780593531,-1.900335014,0.8034951308,79.33113338,
782427475,-1.198942684,0.8710696171,33.51105477,
784261420,-2.394766437,0.7590347832,34.65263271,
786095365,-2.063355577,0.78855542,-29.47898987,
787929309,-3.050979412,0.7038028634,-167.5809875,
789763254,-1.668956718,0.8251865945,57.5216184,
791597199,-1.598276926,0.8319287896,2.340177149,
793431143,-2.545154715,0.7460059035,-42.4168127,
795265088,-2.277513042,0.7693506905,-62.60092267,
797099033,-4.603097423,0.5886337088,-120.642171,
798932977,-3.202230719,0.691653317,-147.591356,
800766922,-5.01883016,0.5611235447,102.7659427,
802600866,-3.740010954,0.6501288705,-99.59564758,
804434811,-5.986794043,0.5019498142,47.91205085,
806268756,-3.367225196,0.6786388846,-78.30139929,
808102700,-2.861686092,0.7193093332,-131.0209323,
809936645,-2.598655079,0.7414250344,-174.4744019,
811770590,-7.263262599,0.4333480733,71.21576414,
813604534,-3.302711593,0.6836981745,-134.6535808,
815438479,-2.677232541,0.7347479329,179.5345847,
817272424,-2.554846066,0.7451740056,158.8305035,
819106368,-3.629491758,0.6584539573,132.9552572,
820940313,-32.16486446,0.02464658639,43.16582344,
822774258,-3.057837987,0.7032473441,134.3909042,
824608202,-6.194478963,0.4900902378,62.47968032,
826442147,-3.341433245,0.6806570353,-172.8014987,
828276092,-1.760646051,0.8165216367,139.2491179,
830110036,-1.542092711,0.8373275186,113.0819395,
831943981,-2.600838891,0.7412386484,84.95839902,
833777925,-1.942520144,0.7996022229,98.39290079,
835611870,-1.685445585,0.8236215868,74.83414958,
837445815,-2.012750087,0.7931630893,50.06810274,
839279759,-3.651441258,0.6567921253,13.57796565,
841113704,-7.38365095,0.4273832059,156.7530755,
842947649,-1.273864902,0.8635883101,43.11524264,
844781593,-2.153283005,0.7804334041,-22.42764631,
846615538,-4.438385061,0.5999026038,-143.5721959,
848449483,-2.880488049,0.7177539605,109.2529004,
850283427,-2.443633779,0.7547763977,55.44692828,
852117372,-7.70306167,0.4119522854,-44.25013412,
853951317,-1.508487631,0.8405733532,51.29102805,
855785261,-2.356099263,0.7624213282,26.38957594,
857619206,-1.162938332,0.8746878288,-2.797614844,
859453151,-1.766781831,0.8159450432,-30.45046478,
861287095,-1.678457741,0.8242844612,-73.48401836,
863121040,-7.013374588,0.4459963152,149.130771,
864954984,-3.458953694,0.6715097384,-23.99409456,
866788929,-2.917503214,0.7147017398,-77.37565421,
868622874,-4.099763719,0.6237518031,-96.7630765,
870456818,-4.789982348,0.5761039894,-168.6920125,
872290763,-4.736539543,0.5796595867,-120.555315,
874124708,-4.912938684,0.5680061863,154.9315168,
875958652,-7.565973838,0.4185056332,91.85042558,
877792597,-10.67588473,0.2925538135,103.7927191,
879626542,-9.217041016,0.3460572476,-3.872750464,
881460486,-8.665135894,0.3687594897,-46.47938883,
883294431,-9.116831276,0.3500728548,-156.7122431,
885128376,-7.26382597,0.4333199671,-59.26724443,
886962320,-4.708027993,0.5815654535,-122.9798573,
888796265,-4.410342406,0.6018425372,173.3801729,
890630210,-7.219278886,0.435548032,-174.4797691,
892464154,-4.16753193,0.6189041624,-159.4729772,
894298099,-1.847731692,0.8083760078,160.1774639,
896132044,-4.076268974,0.6254412935,124.2188143,
897965988,-2.203734905,0.7759134046,107.4513189,
899799933,-17.39321587,0.1350016905,-31.5420431,
901633877,-4.55209783,0.5921000646,79.01415725,
903467822,-9.207915141,0.3464210255,159.7637858,
905301767,-4.196852642,0.6168184674,-177.6514744,
907135711,-2.190799478,0.7770697914,136.1790295,
908969656,-1.32093832,0.858920729,107.9436168,
910803601,-1.153080795,0.8756810676,87.19700758,
912637545,-1.162447636,0.8747372444,65.71207314,
914471490,-2.361185668,0.7619749895,30.57101622,
916305435,-2.214517306,0.7749508067,-3.271681261,
918139379,-9.212018327,0.3462574159,156.8508564,
919973324,-4.113414426,0.6227722873,113.7375772,
921807269,-2.096379185,0.7855630376,140.3182148,
923641213,-1.267176013,0.8642536042,86.84897918,
925475158,-2.246337912,0.7721169819,45.30747427,
927309103,-2.165048871,0.7793769482,71.62775451,
929143047,-1.951418189,0.7987835096,61.9519099,
930976992,-2.156327531,0.7801598991,46.8770708,
932810936,-5.057184395,0.558651257,-24.42154135,
934644881,-2.372613231,0.7609731587,76.85571778,
936478826,-4.876248102,0.5704106098,12.38624652,
938312770,-1.54292659,0.8372471358,60.02639073,
940146715,-1.560569524,0.8355482305,39.07150255,
941980660,-1.10293465,0.8807512486,29.00087915,
943814604,-5.460413414,0.5333095115,56.97991529,
945648549,-1.605267768,0.8312594808,35.52974164,
947482494,-3.616989553,0.6594023982,30.48065286,
949316438,-1.084825278,0.8825894587,23.78466546,
951150383,-0.9459854149,0.8968105926,12.17632142,
952984328,-0.8849191615,0.9031378463,3.022581157,
954818272,-0.9312373308,0.898334613,-7.98864148,
956652217,-2.798396935,0.7245696741,-40.04601243,
958486162,-1.242865841,0.8666758757,-11.48069119,
960320106,-5.45603425,0.5335784578,19.64261393,
962154051,-1.411778751,0.8499846101,-7.432859217,
963987995,-1.011283444,0.8900939063,-27.60354267,
965821940,-1.229424966,0.868018041,-45.25853757,
967655885,-1.980618098,0.7961026968,-78.75535003,
969489829,-6.886810811,0.4525425914,136.6498411,
971323774,-2.048922804,0.7898668,11.42560598,
973157719,-1.297700125,0.8612217588,-21.32503484,
974991663,-3.530189944,0.6660249564,-52.17573424,
976825608,-1.308981305,0.8601039353,-49.99955908,
978659553,-3.028169956,0.7056535036,-90.52206624,
980493497,-1.988092131,0.7954179611,-82.05819606,
982327442,-3.150599346,0.6957769429,-113.2202712,
984161387,-6.283487436,0.4850936931,79.60822003,
985995331,-1.888146314,0.8046234477,-60.14770494,
987829276,-2.009541461,0.7934561432,-135.7511379,
989663221,-2.702303991,0.7326301722,124.3228658,
991497165,-7.12098368,0.4405049733,167.4315714,
993331110,-1.710636173,0.8212364015,57.02145528,
995165055,-1.22046637,0.8689137736,20.82284369,
996998999,-2.226778804,0.7738576136,-12.58907808,
998832944,-1.103723124,0.8806713007,-5.029025958,
1000666888,-0.8970004657,0.9018825347,-21.81743381,
1002500833,-1.104457426,0.8805968522,-38.79528245,
1004334778,-0.9334204295,0.8981088553,-50.25085168,
1006168722,-5.248023311,0.5465109078,-128.678115,
1008002667,-1.438915536,0.8473332001,-30.31997024,
1009836612,-1.089578493,0.8821066078,-50.66646881,
1011670556,-1.160930219,0.8748900735,-68.96717574,
1013504501,-3.274821324,0.6858970482,-83.65698941,
1015338446,-7.382459326,0.427441843,35.6635406,
1017172390,-1.659108883,0.8261227002,-69.86540662,
1019006335,-5.848899067,0.5099822335,-112.9378443,
1020840280,-2.393288959,0.7591639067,-41.97703236,
1022674224,-2.675309241,0.7349106448,-66.7074226,
1024508169,-1.349700901,0.8560811904,-65.34621477,
1026342114,-2.430019101,0.7559603979,-128.0627928,
1028176058,-13.66423077,0.2073903104,155.392103,
1030010003,-2.157863745,0.7800219298,-31.44192365,
1031843947,-3.434250667,0.6734222581,-72.86810848,
1033677892,-1.400936901,0.8510462354,-92.48167634,
1035511837,-1.977693368,0.7963708072,-91.35148513,
1037345781,-6.034316807,0.4992110153,166.3690547,
1039179726,-5.435269716,0.5348555593,-120.3249214,
1041013671,-12.86245977,0.2274453234,-37.98883357,
1042847615,-7.030625396,0.4451114131,41.92554908,
1044681560,-8.402838735,0.3800651626,-45.44338751,
1046515505,-1.839679699,0.8091257359,-47.10046448,
1048349449,-2.057246174,0.7891102622,-26.46509589,
1050183394,-1.19698232,0.8712662355,-54.48759842,
1052017339,-1.592677618,0.8324652605,-49.93368744,
1053851283,-0.94220208,0.8972013038,-65.8633216,
1055685228,-1.003451627,0.8908968403,-74.8038986,
1057519173,-1.157702526,0.8752152447,-83.29065139,
1059353117,-1.998298746,0.7944838303,-89.43079405,
1061187062,-1.651043879,0.8268901261,-95.1753964,
1063021007,-2.206733084,0.7756456224,-99.15723526,
1064854951,-11.41720181,0.2686209679,12.6136996,
1066688896,-1.557693049,0.8358249819,-94.41967936,
1068522840,-7.251952901,0.4339126935,-95.64764983,
1070356785,-2.009269379,0.7934809983,-115.4811839,
1072190730,-4.646440252,0.5857037268,-59.3500474,
1074024674,-1.105761063,0.8804646962,-94.84933035,
1075858619,-2.339126795,0.7639125769,-120.6554751,
1077692564,-8.628994086,0.3702970871,-148.4976808,
1079526508,-2.39558938,0.758962872,-87.94251326,
1081360453,-4.24461053,0.6134363025,-113.305775,
1083194398,-2.09561936,0.7856317601,-91.13313766,
1085028342,-5.271156574,0.5450573134,-76.8122603,
1086862287,-8.927297977,0.357795687,-145.8627962,
1088696232,-1.137393522,0.8772640327,-99.80329113,
1090530176,-1.048772937,0.8862604176,-113.1245096,
1092364121,-1.693500054,0.8228581923,-126.4439042,
1094198066,-1.631033604,0.8287972851,-120.1620407,
1096032010,-3.917352617,0.6369896402,-97.53270561,
1097865955,-3.003434116,0.7076659411,-91.1733288,
1099699899,-1.155885919,0.8753983104,-113.6622436,
1101533844,-1.810294692,0.8118677037,-135.8132049,
1103367789,-1.604077334,0.8313734158,-127.9979133,
1105201733,-1.192650507,0.8717008604,-121.2512849,
1107035678,-1.565404692,0.8350832358,-136.6881925,
1108869623,-4.201662065,0.6164770263,-82.5061619,
1110703567,-1.772514016,0.8154067443,-127.0613315,
1112537512,-2.123201088,0.7831409717,-126.2393458,
1114371457,-6.170817775,0.4914271103,-138.5585547,
1116205401,-0.8643321029,0.9052809778,-133.494724,
1118039346,-0.9259891097,0.8988775722,-133.4372004,
1119873291,-0.77285364,0.9148656423,-139.9669717,
1121707235,-0.8449503534,0.907303283,-148.1923373,
1123541180,-2.044201858,0.7902962244,-151.7676727,
1125375125,-0.9424382617,0.8971769079,-155.557652,
1127209069,-2.325073857,0.7651495148,-136.4600505,
1129043014,-2.610702744,0.7403973622,-139.3228839,
1130876958,-0.867329668,0.9049686125,-154.9682814,
1132710903,-0.9623029054,0.8951274074,-151.7678762,
1134544848,-0.781204629,0.9139864737,-161.4323062,
1136378792,-0.7857886327,0.9135042419,-164.9078579,
1138212737,-0.823071699,0.9095915456,-173.4279624,
1140046682,-1.578035864,0.8338697258,-172.2320549,
1141880626,-1.57166858,0.834481227,167.8631882,
1143714571,-3.796553682,0.6459104574,-161.8538175,
1145548516,-1.530761771,0.8384205442,156.7071522,
1147382460,-13.57311069,0.2095774084,168.7388388,
1149216405,-7.189048918,0.4370665341,129.146316,
1151050350,-2.281130053,0.7690303813,-145.4272344,
1152884294,-1.808336976,0.8120507115,-127.4455842,
1154718239,-1.207868244,0.8701749717,-158.3363941,
1156552184,-2.101353621,0.7851132719,179.8793257,
1158386128,-2.154051801,0.7803643303,-177.3927636,
1160220073,-1.573413779,0.834313577,-159.8242197,
1162054018,-1.778619343,0.8148337948,178.1217805,
1163887962,-1.013710233,0.8898452537,168.3690938,
1165721907,-1.960368366,0.7979608453,135.4525144,
1167555851,-4.238149921,0.6138927493,160.5669478,
1169389796,-6.755634095,0.4594288837,-121.6284988,
1171223741,-2.427409056,0.7561875925,-108.8573296,
1173057685,-1.320049027,0.8590086729,-143.0110207,
1174891630,-0.9602603957,0.8953379237,-158.8085087,
1176725575,-0.8950427392,0.9020858343,-170.7044567,
1178559519,-1.244869283,0.8664759958,-175.5991623,
1180393464,-6.154556444,0.4923479997,-144.3426543,
1182227409,-0.8153154978,0.9104041424,-173.4016169,
1184061353,-0.7927329166,0.9127741961,176.9372278,
1185895298,-0.9244431517,0.8990375731,168.2823746,
1187729243,-1.648127861,0.8271677754,159.2707959,
1189563187,-1.840059153,0.809090389,151.3145638,
1191397132,-1.405121333,0.8506363422,178.4184792,
1193231077,-1.788741971,0.813884732,147.6888013,
1195065021,-3.730297457,0.6508563212,-160.7306456,
1196898966,-1.782046454,0.8145123568,171.7618455,
1198732910,-0.9177285342,0.8997328419,163.5989918,
1200566855,-0.8665202099,0.9050529525,154.2996531,
1202400800,-1.199979345,0.8709656611,137.1423124,
1204234744,-13.02199327,0.2233059713,-44.98055382,
1206068689,-1.887757175,0.8046594967,177.8490481,
1207902634,-1.81135494,0.8117686086,140.1905407,
1209736578,-4.19497595,0.6169517529,139.6434092,
1211570523,-2.307540508,0.7666956065,149.6214573,
1213404468,-4.737979493,0.5795634985,136.5827415,
1215238412,-4.115919625,0.6225926922,157.9121618,
1217072357,-1.884750804,0.8049380547,-169.8075124,
1218906302,-0.9690346683,0.8944339319,160.7832274,
