Frequency,S11_Magnitude,S11_Magnitude (linear),S11_Phase,
500000000,-0.5821281193,0.9351765196,109.9107217,
501833944,-0.6366204017,0.9293279092,107.0569725,
503667889,-0.6829068569,0.9243887623,103.1346723,
505501833,-2.408990632,0.7577927892,94.30295086,
507335778,-0.8025753988,0.9117404648,106.5517929,
509169723,-0.6542443537,0.9274441845,101.48744,
511003667,-0.6516548065,0.9277207271,97.84481681,
512837612,-0.6969170397,0.9228989418,94.03890793,
514671557,-0.9910291091,0.8921719083,88.31344549,
516505501,-0.7119611813,0.9213018451,92.37951556,
518339446,-0.9681257433,0.8945275339,81.91883929,
520173391,-3.298191039,0.6840540965,68.00099547,
522007335,-3.473286636,0.6704025665,105.3818014,
523841280,-3.62876437,0.6585091009,110.627079,
525675225,-1.270929962,0.8638801637,99.51232223,
527509169,-0.9508218543,0.8963113734,93.86160408,
529343114,-0.8364366371,0.9081930375,90.00988361,
531177059,-0.7824519708,0.9138552296,86.90741479,
533011003,-0.749280692,0.9173519013,84.13675513,
534844948,-0.734851344,0.9188771095,81.41824948,
536678892,-0.7656494337,0.9156247602,78.05745246,
538512837,-0.8627272752,0.9054482553,81.12069309,
540346782,-0.7058485192,0.921950436,76.43762512,
542180726,-0.6991300537,0.9226638331,73.93043543,
544014671,-0.699886283,0.9225835057,71.65804293,
545848616,-0.706969567,0.9218314518,69.44001528,
547682560,-0.7130868987,0.9211824494,67.2232021,
549516505,-0.739545202,0.9183806821,64.93359786,
551350450,-0.8420110078,0.9076103706,62.39572337,
553184394,-0.9923437159,0.8920368886,62.76925611,
555018339,-0.7431868872,0.9179957184,59.93840751,
556852284,-0.750591273,0.917213496,57.13342027,
558686228,-0.823432038,0.9095538115,54.12887331,
560520173,-1.27530164,0.8634454752,49.67223516,
562354118,-0.9913297436,0.8921410291,57.96637909,
564188062,-0.6871330139,0.9239391063,51.86791076,
566022007,-0.6941069538,0.9231975692,48.45701812,
567855951,-0.7515191184,0.9171155225,44.81255425,
569689896,-3.175616621,0.6937758352,47.30682503,
571523841,-0.707638675,0.9217604422,44.64131218,
573357785,-0.6894898927,0.9236884335,41.24419473,
575191730,-0.7198319458,0.9204673807,38.30207621,
577025675,-0.7463673947,0.917659638,35.62856469,
578859619,-0.8699908948,0.9046913861,32.07188623,
580693564,-0.7154735968,0.9209293627,33.63483375,
582527509,-0.7009370474,0.9224719041,29.59313903,
584361453,-0.7170304334,0.9207643125,26.5653692,
586195398,-0.7502724662,0.917247162,23.28627815,
588029343,-1.053491182,0.8857791245,18.66421986,
589863287,-1.561970095,0.835413512,22.88300163,
591697232,-1.193664808,0.8715990728,17.84594972,
593531177,-1.193422882,0.8716233496,19.0680275,
595365121,-0.9088323465,0.9006548306,15.47859726,
597199066,-0.8699352201,0.904697185,12.24990597,
599033011,-0.8695296623,0.9047394277,9.229740932,
600866955,-0.894262859,0.9021668336,6.167114171,
602700900,-0.9883309442,0.8924490936,2.659349262,
604534844,-1.809281335,0.8119624274,4.136074639,
606368789,-0.8610137213,0.9056268999,0.2091905156,
608202734,-0.8604803475,0.9056825134,-3.59522448,
610036678,-0.8810711169,0.9035380453,-6.994171084,
611870623,-0.908114581,0.90072926,-10.30104907,
613704568,-0.9335296471,0.8980975624,-13.74826729,
615538512,-0.9664909429,0.8946959117,-17.39778098,
617372457,-1.012256547,0.8899941924,-21.47852224,
619206402,-1.317403338,0.8592703635,-28.53191049,
621040346,-1.110563762,0.8799779944,-28.20152845,
622874291,-1.190518249,0.8719148764,-33.91855076,
624708236,-1.3410537,0.8569338828,-40.30084145,
626542180,-1.667274043,0.8253464695,-48.69045407,
628376125,-3.001475629,0.707825523,-60.63060121,
630210070,-2.999092575,0.7080197481,-59.77418274,
632044014,-9.162622632,0.3482321534,-145.6178141,
633877959,-2.589436481,0.742212349,-9.73472203,
635711903,-2.510954438,0.7489490567,-50.98535655,
637545848,-19.34836825,0.1077907732,177.6623224,
639379793,-1.754839196,0.8170676957,-10.01146741,
641213737,-1.459774896,0.8453007517,-37.43056813,
643047682,-1.433293144,0.847881858,-44.57902704,
644881627,-1.535706733,0.837943359,-55.72012819,
646715571,-1.82783749,0.810229638,-66.7894925,
648549516,-2.426508721,0.7562659791,-80.30223382,
650383461,-4.242875688,0.613558837,-101.3569702,
652217405,-15.73766742,0.1633490559,-106.327915,
654051350,-9.082372907,0.3514644105,-53.98565094,
655885295,-10.20564086,0.3088289161,-58.02199438,
657719239,-9.058093833,0.3524482093,-31.26929222,
659553184,-4.768521889,0.5775291447,-32.79404693,
661387129,-2.616980981,0.7398623898,-48.2404619,
663221073,-1.931002891,0.8006631769,-65.90833307,
665055018,-3.142530147,0.6964236206,-79.55448627,
666888962,-2.856058675,0.7197755105,-85.83895006,
668722907,-3.299168697,0.6839771057,-103.5718238,
670556852,-7.124907079,0.4403060431,-134.2557667,
672390796,-14.07417554,0.1978295773,-68.50418035,
674224741,-10.09385626,0.3128291301,-65.01762488,
676058686,-2.851118367,0.7201850165,-67.7028082,
677892630,-12.18898652,0.2457823396,-135.1776208,
679726575,-2.666421101,0.7356630527,-87.94534152,
681560520,-5.879477656,0.5081900027,-67.01351605,
683394464,-1.927869697,0.8009520461,-97.80982338,
685228409,-2.237149987,0.7729341585,-118.8990956,
687062354,-3.423228967,0.6742773194,-128.8880848,
688896298,-2.547344238,0.7458178754,-157.6711447,
690730243,-5.449950885,0.5339522928,122.5931435,
692564188,-10.03927936,0.3148009483,29.24292996,
694398132,-2.70621551,0.732300321,-59.82895186,
696232077,-1.668247717,0.8252539547,-98.34670354,
698066022,-2.530541044,0.7472620858,-131.8173733,
699899966,-2.207864943,0.7755445546,-120.6956094,
701733911,-1.582801543,0.8334123328,-144.9684058,
703567855,-1.754075675,0.8171395221,-167.1283727,
705401800,-5.573740237,0.5263964941,168.7059423,
707235745,-2.021708914,0.7923454244,146.3296766,
709069689,-3.097554173,0.7000390896,94.63793582,
710903634,-6.400140931,0.4786223265,5.302085046,
712737579,-6.078071198,0.4967026077,-2.566047957,
714571523,-2.90324313,0.7158760671,-73.79235687,
716405468,-2.672668921,0.7351340755,-117.006726,
718239413,-2.05508083,0.7893070075,-153.3510588,
720073357,-2.140282192,0.781602411,165.3472171,
721907302,-3.399265248,0.6761401686,102.4055471,
723741247,-3.962033911,0.6337213,22.85730139,
725575191,-8.813667925,0.3625071724,-119.5260677,
727409136,-8.231413637,0.3876406545,-44.05521238,
729243081,-3.993464609,0.6314322647,-93.22126287,
731077025,-2.809346311,0.7236568617,-126.7157769,
732910970,-2.379725134,0.7603503379,-152.7804708,
734744914,-2.220290897,0.774435861,-176.5675797,
736578859,-2.194160176,0.7767691899,159.0043287,
738412804,-2.235771179,0.7730568647,130.8666393,
740246748,-7.610013519,0.4163890729,94.50212164,
742080693,-2.949796222,0.7120495051,69.87383203,
743914638,-2.770977554,0.72686059,25.43333169,
745748582,-2.447908457,0.754405033,-19.8740757,
747582527,-2.212203373,0.7751572821,-62.04531062,
749416472,-2.675224844,0.7349177857,-94.01294074,
751250416,-2.104822879,0.78479975,-118.4337238,
753084361,-1.773639184,0.8153011235,-143.6139414,
754918306,-1.951206305,0.7988029954,-168.4767523,
756752250,-2.192616534,0.7769072483,176.8430619,
758586195,-2.135980418,0.7819896034,155.2942524,
760420140,-2.217964019,0.7746433537,132.9260503,
762254084,-2.307226072,0.766723362,105.5295482,
764088029,-2.785606119,0.7256374593,61.36433134,
765921973,-14.71071402,0.1838502815,153.4884984,
767755918,-7.329616989,0.4300501966,22.56318106,
769589863,-14.80001904,0.1819696869,-174.9819343,
771423807,-7.783354574,0.4081617199,69.20234003,
773257752,-7.080249833,0.4425756424,29.74317948,
775091697,-3.569512887,0.6630165292,-18.43080517,
776925641,-2.921666945,0.7143592173,-59.94586383,
778759586,-2.472155436,0.7523020205,-97.7738017,
780593531,-2.757704843,0.7279721383,-145.9331464,
782427475,-10.5119747,0.2981269693,15.93438038,
784261420,-2.489744342,0.7507801521,-109.8554695,
786095365,-1.579878684,0.8336928288,-150.5336296,
787929309,-2.778230607,0.7262538867,161.4290103,
789763254,-4.354322467,0.6057366853,-133.8686869,
791597199,-2.291713641,0.7680939033,174.9109111,
793431143,-11.34897769,0.270739184,164.1920941,
795265088,-2.327236601,0.76495902,172.1354054,
797099033,-1.603071304,0.831469714,146.6449877,
798932977,-1.649535108,0.8270337724,127.3866368,
800766922,-2.006294025,0.793752852,107.3906709,
802600866,-2.103113114,0.7849542484,79.13268861,
804434811,-4.983974652,0.563379795,42.0796917,
806268756,-13.10595621,0.2211577637,38.54257569,
808102700,-16.69153049,0.1463603622,77.21548265,
809936645,-8.297926704,0.3846835939,61.98345842,
811770590,-6.733296779,0.4606119076,17.86832384,
813604534,-7.47019055,0.4231462267,-46.2176981,
815438479,-7.718067517,0.4112412061,-52.37831534,
817272424,-6.242448105,0.4873911003,-105.9966945,
819106368,-7.812185874,0.4068091441,-154.1982718,
820940313,-14.42713506,0.1899517273,149.7456996,
822774258,-7.236314466,0.4346946315,-101.9691164,
824608202,-4.147731464,0.6203166336,-150.2826574,
826442147,-3.904849965,0.6379071967,-173.700838,
828276092,-2.912808455,0.7150881434,166.0215618,
830110036,-4.474923575,0.5973843229,149.531246,
831943981,-2.046988831,0.7900426889,150.4071874,
833777925,-1.253786799,0.86558687,125.201173,
835611870,-1.28686712,0.862296541,105.0090826,
837445815,-1.622170857,0.8296433896,81.94501696,
839279759,-3.114552878,0.6986704191,56.47211849,
841113704,-3.754746829,0.6490268422,-4.84053712,
842947649,-8.603747885,0.3713749495,165.0602481,
844781593,-10.9544089,0.2833215149,87.7840643,
846615538,-5.119408937,0.5546634558,87.96733518,
848449483,-4.859029253,0.5715425095,40.15137182,
850283427,-6.852074418,0.4543560121,-52.77787331,
852117372,-5.669088143,0.5206496645,91.6861476,
853951317,-8.143319609,0.3915921882,11.84393227,
855785261,-11.68287711,0.2605290431,-55.33529713,
857619206,-12.68216981,0.232215663,-135.2369093,
859453151,-13.27247375,0.2169583217,-44.2180333,
861287095,-6.326170583,0.4827157519,-143.588568,
863121040,-4.163367092,0.6192009948,166.6341606,
864954984,-5.321591762,0.5419015733,134.2850844,
866788929,-7.313176742,0.4308649464,123.0058582,
868622874,-7.52107821,0.4206744053,118.928051,
870456818,-7.281352883,0.4324464695,139.110795,
872290763,-3.199059265,0.6919059045,103.482191,
874124708,-5.513496024,0.5300602033,71.52458872,
875958652,-18.89705565,0.1135395628,56.35771447,
877792597,-5.915174019,0.5061057821,142.0842703,
879626542,-3.219296757,0.6902956906,108.8783336,
881460486,-3.26503684,0.686670133,90.36760035,
883294431,-3.552814455,0.66429239,77.98529656,
885128376,-5.296676617,0.5434582289,84.7371483,
886962320,-3.371134195,0.6783335386,72.6760875,
888796265,-5.244312917,0.5467444134,71.58327432,
890630210,-3.425910353,0.6740691982,47.02087376,
892464154,-2.552658913,0.745361668,48.16176852,
894298099,-2.760076858,0.7277733647,21.6732097,
896132044,-13.28422364,0.2166650283,-34.84758746,
897965988,-6.127155724,0.4939036251,95.5453788,
899799933,-3.21769259,0.6904231907,50.79767163,
901633877,-4.808904899,0.5748502903,36.94452732,
903467822,-3.218662336,0.6903461119,35.43751069,
905301767,-1.78911944,0.8138493632,8.333708044,
907135711,-3.225515059,0.6898016789,-38.5004732,
908969656,-12.06658692,0.2492703675,-163.8294679,
910803601,-5.938948255,0.504722409,62.94622736,
912637545,-6.182078471,0.4907904195,6.420940933,
914471490,-17.037578,0.1406439645,28.8673313,
916305435,-14.14607824,0.1961986832,13.1857235,
918139379,-9.522913258,0.3340829694,61.06427068,
919973324,-8.440872948,0.3784045525,29.72412807,
921807269,-5.969567082,0.5029463329,4.348634119,
923641213,-19.04814404,0.1115816548,12.72314536,
925475158,-11.45856595,0.2673447762,111.5035904,
927309103,-5.387960033,0.5377767205,84.14626358,
929143047,-3.315688002,0.6826775165,63.23561564,
930976992,-2.774067027,0.7266020999,46.51297142,
932810936,-2.670759034,0.7352957374,39.8716612,
934644881,-2.105205835,0.7847651494,29.51993511,
936478826,-1.794938685,0.8133042949,20.4737512,
938312770,-2.594413764,0.7417871603,23.07366656,
940146715,-1.690226264,0.8231683934,11.75227782,
941980660,-1.844606348,0.8086669288,-2.11134109,
943814604,-1.936632858,0.8001443761,-14.150377,
945648549,-1.620638134,0.8297898023,-18.80084385,
947482494,-2.957106959,0.7114504396,-38.55981334,
949316438,-13.54490657,0.2102590373,-10.59498847,
951150383,-3.621952082,0.659025768,-0.2457196029,
952984328,-2.016724542,0.7928002399,-21.00992361,
954818272,-2.934143577,0.7133338302,-41.3030935,
956652217,-5.055342892,0.5587697097,-45.59730053,
958486162,-8.454980553,0.3777904474,-48.64548095,
960320106,-8.758985883,0.3647965361,-58.90582936,
962154051,-8.009133912,0.3976887489,46.07158415,
963987995,-2.514353412,0.7486560343,-7.49899264,
965821940,-1.496932703,0.8416923207,-28.59337209,
967655885,-1.328875233,0.8581362307,-50.42098716,
969489829,-2.345272782,0.7633722367,-65.1577193,
971323774,-1.98099404,0.7960682407,-88.3571758,
973157719,-2.97244547,0.7101951898,-138.2517865,
974991663,-5.487145553,0.5316706939,132.5739978,
976825608,-4.064911098,0.6262596704,47.48817817,
978659553,-3.841847099,0.642551061,3.041647894,
980493497,-3.373736057,0.6781303739,-10.68628017,
982327442,-4.54355617,0.5926826193,-20.16149847,
984161387,-2.123441488,0.7831192969,-33.03194727,
985995331,-2.459865351,0.7533672424,-45.08895834,
987829276,-1.037356792,0.8874260241,-61.12795121,
989663221,-1.239399504,0.8670218149,-83.54360657,
991497165,-2.681450333,0.7343912323,-110.0705336,
993331110,-6.273837936,0.4856329024,-148.5583145,
995165055,-16.64477665,0.1471503052,120.2393429,
996998999,-11.39738405,0.2692345543,-17.60755807,
998832944,-11.28215908,0.2728299516,-64.92943297,
1000666888,-32.00294234,0.02511035675,28.51584909,
1002500833,-5.317590753,0.5421512486,1.115839926,
1004334778,-6.768630325,0.458741979,-66.27507786,
1006168722,-6.602921961,0.4675778202,92.60311695,
1008002667,-1.851865504,0.8079913749,-18.72249877,
1009836612,-1.671507052,0.8249443404,-49.83575128,
1011670556,-1.927016703,0.8010307071,-76.05745513,
1013504501,-14.40823281,0.1903655506,-109.2798221,
1015338446,-4.67142667,0.5840212729,-84.99783422,
1017172390,-5.796027776,0.513095979,-102.5023288,
1019006335,-24.31733033,0.06083219445,-79.62223042,
1020840280,-6.10201871,0.4953350553,-108.6739899,
1022674224,-5.967726518,0.5030529198,147.4923944,
1024508169,-4.156598655,0.6196836922,39.39900074,
1026342114,-4.716618412,0.5809905646,-3.328789083,
1028176058,-4.028657284,0.6288790624,-21.86774293,
1030010003,-7.319594386,0.4305467157,-21.25197093,
1031843947,-3.212289455,0.6908528082,-30.23639876,
1033677892,-3.86467671,0.6408644255,-53.9355204,
1035511837,-4.337476957,0.6069125975,-53.79503898,
1037345781,-4.144366535,0.6205569919,-52.30244027,
1039179726,-3.752607188,0.6491867401,-65.45792924,
1041013671,-5.369646788,0.5389117598,-51.36305818,
1042847615,-4.401021555,0.6024887227,-73.96414874,
1044681560,-5.21281062,0.548730966,-53.11655299,
1046515505,-5.023248873,0.5608381607,-50.82586905,
1048349449,-1.528482648,0.8386405693,-53.94805847,
1050183394,-1.109090066,0.880127309,-67.74551971,
1052017339,-1.042081695,0.8869434181,-76.16539761,
1053851283,-1.123742684,0.8786438343,-82.83701449,
1055685228,-0.9278802763,0.8986818821,-91.34360574,
1057519173,-1.641338751,0.8278145633,-109.6929096,
1059353117,-2.994785003,0.7083709618,-70.69214934,
1061187062,-2.038496034,0.7908155462,-101.9474518,
1063021007,-3.058094863,0.7032265465,-78.28039271,
1064854951,-1.434410236,0.8477728189,-92.85693555,
1066688896,-1.391883834,0.8519337202,-102.8626071,
1068522840,-1.551765075,0.8363956131,-109.872115,
1070356785,-2.938557746,0.7129714061,-123.7022111,
1072190730,-4.0513273,0.6272398395,-109.636243,
1074024674,-6.49421179,0.4734666684,-102.3031847,
1075858619,-2.208572816,0.7754813527,-92.46608314,
1077692564,-1.266696648,0.8643013028,-105.6023077,
1079526508,-1.364293928,0.8546441094,-113.7883379,
1081360453,-2.13576424,0.7820090661,-120.4175079,
1083194398,-1.90696077,0.8028824437,-116.2947209,
1085028342,-1.278694953,0.8631082192,-123.776289,
1086862287,-1.299734696,0.861020051,-130.5491847,
1088696232,-1.646420173,0.8273304166,-140.1372977,
1090530176,-3.350381986,0.6799561414,-148.2706483,
1092364121,-7.329246283,0.4300685512,-144.5180858,
1094198066,-4.41368602,0.6016109038,-117.3947531,
1096032010,-2.381549347,0.7601906657,-126.2425841,
1097865955,-1.869875606,0.8063177489,-136.7134334,
1099699899,-3.093912252,0.7003326717,-148.1141465,
1101533844,-3.317772842,0.6825136757,-152.7333735,
1103367789,-3.998195792,0.6310884187,-151.1966304,
1105201733,-2.463359227,0.7530642633,-145.840963,
1107035678,-5.037813607,0.5598985202,-135.6506365,
1108869623,-1.605268132,0.831259446,-142.048328,
1110703567,-1.256511055,0.8653154286,-162.1056969,
1112537512,-3.705746742,0.6526985725,-178.8400273,
1114371457,-7.392807268,0.426932913,175.7586595,
1116205401,-5.290769865,0.5438279279,-176.6869967,
1118039346,-14.58013959,0.1866349697,-145.9648408,
1119873291,-4.274304236,0.6113427809,175.7072349,
1121707235,-10.20987699,0.3086783362,3.865155202,
1123541180,-7.296009931,0.4317173509,-115.9327782,
1125375125,-3.157562596,0.6952193803,-139.3707183,
1127209069,-4.223220115,0.6149488508,175.2167417,
1129043014,-9.793380101,0.3238403759,42.43058859,
1130876958,-5.056671827,0.5586842248,-81.95330872,
1132710903,-2.632225176,0.738565031,-116.8466994,
1134544848,-2.255782617,0.7712778676,-131.3991743,
1136378792,-2.656693644,0.7364873942,-144.9762488,
1138212737,-2.946005937,0.7123602918,-158.1208215,
1140046682,-3.816136841,0.6444558317,173.7146502,
1141880626,-9.092099136,0.3510710702,-142.7825469,
1143714571,-11.17677611,0.2761602672,-130.260318,
1145548516,-3.608511207,0.6600463589,-130.4899402,
1147382460,-3.521862163,0.6666638282,-148.5856932,
1149216405,-8.58140279,0.372331569,-162.7861907,
1151050350,-3.249804364,0.6878754054,-123.4555118,
1152884294,-1.613171605,0.8305034095,-142.0348039,
1154718239,-1.865556755,0.8067187708,-151.24009,
1156552184,-2.059923112,0.7888671007,-163.6688362,
1158386128,-2.109151841,0.784408711,-158.7877969,
1160220073,-2.014002212,0.7930487582,-170.8545289,
1162054018,-3.566535064,0.6632438732,178.5783878,
1163887962,-5.467603577,0.5328682215,170.5509232,
1165721907,-10.28523796,0.3060117497,-141.1233783,
1167555851,-2.95098905,0.7119517264,-157.6004893,
1169389796,-7.453593986,0.4239555263,-150.5123442,
1171223741,-2.868809469,0.7187196629,-145.9782478,
1173057685,-1.590134801,0.8327090027,-159.1997756,
1174891630,-1.966852876,0.7973653445,-164.8211836,
1176725575,-1.321320605,0.8588829268,-169.209008,
1178559519,-1.921383573,0.8015503745,-176.3605631,
1180393464,-1.538004787,0.8377216909,-179.9431956,
1182227409,-2.181175987,0.7779312194,177.4139856,
1184061353,-3.297803989,0.6840845792,178.0932744,
1185895298,-2.083809978,0.7867006357,178.9180064,
1187729243,-2.858314072,0.7195886364,-178.2734367,
1189563187,-1.564790753,0.8351422636,176.946551,
1191397132,-1.745178375,0.8179769792,165.0806939,
1193231077,-1.820880578,0.8108788465,-179.8076693,
1195065021,-1.710873553,0.8212139579,168.9954362,
1196898966,-1.451710352,0.8460859483,163.9332443,
1198732910,-2.418534582,0.756960593,157.6868927,
1200566855,-3.978657839,0.6325095805,145.0455358,
1202400800,-3.284466383,0.6851358312,172.0167978,
1204234744,-2.564803429,0.7443202396,170.1342098,
1206068689,-1.372835587,0.8538040699,153.550827,
1207902634,-1.573897076,0.8342671558,158.5726631,
1209736578,-5.748805475,0.5158931083,172.8859482,
1211570523,-2.086285028,0.7864764968,159.8029913,
1213404468,-1.456677683,0.8456022226,148.5330029,
1215238412,-2.516195307,0.7484972941,136.0399634,
1217072357,-15.71248206,0.1638233856,111.6517915,
1218906302,-2.769276422,0.7270029597,173.606842,
1220740246,-2.320608674,0.7655429587,166.8311758,
