Frequency,S11_Magnitude,S11_Magnitude (linear),S11_Phase,
500000000,-0.6210727747,0.9309928835,113.3275674,
501833944,-0.5950114317,0.9337904508,108.2689414,
503667889,-0.6921374942,0.923406921,101.471975,
505501833,-4.892503853,0.5693440775,115.5710384,
507335778,-0.836555152,0.9081806457,108.1477934,
509169723,-0.6760096721,0.9251230811,102.6407001,
511003667,-0.6407121063,0.9288902293,98.45343863,
512837612,-0.6353629566,0.9294624566,93.9929054,
514671557,-0.7516939866,0.9170970589,85.25056166,
516505501,-0.8727933428,0.9043995402,101.7669067,
518339446,-0.648670831,0.9280394937,90.11911658,
520173391,-0.6789046207,0.9248147952,82.77486416,
522007335,-1.846431128,0.8084970574,62.70093871,
523841280,-1.567738284,0.8348589087,92.8199238,
525675225,-1.291866519,0.8618003658,79.07869833,
527509169,-2.471604342,0.7523497533,63.66277826,
529343114,-11.67943092,0.2606324305,110.2507029,
531177059,-1.638574171,0.8280780854,105.6867296,
533011003,-0.905586141,0.9009914981,92.31281809,
534844948,-1.107568618,0.8802814884,85.24376312,
536678892,-1.224632033,0.8684971515,83.97173512,
538512837,-0.98918053,0.8923618055,81.5755786,
540346782,-0.8620418939,0.9055197047,78.59045276,
542180726,-0.8003032356,0.9119790004,75.72081594,
544014671,-0.762610464,0.9159451699,72.98526826,
545848616,-0.7424051416,0.9180783434,70.29861241,
547682560,-0.7330577823,0.9190668694,67.59985529,
549516505,-0.7323229485,0.9191446265,64.78603744,
551350450,-0.7504029476,0.917233383,61.62575934,
553184394,-0.9396303766,0.8974669849,57.78841621,
555018339,-0.7369840591,0.9186515181,51.85742315,
556852284,-5.645081822,0.5220906419,79.9280806,
558686228,-1.013436442,0.8898733033,61.70303384,
560520173,-1.065189102,0.8845869843,51.4860394,
562354118,-2.074541205,0.7875405775,50.78036701,
564188062,-0.972193243,0.8941087352,57.89243046,
566022007,-0.7746513772,0.9146763102,52.05805059,
567855951,-0.7647389728,0.9157207417,48.53392068,
569689896,-0.7716639701,0.9149909562,45.51170805,
571523841,-0.791746628,0.9128778481,42.58327984,
573357785,-0.8513900954,0.9066308552,39.4213697,
575191730,-0.9280748944,0.8986617463,39.6671202,
577025675,-0.8592607404,0.9058096915,34.19474132,
578859619,-1.026362154,0.8885500431,29.60087406,
580693564,-1.79823985,0.8129952487,22.5419676,
582527509,-2.695424974,0.7332106277,43.63220317,
584361453,-1.125258813,0.8784904797,35.72926847,
586195398,-0.8693995437,0.9047529812,30.3208429,
588029343,-0.8078608845,0.9111858267,26.36276603,
589863287,-0.7886231707,0.9132061792,22.92431147,
591697232,-0.7865328328,0.9134259769,19.57169326,
593531177,-0.8071359752,0.9112618759,15.81199058,
595365121,-1.50617413,0.8407972711,7.522562623,
597199066,-0.8264143651,0.909241567,11.98201682,
599033011,-1.289988505,0.8619867194,6.525024086,
600866955,-1.55270995,0.8363046326,6.442381421,
602700900,-1.586819276,0.83302692,4.661133905,
604534844,-1.743376078,0.8181467247,4.280896859,
606368789,-1.13129822,0.8778798667,3.952044017,
608202734,-0.8463888304,0.9071530362,-1.508972425,
610036678,-0.8755422855,0.9041133577,-6.037302318,
611870623,-0.9406905184,0.8973574528,-10.05829098,
613704568,-0.9684548553,0.8944936405,-12.95239164,
615538512,-1.047257972,0.8864150097,-18.11799178,
617372457,-1.12863777,0.8781487986,-22.55292822,
619206402,-1.130884776,0.8779216543,-27.83541008,
621040346,-1.774961738,0.8151769914,-35.76810428,
622874291,-2.221331883,0.7743430519,-40.85330632,
624708236,-3.036177282,0.7050032774,-48.97567998,
626542180,-5.027363387,0.5605725541,-59.4146144,
628376125,-11.40631999,0.2689577113,-57.82919095,
630210070,-7.103061204,0.4414148503,11.43149477,
632044014,-2.111594139,0.784188182,-16.52532153,
633877959,-4.266619046,0.6118839304,-20.82052381,
635711903,-1.638723713,0.8280638288,-36.84682634,
637545848,-5.97932996,0.5023813423,-10.86155546,
639379793,-2.409433584,0.7577541452,-28.83187384,
641213737,-1.741852433,0.8182902534,-38.78417151,
643047682,-1.483331653,0.8430113412,-48.12651414,
644881627,-1.411414734,0.8500202329,-58.20016743,
646715571,-1.514743722,0.8399681406,-70.86130707,
648549516,-2.022929589,0.7922340796,-90.79559661,
650383461,-4.726159698,0.5803527078,-138.3591482,
652217405,-7.367890089,0.4281594122,44.93895202,
654051350,-3.314619339,0.6827615144,-35.41795125,
655885295,-5.827962583,0.5112129783,17.1682871,
657719239,-1.362461371,0.854824442,-37.3693445,
659553184,-1.58566423,0.8331377028,-44.5975153,
661387129,-1.013035781,0.8899143522,-61.46576768,
663221073,-1.007465054,0.8904852851,-71.3398944,
665055018,-1.034904134,0.8876766443,-80.36181841,
666888962,-1.095305781,0.8815251575,-89.50407949,
668722907,-1.246457304,0.8663175945,-99.73434888,
670556852,-2.080853417,0.7869684637,-113.8508434,
672390796,-1.4085727,0.8502984062,-109.6493275,
674224741,-1.77090479,0.8155578278,-131.0087839,
676058686,-2.166667826,0.7792316944,-144.1470428,
677892630,-2.641066808,0.7378136057,-175.6462256,
679726575,-4.9720808,0.5641517764,101.2543428,
681560520,-2.634132058,0.7384029058,-56.4058895,
683394464,-1.485770006,0.8427747195,-131.0101427,
685228409,-2.153190598,0.7804417069,164.9361529,
687062354,-5.693031199,0.5192164459,44.51828067,
688896298,-7.446353999,0.4243090551,-123.0197144,
690730243,-7.401163106,0.4265224004,91.91143209,
692564188,-6.370045724,0.4802835519,17.44173265,
694398132,-1.550649831,0.8365030108,-45.14278209,
696232077,-1.853808711,0.8078106312,-81.9844302,
698066022,-1.447354357,0.8465103689,-111.6024112,
699899966,-2.193515599,0.7768268358,-146.7783885,
701733911,-12.89422014,0.2266151773,-151.5976222,
703567855,-6.267494304,0.4859877079,72.61260437,
705401800,-4.863489649,0.5712490851,-82.14786171,
707235745,-5.421837838,0.5356833009,-110.4593192,
709069689,-3.982911617,0.6321998947,-137.0959583,
710903634,-2.820849252,0.7226991391,168.3359291,
712737579,-5.553500994,0.527624496,29.91685849,
714571523,-4.725604411,0.5803898108,-46.90260937,
716405468,-3.611118968,0.6598482232,-96.37120775,
718239413,-3.136775859,0.696885145,-118.5374502,
720073357,-4.560611012,0.591520022,-137.8270331,
721907302,-4.153373203,0.6199138506,-150.4935286,
723741247,-5.359374141,0.5395494982,-162.8667092,
725575191,-7.6055746,0.4166019227,-167.4853588,
727409136,-4.60590489,0.5884434804,-136.6766044,
729243081,-1.428077174,0.8483911731,-176.8241576,
731077025,-1.898426975,0.8036716549,151.9285325,
732910970,-5.798499877,0.512949967,93.86075131,
734744914,-5.222502439,0.5481190269,147.6720589,
736578859,-6.915243049,0.4510636683,127.3401808,
738412804,-9.583272634,0.3317694313,121.4335621,
740246748,-9.856747635,0.3214864095,145.6933248,
742080693,-2.656513857,0.7365026387,128.8337379,
743914638,-2.895634785,0.7165034085,74.94734601,
745748582,-7.328452142,0.4301078737,39.97050685,
747582527,-5.27011343,0.5451227769,87.8944446,
749416472,-6.550372791,0.4704152155,6.887305187,
751250416,-10.27635999,0.3063246885,-26.13003545,
753084361,-14.56642008,0.1869299957,-60.92340869,
754918306,-19.26091829,0.1088814976,-122.3540589,
756752250,-17.402749,0.1348536017,93.73612286,
758586195,-10.95777067,0.2832118797,59.83523118,
760420140,-6.599985621,0.4677359156,20.81449677,
762254084,-3.33816645,0.6809130811,-18.96519827,
764088029,-1.893472652,0.8041301899,-69.28768365,
765921973,-3.773649088,0.6476159638,-143.7789579,
767755918,-10.376492,0.3028136165,54.89938288,
769589863,-5.118028802,0.5547515954,-46.15817449,
771423807,-4.400343793,0.6025357369,-102.2558565,
773257752,-11.99124,0.2514421027,73.28008799,
775091697,-1.946467099,0.7992389582,-70.65521921,
776925641,-1.347008971,0.8563465482,-107.2410937,
778759586,-4.00068942,0.6309072659,-139.8707153,
780593531,-1.760027746,0.8165797628,-139.4154822,
782427475,-1.553462589,0.8362321693,-155.3603761,
784261420,-1.240626188,0.8668993766,-173.2965858,
786095365,-1.722563795,0.8201094387,164.2006172,
787929309,-2.062673409,0.7886173536,169.8349608,
789763254,-1.502689123,0.8411346888,134.4186633,
791597199,-2.518787122,0.7482739805,83.78167837,
793431143,-7.313862314,0.4308309398,-84.3709808,
795265088,-5.798712663,0.5129374009,-179.9816396,
797099033,-3.212767931,0.6908147525,149.8164831,
798932977,-3.98657101,0.6319336029,89.91531781,
800766922,-8.477225006,0.3768241687,69.92462449,
802600866,-5.55444661,0.5275670577,126.879858,
804434811,-11.43901984,0.2679470674,140.4792224,
806268756,-10.53430228,0.2973616009,53.58808222,
808102700,-4.158273394,0.6195642216,12.55091612,
809936645,-7.101288834,0.4415049309,-151.9944085,
811770590,-10.14523218,0.3109842474,71.87875821,
813604534,-8.430204267,0.3788696237,-84.54312226,
815438479,-14.96730528,0.1784985679,-79.47446138,
817272424,-6.213108423,0.4890402208,-65.86005696,
819106368,-3.650218676,0.6568845786,-145.187537,
820940313,-3.866544358,0.6407266411,-175.1668678,
822774258,-4.523102759,0.5940799045,170.5035406,
824608202,-5.220487952,0.5482461649,159.8385641,
826442147,-1.633797774,0.8285335733,155.1061107,
828276092,-1.783690097,0.8143582401,132.0187109,
830110036,-2.314396889,0.7660906388,113.7439834,
831943981,-4.227399071,0.6146530577,97.2998313,
833777925,-5.086582349,0.5567636619,111.1572969,
835611870,-2.480186055,0.7516067941,96.72429359,
837445815,-1.740994381,0.8183710938,67.07666083,
839279759,-6.15703627,0.4922074541,66.62819477,
841113704,-4.177180529,0.618217043,40.97929278,
842947649,-5.845251881,0.5101964189,52.47389927,
844781593,-3.561214891,0.6636502395,13.79547595,
846615538,-3.304173358,0.6835831233,-23.90616736,
848449483,-4.252448777,0.6128829802,-72.71812027,
850283427,-4.92397949,0.5672846412,-59.70827479,
852117372,-2.577891232,0.7431995506,-122.4330408,
853951317,-2.353086881,0.7626857919,-146.2509361,
855785261,-1.764998752,0.8161125613,174.2329509,
857619206,-1.464022645,0.8448874667,146.8438353,
859453151,-1.491726594,0.8421969616,113.2806689,
861287095,-3.276786936,0.6857418476,56.29322158,
863121040,-6.721899899,0.4612166798,-100.6950374,
864954984,-3.768289724,0.6480156788,173.7093321,
866788929,-2.629384087,0.7388066496,142.5536792,
868622874,-2.2012675,0.77613385,122.1193349,
870456818,-2.294450329,0.7678519359,100.7298704,
872290763,-3.281531933,0.6853673374,101.6397695,
874124708,-3.245236665,0.6882372376,83.24971917,
875958652,-4.758655347,0.5781855488,63.82518693,
877792597,-16.94023508,0.1422290293,34.50276571,
879626542,-6.97777041,0.4478282429,107.3759357,
881460486,-2.980457322,0.7095404088,114.6790536,
883294431,-1.264215756,0.8645482025,87.44372501,
885128376,-1.62737833,0.8291461404,75.06953106,
886962320,-1.921776177,0.801514145,56.84046034,
888796265,-5.649394726,0.5218314667,33.94894772,
890630210,-2.29140984,0.7681207689,76.04940539,
892464154,-3.948763415,0.6346902536,58.30387391,
894298099,-2.972816092,0.7101648868,55.01058607,
896132044,-2.883502234,0.7175049281,48.97068587,
897965988,-2.046739159,0.7900653987,45.91969365,
899799933,-1.24414971,0.8665477811,32.20433247,
901633877,-2.38442921,0.7599386614,15.5957694,
903467822,-2.300631211,0.7673057266,0.3847251811,
905301767,-4.664670267,0.5844757362,48.40791415,
907135711,-1.856071059,0.8076002544,15.33760271,
908969656,-1.406454239,0.8505058165,4.633217006,
910803601,-1.33095544,0.8579307379,-14.11332216,
912637545,-1.841999215,0.8089096925,-46.91854323,
914471490,-10.51625506,0.2979800898,25.79463414,
916305435,-15.15768365,0.1746287791,-83.86129227,
918139379,-4.197591068,0.6167660312,-5.734724886,
919973324,-10.8734417,0.285974899,168.0532419,
921807269,-3.906745132,0.6377680274,22.87727759,
923641213,-4.320139795,0.6081252138,-23.04856387,
925475158,-5.293419664,0.543662048,-61.76094102,
927309103,-14.16382407,0.1957982458,-133.3465139,
929143047,-18.03593588,0.1253727656,37.14461303,
930976992,-5.654991794,0.5214953139,-90.66006387,
932810936,-5.298313386,0.5433558293,151.1643302,
934644881,-3.756695789,0.6488812284,100.6099644,
936478826,-2.488579569,0.750880838,47.08554039,
938312770,-3.473757091,0.6703662563,58.78755157,
940146715,-5.254977791,0.5460735113,3.266989732,
941980660,-7.714081324,0.4114299792,2.87187855,
943814604,-3.009365283,0.7071828758,15.71457272,
945648549,-2.533700493,0.7469903223,-1.367684282,
947482494,-25.14809947,0.05528343588,-128.7903524,
949316438,-3.24013048,0.6886419515,-4.719024253,
951150383,-10.45304832,0.3001563836,92.20060464,
952984328,-1.770285374,0.8156159897,-8.669682468,
954818272,-1.885399216,0.8048779673,-26.26891389,
956652217,-3.502371699,0.6681614498,1.452717037,
958486162,-1.505962339,0.8408177728,-44.6999793,
960320106,-2.274838943,0.7695875847,-88.5254435,
962154051,-7.075459582,0.4428197893,-68.43178508,
963987995,-20.45421002,0.09490508866,-51.82553288,
965821940,-8.236483886,0.3874144415,-171.3695682,
967655885,-5.688040681,0.5195148498,72.37519113,
969489829,-3.745685035,0.6497043107,16.34964658,
971323774,-3.370134354,0.6784116267,-33.22924963,
973157719,-4.772324768,0.5772763447,-147.809596,
974991663,-2.332796327,0.7644695362,65.64501445,
976825608,-1.854886904,0.8077103627,16.58692727,
978659553,-3.194340971,0.6922818594,-14.53953993,
980493497,-3.128822812,0.697523525,21.16653096,
982327442,-1.050054903,0.8861296224,-7.504974138,
984161387,-1.079158799,0.8831654281,-23.18475739,
985995331,-1.103514599,0.8806924435,-36.2183706,
987829276,-2.044573986,0.7902623665,-52.49201439,
989663221,-5.506907995,0.5304623932,-60.12316216,
991497165,-3.702274197,0.6529595681,-27.18546699,
993331110,-1.424661844,0.8487248298,-57.28892437,
995165055,-1.432142957,0.847994142,-86.68609627,
996998999,-4.71414539,0.5811560061,-159.805115,
998832944,-27.77633256,0.04084918273,-8.286089675,
1000666888,-2.675878131,0.7348625128,12.3637893,
1002500833,-1.298287458,0.8611635256,-27.71460091,
1004334778,-0.9905598345,0.8922201112,-47.07589054,
1006168722,-0.9206789517,0.8994272731,-65.75652545,
1008002667,-1.153492392,0.8756395727,-87.45186898,
1009836612,-3.176113747,0.693736129,-139.0593153,
1011670556,-3.037738744,0.7048765503,-100.9840907,
1013504501,-7.12854812,0.4401215097,91.01526261,
1015338446,-2.341610076,0.7636942069,-27.97984336,
1017172390,-3.645841803,0.6572156701,-47.6333872,
1019006335,-2.673420807,0.735070442,-18.42166714,
1020840280,-1.434482996,0.8477657173,-59.79383898,
1022674224,-2.32739826,0.7649447829,-95.37453929,
1024508169,-5.202486007,0.5493836111,-43.5873719,
1026342114,-3.855512789,0.641540917,-52.68176941,
1028176058,-1.851375123,0.808036993,-83.81333958,
1030010003,-3.70140058,0.6530252453,-75.28594108,
1031843947,-7.847006089,0.4051815818,-124.607197,
1033677892,-11.50241652,0.2659984916,7.173949855,
1035511837,-5.86633909,0.5089592895,-72.08323356,
1037345781,-11.95675337,0.2524424179,-67.20263913,
1039179726,-6.429480845,0.477008324,-21.16368881,
1041013671,-3.631187391,0.6583254285,-44.64676182,
1042847615,-2.42008679,0.7568253327,-96.5669948,
1044681560,-2.157818714,0.7800259738,-90.38122341,
1046515505,-3.234200548,0.6891122538,-125.9623561,
1048349449,-6.92692998,0.4504571669,-149.7005049,
1050183394,-5.24655717,0.5466031643,33.38513241,
1052017339,-3.351325029,0.6798823213,-55.35482486,
1053851283,-9.496421649,0.3351034643,-58.65857495,
1055685228,-1.645413056,0.82742635,-58.08943136,
1057519173,-1.081780865,0.8828988614,-78.23775857,
1059353117,-1.068393127,0.8842607406,-99.99221333,
1061187062,-5.815587197,0.5119418578,-74.62519397,
1063021007,-3.462991356,0.6711976576,-74.79271546,
1064854951,-4.077107913,0.6253808873,-77.48164816,
1066688896,-7.169570092,0.4380477918,-95.88127079,
1068522840,-2.343391358,0.7635376063,-91.16727087,
1070356785,-2.925207784,0.7140680651,-98.19023228,
1072190730,-3.234525259,0.6890864927,-109.2770726,
1074024674,-1.677246567,0.8243994087,-110.8454986,
1075858619,-5.171638609,0.5513381816,-89.57289646,
1077692564,-2.718868293,0.7312343517,-104.4975275,
1079526508,-1.877570285,0.8056037623,-112.6113004,
1081360453,-1.722496409,0.8201158012,-122.4047079,
1083194398,-5.657868348,0.5213226361,-144.4977839,
1085028342,-2.802726273,0.7242086143,-115.5231404,
1086862287,-3.060964917,0.7029942198,-125.2730567,
1088696232,-3.081791299,0.7013106516,-134.6719792,
1090530176,-4.138450764,0.6209797838,-149.2881475,
1092364121,-20.66120234,0.09267015362,-118.7408804,
1094198066,-4.665942525,0.5843901319,-113.9451775,
1096032010,-2.266727613,0.7703066008,-127.3790343,
1097865955,-2.19187341,0.7769737197,-151.2007584,
1099699899,-14.88331658,0.1802329417,135.5764088,
1101533844,-10.29590258,0.3056362561,-20.31148201,
1103367789,-2.181679483,0.7778861263,-96.9310355,
1105201733,-2.085565938,0.7865416105,-109.9497696,
1107035678,-1.981422282,0.796028993,-130.5504355,
1108869623,-1.024024215,0.8887892421,-137.3474635,
1110703567,-1.543291722,0.8372119409,-161.2231559,
1112537512,-4.516991973,0.5944980047,-145.5303949,
1114371457,-7.109105003,0.4411078127,-117.3022277,
1116205401,-4.509189812,0.5950322566,-115.2758396,
1118039346,-4.958995034,0.5650023423,-136.4542594,
1119873291,-1.48324349,0.843019898,-134.358099,
1121707235,-1.099907545,0.8810582512,-145.8131565,
1123541180,-1.142132496,0.8767855327,-155.3296909,
1125375125,-2.165840506,0.7793059188,-161.1568104,
1127209069,-3.057009721,0.7033144073,174.1704992,
1129043014,-6.233523598,0.4878921383,-139.602014,
1130876958,-2.296829472,0.7676416432,-155.4036337,
1132710903,-3.307499397,0.6833214128,167.8356848,
1134544848,-7.243514713,0.4343344368,126.0305425,
1136378792,-3.900751235,0.6382082857,-59.65154312,
1138212737,-1.634158953,0.8284991216,-125.0019418,
1140046682,-1.552680052,0.8363075113,-133.8540462,
1141880626,-1.518935209,0.8395629011,-155.7536038,
1143714571,-1.369820564,0.8541004915,-151.6095324,
1145548516,-1.364208748,0.8546524907,-169.037774,
1147382460,-3.019564789,0.7063529456,-153.5583213,
1149216405,-1.437469574,0.8474742695,-167.5657508,
1151050350,-3.576393412,0.6624915288,175.9024068,
1152884294,-6.757921921,0.459307888,167.5721872,
1154718239,-2.713550908,0.7316821406,-170.326196,
1156552184,-2.913208695,0.7150551934,-170.5607851,
1158386128,-1.623628169,0.8295042043,164.4616433,
1160220073,-10.88536443,0.2855826232,83.04927975,
1162054018,-9.888279736,0.3203214437,142.7313184,
1163887962,-2.486200032,0.7510865732,-143.6115801,
1165721907,-4.69460412,0.5824649464,-179.9208076,
1167555851,-2.283089965,0.7688568743,162.1601953,
1169389796,-3.78283544,0.6469313956,-115.3507892,
1171223741,-2.256568698,0.7712080695,-165.8409213,
1173057685,-2.494735004,0.7503488993,179.5851617,
1174891630,-2.864306452,0.7190923646,177.3566938,
1176725575,-3.280011869,0.6854872898,167.709984,
1178559519,-2.394210649,0.7590833535,-149.028319,
1180393464,-1.557814865,0.8358132598,-172.7811774,
1182227409,-1.682969272,0.8238564315,175.3424937,
1184061353,-7.879328591,0.4036765955,162.5535176,
1185895298,-1.53226196,0.8382757483,-173.0515172,
1187729243,-1.10264332,0.8807807899,169.6861917,
1189563187,-1.64951364,0.8270358165,-178.4198169,
1191397132,-1.161130682,0.874869882,157.0022241,
1193231077,-3.396019498,0.6763928765,156.0899626,
1195065021,-8.799829072,0.3630851998,-157.8329443,
1196898966,-2.488933873,0.7508502096,135.7409701,
1198732910,-6.090135934,0.4960131648,118.1910304,
1200566855,-3.649869755,0.6569109668,-136.3833533,
1202400800,-2.061548346,0.788719508,170.3089378,
1204234744,-4.435516129,0.6001007832,167.5832311,
1206068689,-4.710011299,0.581432676,176.8538675,
1207902634,-2.524750686,0.7477604063,-178.9876142,
1209736578,-1.428306259,0.8483687975,168.0003467,
1211570523,-2.000188513,0.7943109953,149.0618064,
1213404468,-2.401290716,0.7584648594,134.7905379,
1215238412,-18.13159391,0.1239996058,-134.1489944,
1217072357,-1.511349382,0.8402964541,155.9223869,
1218906302,-2.768359257,0.7270797298,117.2691576,
1220740246,-2.637182707,0.7381436103,177.6372859,
