Frequency,S11_Magnitude,S11_Magnitude (linear),S11_Phase,
500000000,-1.719558828,0.8203932125,90.83671692,
501833944,-1.634108757,0.8285039097,137.6508841,
503667889,-0.7668470267,0.9154985244,114.1143794,
505501833,-0.6655663385,0.9262360562,102.9615071,
507335778,-0.6944301182,0.9231632217,91.90504314,
509169723,-1.00451635,0.8907876402,74.01936156,
511003667,-4.616020612,0.5877585689,12.65120392,
512837612,-3.442525202,0.6727810339,161.7563739,
514671557,-1.342223264,0.8568185036,123.1786364,
516505501,-0.9908247431,0.8921929,110.777714,
518339446,-0.9300083827,0.8984617255,96.69966323,
520173391,-8.070269583,0.3948994427,166.011316,
522007335,-0.9622762754,0.8951301517,108.7109031,
523841280,-0.8389919682,0.9079258924,98.93226613,
525675225,-1.328945489,0.8581292896,84.1647725,
527509169,-0.7898479983,0.9130774139,103.3920315,
529343114,-0.6705549948,0.9257042343,94.82486192,
531177059,-0.6569344937,0.9271569867,90.53738045,
533011003,-0.6474822734,0.9281664932,86.99934702,
534844948,-0.6415651654,0.9287990055,83.3098615,
536678892,-0.7669530061,0.9154873542,75.05297723,
538512837,-0.7508203031,0.9171893111,84.44533555,
540346782,-0.6686212204,0.9259103505,79.45059964,
542180726,-0.6551043626,0.9273523607,76.4051763,
544014671,-0.6468585422,0.9282331469,73.6384179,
545848616,-0.6414456746,0.928811783,70.80769193,
547682560,-0.6424428088,0.9287051622,67.18479281,
549516505,-2.18880178,0.7772485329,72.65775148,
551350450,-0.7584479109,0.916384225,66.07585197,
553184394,-0.7176369247,0.9207000225,62.64054267,
555018339,-0.7130214132,0.9211893945,59.30673112,
556852284,-0.7336374311,0.9190055379,55.2927365,
558686228,-0.836703375,0.9081651479,48.68623856,
560520173,-4.668032118,0.5842495602,12.48942671,
562354118,-3.116351956,0.6985257209,46.31522248,
564188062,-0.894846741,0.9021061902,61.620067,
566022007,-0.7703874353,0.9151254391,55.41748604,
567855951,-0.7440736542,0.9179020024,51.5222764,
569689896,-0.7361803041,0.9187365301,48.21770914,
571523841,-0.7432766027,0.9179862366,44.94685633,
573357785,-0.8024811698,0.9117503559,40.74886494,
575191730,-2.025685453,0.791982759,51.68819942,
577025675,-0.7409127864,0.9182360954,39.99827423,
578859619,-0.7333490448,0.919036051,35.17567574,
580693564,-1.274325811,0.8635424857,21.91615003,
582527509,-0.9213152659,0.8993613849,38.02032836,
584361453,-0.7988764282,0.912128821,32.53180507,
586195398,-0.7750485416,0.9146344873,29.1361674,
588029343,-0.7686671368,0.9153067037,26.1141538,
589863287,-0.7675576025,0.9154236323,23.21495143,
591697232,-0.7680614508,0.9153705323,20.23827768,
593531177,-0.7701440821,0.9151510786,17.05702195,
595365121,-0.7661681557,0.9155700807,13.14088561,
597199066,-1.495527512,0.8418284995,12.1027504,
599033011,-1.199658666,0.8709978174,-3.121305196,
600866955,-1.14492656,0.8765035351,17.38813004,
602700900,-0.9393765369,0.8974932132,8.887296914,
604534844,-0.9288875165,0.8985776745,4.070466529,
606368789,-1.011837194,0.8900371621,-1.611788235,
608202734,-1.562440457,0.8353682735,7.544655884,
610036678,-0.9733207446,0.8939926799,-2.322667292,
611870623,-0.9700867968,0.894325595,-6.704978421,
613704568,-0.9461138854,0.8967973282,-10.60420507,
615538512,-1.001350203,0.8911124059,-14.55909138,
617372457,-1.037162269,0.8874458984,-18.69954777,
619206402,-1.100821521,0.8809655464,-23.60052474,
621040346,-1.145742582,0.8764211932,-25.51872708,
622874291,-1.168367578,0.8741412628,-31.87331338,
624708236,-1.247754198,0.8661882539,-38.19417181,
626542180,-1.383258045,0.8527801793,-46.17216922,
628376125,-1.64605918,0.8273648019,-58.44026219,
630210070,-2.837368423,0.7213259873,-90.47970136,
632044014,-3.558610485,0.6638492604,7.313991124,
633877959,-3.387185881,0.6770811231,-63.81086883,
635711903,-2.901733371,0.7160005097,18.28207314,
637545848,-1.336379102,0.8573951942,-37.08727409,
639379793,-1.767265137,0.8158996431,-59.95677529,
641213737,-4.217137176,0.6153796652,-105.1968524,
643047682,-1.645752722,0.8273939937,-38.98647061,
644881627,-2.158804907,0.7799374149,-73.56354966,
646715571,-3.175974792,0.6937472273,-98.40991673,
648549516,-4.882745967,0.5699840484,-130.8190158,
650383461,-7.212580827,0.4358840311,175.9879453,
652217405,-6.819392646,0.4560688051,101.0238851,
654051350,-4.094816798,0.6241071529,41.62428285,
655885295,-3.38897884,0.6769413731,25.21852414,
657719239,-1.712735551,0.8210379328,-7.181515253,
659553184,-2.805833152,0.7239496165,-50.43925313,
661387129,-1.945025724,0.7993715985,-14.66291037,
663221073,-1.176982787,0.8732746646,-37.17641404,
665055018,-1.129784764,0.8780328445,-56.87040171,
666888962,-2.808298718,0.7237441462,-99.48226268,
668722907,-3.991883209,0.6315472371,-1.46412833,
670556852,-2.684943728,0.7340959255,-42.95929607,
672390796,-6.421095582,0.477469045,-84.43918761,
674224741,-1.256111084,0.8653552758,-50.9118035,
676058686,-1.127442952,0.8782696038,-66.33597129,
677892630,-0.9066613069,0.9008799776,-74.88271626,
679726575,-0.9484392067,0.8965572765,-86.1374282,
681560520,-1.605067718,0.8312786262,-99.78239977,
683394464,-1.32575803,0.858444255,-107.3242656,
685228409,-1.579125926,0.8337650834,-126.233906,
687062354,-9.962673058,0.3175896547,-158.7993835,
688896298,-2.297895238,0.7675474587,-133.0024331,
690730243,-2.568603435,0.7439946769,171.8700692,
692564188,-3.356371033,0.6794874633,79.20837442,
694398132,-2.373931821,0.7608576455,-19.84699389,
696232077,-1.855664656,0.8076380419,-41.28714415,
698066022,-1.748027856,0.8177086788,-74.68168404,
699899966,-6.385028477,0.4794557994,-47.93813896,
701733911,-1.077419878,0.8833422561,-82.71193801,
703567855,-0.9546191455,0.8959196103,-100.1328289,
705401800,-5.484024636,0.5318617622,-135.2734482,
707235745,-1.129516305,0.8780599826,-114.9775792,
709069689,-5.44322396,0.5343659808,-121.6028349,
710903634,-1.212139682,0.8697471531,-126.4606828,
712737579,-1.612842404,0.8305348868,-145.2396873,
714571523,-7.225598457,0.4352312566,-148.6487314,
716405468,-1.529584911,0.8385341503,-130.6755282,
718239413,-2.141302065,0.7815106429,-152.8219855,
720073357,-1.035364899,0.8876295565,-160.5949723,
721907302,-1.539826069,0.8375460535,-165.4832282,
723741247,-1.115873453,0.8794402276,172.3133962,
725575191,-1.793978494,0.8133942075,134.4684616,
727409136,-5.937965331,0.5047795283,-48.88854939,
729243081,-9.53146694,0.3337541334,-13.22222322,
731077025,-1.70282175,0.8219755747,-144.4686419,
732910970,-7.821379371,0.4063787887,-111.8576362,
734744914,-1.234701195,0.867490925,-165.5050791,
736578859,-1.044570822,0.886689282,176.3741623,
738412804,-1.013874231,0.8898284527,161.5615845,
740246748,-1.049142204,0.8862227404,146.2450421,
742080693,-1.162110478,0.8747711994,127.3274038,
743914638,-1.561720551,0.8354375136,96.45817955,
745748582,-3.531685126,0.6659103173,6.092707867,
747582527,-1.939585744,0.7998724024,-163.5087992,
749416472,-1.230325894,0.8679280121,136.1259815,
751250416,-1.435521823,0.8476643311,86.94661125,
753084361,-2.834492472,0.7215648622,-20.46525717,
754918306,-2.052630385,0.7895297165,-164.5343733,
756752250,-1.822157769,0.810759622,130.1760442,
758586195,-3.018412501,0.706446658,143.7956104,
760420140,-2.629518282,0.7387952353,80.3109069,
762254084,-6.217808449,0.4887756676,-69.17729472,
764088029,-1.973482694,0.7967569589,164.0085911,
765921973,-1.252621395,0.8657030155,123.4595708,
767755918,-1.138315598,0.8771709091,97.9550123,
769589863,-1.191050896,0.8718614094,74.91828619,
771423807,-1.481200854,0.8432181719,47.08430887,
773257752,-3.30398892,0.6835976388,-10.01801798,
775091697,-2.216710752,0.7747551333,79.83137787,
776925641,-1.460031822,0.8452757484,13.12244593,
778759586,-1.99715371,0.7945885718,-56.59743098,
780593531,-2.944842795,0.7124556915,177.5045008,
782427475,-4.116449964,0.6225546794,47.73522908,
784261420,-8.62440049,0.3704929732,-2.62641785,
786095365,-3.325533839,0.68190411,64.22578203,
787929309,-4.698047486,0.5822340844,176.3604382,
789763254,-1.715529768,0.8207738506,54.32602288,
791597199,-2.074156164,0.7875754895,1.230142041,
793431143,-3.197011834,0.6920690192,6.06401728,
795265088,-1.586928588,0.8330164363,-44.04121649,
797099033,-2.726458484,0.7305956395,-97.91208448,
798932977,-2.43321818,0.7556820233,-131.9021635,
800766922,-3.581773235,0.6620813252,122.3276407,
802600866,-15.67956456,0.1644454161,-99.40930144,
804434811,-3.845155845,0.6423063384,-58.75517767,
806268756,-7.506315306,0.4213900093,95.02566926,
808102700,-5.393117807,0.5374574777,-63.1079218,
809936645,-5.594070339,0.5251658568,-97.50011883,
811770590,-2.132116758,0.7823375256,-168.6961986,
813604534,-2.176544449,0.7783461428,119.4352208,
815438479,-6.798349322,0.4571750635,110.4850196,
817272424,-2.659868816,0.7362182166,38.024358,
819106368,-7.500004574,0.4216962813,-8.961681311,
820940313,-7.399884306,0.4265852008,-60.24527999,
822774258,-5.75682096,0.515417253,-9.774874108,
824608202,-2.872490794,0.7184151138,-48.22737279,
826442147,-2.143471131,0.781315506,-74.58230811,
828276092,-1.852046873,0.8079745035,-99.41618226,
830110036,-1.831601274,0.809878624,-122.1122265,
831943981,-1.916568094,0.8019948792,-147.8688323,
833777925,-4.054130606,0.6270374352,164.1874492,
835611870,-6.688074774,0.4630162799,-31.7028876,
837445815,-2.002048861,0.7941408876,-129.607498,
839279759,-1.560149549,0.8355886313,-157.8688484,
841113704,-1.392559581,0.8518674438,-178.2603581,
842947649,-1.500194707,0.8413762807,162.8722003,
844781593,-2.579000946,0.7431046051,144.3227891,
846615538,-1.422435764,0.8489423747,116.8009253,
848449483,-3.279554845,0.6855233589,69.78623332,
850283427,-4.179470716,0.6180540608,-59.9620426,
852117372,-2.032935417,0.7913219803,176.7537269,
853951317,-2.968285663,0.7105353948,77.49176798,
855785261,-9.592184699,0.3314291973,-148.442631,
857619206,-13.3059801,0.2161230039,-156.290538,
859453151,-1.547528482,0.8368036693,163.6685217,
861287095,-1.935355751,0.8002620319,112.2698621,
863121040,-8.333694028,0.3831027757,-158.694885,
864954984,-2.613737568,0.7401387147,139.7121183,
866788929,-2.089930106,0.7861465171,113.8181188,
868622874,-2.170190755,0.7789157082,83.90933399,
870456818,-6.851205265,0.4544014795,75.59996353,
872290763,-7.245304741,0.4342449364,-155.223365,
874124708,-3.305716274,0.683461706,108.5216336,
875958652,-3.374211681,0.6780932417,80.04194367,
877792597,-3.108563426,0.6991523612,43.74410326,
879626542,-4.597204529,0.5890331996,-65.76589924,
881460486,-2.585359585,0.742560803,138.0946928,
883294431,-2.281094101,0.7690335644,69.26503246,
885128376,-4.077249521,0.6253706917,-2.906755153,
886962320,-5.886034007,0.5078065515,-141.8552756,
888796265,-6.747679146,0.4598498432,83.99672753,
890630210,-8.085631214,0.3942016514,165.5910473,
892464154,-10.83525551,0.2872349115,-25.5643425,
894298099,-2.293122196,0.7679693548,136.0696572,
896132044,-2.104890127,0.784793674,97.36834946,
897965988,-5.22379323,0.5480375782,129.7703601,
899799933,-2.077508674,0.787271566,103.341579,
901633877,-1.652716658,0.8267308941,88.40475112,
903467822,-1.793464857,0.8134423087,74.57535728,
905301767,-2.998055421,0.7081042955,67.91439334,
907135711,-1.607558027,0.8310403267,76.32407118,
908969656,-1.016084428,0.8896020573,64.28447714,
910803601,-0.9960412046,0.891657239,54.28183188,
912637545,-1.056280615,0.8854947064,43.18412515,
914471490,-4.528545517,0.5937077583,41.6708803,
916305435,-1.495379523,0.8418428426,35.07809325,
918139379,-1.934354414,0.800354294,24.53518692,
919973324,-11.94360487,0.252824849,69.20601907,
921807269,-1.667572142,0.8253181441,33.62895537,
923641213,-2.607392075,0.740679622,5.680974272,
925475158,-4.118346554,0.6224187575,41.44913293,
927309103,-2.065946782,0.7883202105,47.99373554,
929143047,-1.719431809,0.8204052097,5.950733733,
930976992,-1.649631854,0.8270245607,13.48042983,
932810936,-1.01102275,0.8901206215,-3.249917517,
934644881,-1.340496049,0.8569889014,-28.03064001,
936478826,-4.914490168,0.5679047375,-94.65150245,
938312770,-3.517121382,0.6670277944,78.08713509,
940146715,-1.808889566,0.811999051,11.2562165,
941980660,-19.63015805,0.1043499145,-4.323787807,
943814604,-4.993525867,0.5627606293,90.76523722,
945648549,-1.618863112,0.829959393,10.66567314,
947482494,-1.245930885,0.8663701003,8.28928641,
949316438,-0.9818746847,0.8931127015,-10.5324309,
951150383,-1.199733884,0.8709902747,-33.47536268,
952984328,-11.45645555,0.2674097404,103.8703791,
954818272,-1.198494014,0.8711146133,-9.972432314,
956652217,-0.9507664657,0.8963170891,-26.91184443,
958486162,-0.9541073198,0.8959724049,-43.07368202,
960320106,-1.084672636,0.882604969,-59.42488112,
962154051,-1.953290456,0.7986113482,-86.96596177,
963987995,-2.425370135,0.7563651204,-86.28373112,
965821940,-2.80872798,0.7237083793,-158.3253773,
967655885,-12.21743644,0.2449786168,-137.44959,
969489829,-2.759789713,0.7277974245,45.32554153,
971323774,-1.670320548,0.8250570366,-15.69028539,
973157719,-1.910238438,0.8025795288,-80.41708939,
974991663,-3.422659698,0.6743215127,144.3883408,
976825608,-3.424716594,0.6741618463,50.2680594,
978659553,-1.427938235,0.8484047439,11.96224269,
980493497,-1.708568708,0.8214319002,-15.29756776,
982327442,-1.059347682,0.8851820853,-23.3566703,
984161387,-1.116043372,0.8794230236,-34.30174589,
985995331,-1.057397433,0.8853808582,-51.28231479,
987829276,-1.308970651,0.8601049904,-73.13173556,
989663221,-10.47132907,0.2995253238,98.90550521,
991497165,-1.399081901,0.8512280083,-62.90202683,
993331110,-7.655427025,0.4142176961,159.8874019,
995165055,-1.931268285,0.8006387134,-71.8176696,
996998999,-9.625602197,0.3301565291,106.5118431,
998832944,-1.569204776,0.8347179662,-54.13812402,
1000666888,-1.401992495,0.8509428142,-95.96017143,
1002500833,-3.113182169,0.6987806841,-146.1301415,
1004334778,-2.962763575,0.710987264,127.4268954,
1006168722,-1.991668408,0.7950905278,39.17048843,
1008002667,-1.47249684,0.8440635731,-15.15538852,
1009836612,-2.566198109,0.7442007349,-61.47647569,
1011670556,-1.759066155,0.8166701692,-43.58139426,
1013504501,-1.870912748,0.8062214759,-47.29508114,
1015338446,-2.171090306,0.7788350443,-48.00487082,
1017172390,-1.578597957,0.8338157651,-84.73452587,
1019006335,-2.085439464,0.7865530634,-113.114789,
1020840280,-5.031304982,0.5603182279,160.098791,
1022674224,-3.42500007,0.6741398445,-27.18702366,
1024508169,-3.191582724,0.6925017318,-71.58165281,
1026342114,-1.890635674,0.8043928771,-53.18270355,
1028176058,-2.716705305,0.7314164687,-113.0723579,
1030010003,-12.32155016,0.2420597007,-5.41977705,
1031843947,-9.608684064,0.3308002254,62.29266817,
1033677892,-2.135451621,0.7820372123,-51.72036932,
1035511837,-8.91672618,0.3582314335,-172.9676384,
1037345781,-2.612649878,0.7402314043,-99.9506424,
1039179726,-12.928523,0.2257219793,67.30008731,
1041013671,-5.12294726,0.5544375516,61.21710204,
1042847615,-2.57241211,0.7436685142,-31.00439238,
1044681560,-6.718812933,0.4613806254,3.154721351,
1046515505,-1.641432072,0.8278056694,-53.66432375,
1048349449,-13.41664756,0.2133868351,72.59700441,
1050183394,-1.330633535,0.857962534,-50.63145137,
1052017339,-2.070067174,0.7879463377,-69.40032388,
1053851283,-1.824451113,0.8105455847,-83.22991447,
1055685228,-1.955848877,0.7983761526,-68.38088827,
1057519173,-4.75532169,0.5784074998,-42.8035285,
1059353117,-1.399748903,0.8511626438,-91.29113371,
1061187062,-1.716797659,0.8206540499,-115.7055122,
1063021007,-1.739662491,0.818496592,-82.44929425,
1064854951,-2.957982315,0.7113787439,-122.834516,
1066688896,-6.091278255,0.4959479361,-169.425916,
1068522840,-3.104598013,0.6994716216,-82.28275331,
1070356785,-3.227902896,0.6896120716,-141.4583257,
1072190730,-4.547879758,0.5923876722,-35.75487284,
1074024674,-8.105377398,0.3933065056,-107.535841,
1075858619,-5.835154341,0.5107898785,-70.03807513,
1077692564,-1.997520888,0.7945549829,-91.57507184,
1079526508,-5.427987737,0.5353041535,-95.10375466,
1081360453,-3.068664875,0.7023712983,-111.4412456,
1083194398,-5.594730874,0.5251259211,151.198246,
1085028342,-1.948951966,0.799010344,-54.72151362,
1086862287,-1.212482241,0.8697128522,-86.93243148,
1088696232,-7.689997161,0.412572372,-80.83553139,
1090530176,-1.278955884,0.8630822912,-107.2082342,
1092364121,-5.391973995,0.5375282581,-119.1750789,
1094198066,-15.9610924,0.1592008492,-84.97040265,
1096032010,-1.631051982,0.8287955315,-105.675842,
1097865955,-1.937239706,0.8000884752,-89.47247532,
1099699899,-1.114642826,0.8795648365,-108.5224134,
1101533844,-0.8661893239,0.9050874309,-116.7358072,
1103367789,-0.8768449088,0.903977778,-125.2876423,
1105201733,-4.562556539,0.591387544,-139.0072391,
1107035678,-1.841816302,0.8089267272,-149.311865,
1108869623,-3.701519711,0.6530162888,-96.38067813,
1110703567,-3.810973069,0.6448390753,-124.7313037,
1112537512,-0.833509453,0.9084991543,-127.4145893,
1114371457,-0.8434796529,0.9074569212,-134.8482577,
1116205401,-0.9216472142,0.8993270147,-141.5069831,
1118039346,-1.82576999,0.8104225196,-158.0086286,
1119873291,-1.323886577,0.8586292344,-131.5416899,
1121707235,-1.25202477,0.8657624817,-148.4733023,
1123541180,-0.8860861206,0.9030165169,-150.9253452,
1125375125,-0.986929242,0.8925931259,-156.9363374,
1127209069,-1.192493642,0.8717166032,-170.7332601,
1129043014,-4.926378904,0.5671279546,172.7419186,
1130876958,-2.590756686,0.7420995457,154.4151802,
1132710903,-7.216288649,0.4356980012,-22.40878622,
1134544848,-5.686423943,0.5196115581,-152.5717817,
1136378792,-1.540316926,0.8374987234,-105.393216,
1138212737,-3.324001593,0.6820244128,-140.9652036,
1140046682,-0.881512892,0.9034920915,-137.2246909,
1141880626,-0.880953852,0.9035502438,-147.5610902,
1143714571,-0.8510668131,0.9066645999,-155.0383446,
1145548516,-1.99015433,0.7952291359,-176.8902173,
1147382460,-8.644922635,0.369618643,-167.9923982,
1149216405,-0.8223959856,0.9096623095,-151.0929552,
1151050350,-0.7637201364,0.9158281601,-162.6094349,
1152884294,-1.012672115,0.8899516124,-166.1733909,
1154718239,-2.793248054,0.7249993168,-166.9002737,
1156552184,-2.604498408,0.7409264174,-165.3422686,
1158386128,-2.560120081,0.7447216782,-161.3168718,
1160220073,-3.726314045,0.6511548771,156.1236384,
1162054018,-10.41930319,0.3013247747,129.5667904,
1163887962,-2.240249499,0.7726583905,-159.2481141,
1165721907,-2.376028639,0.7606739927,-145.7392755,
1167555851,-1.403769877,0.8507687047,-172.1275786,
1169389796,-2.37971464,0.7603512565,172.9433799,
1171223741,-1.421554602,0.8490285022,-151.939893,
1173057685,-0.8148737992,0.9104504398,-170.0217394,
1174891630,-0.9302621162,0.8984354799,176.8849325,
1176725575,-2.985487632,0.7091296075,176.169892,
1178559519,-1.383115604,0.8527941643,-171.0981127,
1180393464,-0.7931585807,0.9127294654,176.2832566,
1182227409,-0.8196956762,0.9099451534,170.152187,
1184061353,-0.8908439994,0.902522006,161.474684,
1185895298,-1.156957309,0.8752903382,153.7224644,
1187729243,-2.16293799,0.7795663787,139.2562069,
1189563187,-17.66910494,0.1307810299,-178.2235487,
1191397132,-1.499097813,0.8414825403,157.1088005,
1193231077,-2.793282695,0.7249964254,-175.5671679,
1195065021,-4.617777347,0.5876397058,137.2105401,
1196898966,-4.413350601,0.6016341364,132.2860969,
1198732910,-2.738766561,0.7295611042,135.7533336,
1200566855,-2.788212577,0.725419743,-143.3636899,
1202400800,-1.900459386,0.8034836258,165.7633639,
1204234744,-1.863303527,0.8069280708,162.556977,
1206068689,-1.720862693,0.8202700701,152.1642646,
1207902634,-4.581327052,0.5901109147,179.4324329,
1209736578,-3.069454692,0.7023074338,142.1956076,
1211570523,-3.844282392,0.642370932,146.4500296,
1213404468,-2.973653533,0.7100964204,-164.510845,
1215238412,-3.434949357,0.6733680903,156.0064125,
1217072357,-1.061177865,0.8849955904,158.4853449,
1218906302,-1.868990704,0.8063998991,142.0615033,
