Frequency,S11_Magnitude,S11_Magnitude (linear),S11_Phase,
500000000,-0.9623066794,0.8951270184,105.0311778,
501833944,-2.153588622,0.7804059446,103.1092934,
503667889,-0.9546910823,0.8959121903,104.0762604,
505501833,-5.98136783,0.5022634882,82.04728472,
507335778,-1.005835245,0.8906523902,109.6152059,
509169723,-0.7182457077,0.9206354941,101.5190288,
511003667,-0.6787576524,0.9248304435,95.59827716,
512837612,-0.7204595442,0.9204008748,89.19473192,
514671557,-0.9264181989,0.8988331681,80.04365072,
516505501,-1.964705565,0.7975624922,61.75824768,
518339446,-16.50971328,0.1494563376,11.73997506,
520173391,-3.739588353,0.6501605024,132.1118086,
522007335,-3.076189189,0.7017631195,115.43894,
523841280,-1.338900666,0.8571463235,107.771382,
525675225,-0.9475083553,0.8966533641,101.5856165,
527509169,-0.8265440194,0.9092279948,96.74451418,
529343114,-0.7745451541,0.9146874962,92.96838235,
531177059,-0.7403950662,0.9182908283,89.65268649,
533011003,-0.8383781192,0.9079900596,85.27842022,
534844948,-0.7584854745,0.9163802619,84.88992358,
536678892,-0.7232289374,0.9201074627,82.20810639,
538512837,-0.7097791793,0.9215333165,79.70303779,
540346782,-0.706396639,0.9218922585,77.24846448,
542180726,-0.7083799602,0.9216817792,74.74839447,
544014671,-0.7156103151,0.9209148672,71.85876602,
545848616,-1.499965106,0.8413985218,64.07635388,
547682560,-0.7706095143,0.9151020416,70.77780322,
549516505,-0.7375990842,0.9185864731,67.539251,
551350450,-0.7524275884,0.917019605,64.9014421,
553184394,-0.8351442837,0.9083281755,63.26862736,
555018339,-0.7425196432,0.9180662409,60.54152599,
556852284,-0.7818254507,0.9139211491,57.56109011,
558686228,-1.572929393,0.8343601055,52.4804598,
560520173,-0.752880574,0.916971782,56.27849149,
562354118,-0.7532100875,0.9169369958,52.6893022,
564188062,-0.8419636637,0.9076153177,49.27657166,
566022007,-0.7327713854,0.9190971739,50.35777432,
567855951,-0.7163170733,0.9208399367,46.17698743,
569689896,-0.7295491982,0.9194381928,43.22586561,
571523841,-0.7469471599,0.9175983881,40.15156728,
573357785,-0.7728712291,0.9148637897,36.44191605,
575191730,-0.9021623098,0.9013467238,29.49864103,
577025675,-2.090076975,0.7861332243,43.02860661,
578859619,-1.642702783,0.8276845735,29.99405793,
580693564,-0.9838829304,0.8929062307,41.57636194,
582527509,-0.8390459886,0.9079202458,31.71625582,
584361453,-0.8063196496,0.911347523,27.85895436,
586195398,-0.8552506145,0.9062279848,23.84832049,
588029343,-0.9425852448,0.897161726,19.72372397,
589863287,-1.258173476,0.8651498289,14.75504559,
591697232,-1.135400948,0.8774653033,16.22420828,
593531177,-1.162828928,0.8746988461,6.335575985,
595365121,-2.324333441,0.7652147416,-8.877592879,
597199066,-11.03253034,0.2807847282,48.36442664,
599033011,-1.630097426,0.8288866189,30.25780107,
600866955,-1.07392577,0.8836976733,17.4962332,
602700900,-1.026205734,0.8885660448,9.291079049,
604534844,-1.23599912,0.8673613063,0.1428008362,
606368789,-4.085839267,0.6247525489,-21.55002432,
608202734,-1.910558828,0.8025499252,25.10223524,
610036678,-0.9439431519,0.8970214793,10.31670994,
611870623,-0.8507807217,0.9066944637,2.56496278,
613704568,-0.8789828928,0.9037552962,-2.32887062,
615538512,-0.9032794162,0.9012308076,-6.649814759,
617372457,-0.9350697054,0.8979383387,-10.9910013,
619206402,-1.454817164,0.8457833702,-18.1676225,
621040346,-1.073210908,0.8837704059,-17.58029021,
622874291,-1.138866499,0.8771152764,-22.40112349,
624708236,-1.299477085,0.861045588,-27.57405969,
626542180,-1.720834712,0.8202727125,-34.22943981,
628376125,-3.90061708,0.6382181431,-42.62858245,
630210070,-2.455581887,0.7537388585,-12.14533266,
632044014,-1.034216841,0.8877468868,-27.57322781,
633877959,-0.8996396358,0.9016085432,-35.52705738,
635711903,-0.989259273,0.8923537157,-42.08970333,
637545848,-1.193321672,0.871633506,-48.88144704,
639379793,-1.356706689,0.8553909784,-47.22166831,
641213737,-1.08801558,0.8822653457,-58.39116567,
643047682,-1.292953405,0.8616925334,-66.54035961,
644881627,-1.632261824,0.8286800982,-75.92479349,
646715571,-2.378400483,0.7604663048,-88.20942786,
648549516,-4.570346331,0.590857406,-104.3384368,
650383461,-10.44573388,0.3004092533,-100.92704,
652217405,-10.12085798,0.3118581521,-73.12817004,
654051350,-13.08853122,0.2216018792,-41.82281466,
655885295,-2.659092512,0.7362840193,-40.1169578,
657719239,-1.540470798,0.8374838871,-72.84884257,
659553184,-2.044102982,0.7903052208,-96.85966124,
661387129,-3.571504183,0.6628645459,-125.4688539,
663221073,-8.731232831,0.3659639938,-179.3961354,
665055018,-9.835041943,0.3222907958,19.33813414,
666888962,-3.991474579,0.6315769491,-48.97212535,
668722907,-5.689077126,0.5194528624,-101.5918335,
670556852,-10.30915227,0.3051703857,-76.11745498,
672390796,-6.42342979,0.4773407493,-38.27305893,
674224741,-3.44548999,0.6725514301,-72.23616807,
676058686,-1.887036525,0.8047262603,-93.4742646,
677892630,-2.277747654,0.7693299101,-132.7073945,
679726575,-5.868614768,0.5088259611,149.388876,
681560520,-5.21925832,0.5483237838,-6.631523508,
683394464,-3.72700047,0.65110342,-82.46890679,
685228409,-4.403941291,0.6022862319,-67.14229471,
687062354,-5.574636528,0.5263421784,-102.1759479,
688896298,-4.725506675,0.5803963415,-135.7014922,
690730243,-11.34780351,0.2707757855,26.42052533,
692564188,-2.824405425,0.7224033126,-73.05743864,
694398132,-2.103759489,0.7848958368,-107.7200955,
696232077,-3.648300138,0.6570296871,-144.2812254,
698066022,-3.306940327,0.6833653964,-114.2437532,
699899966,-2.071410626,0.7878244749,-137.2026619,
701733911,-2.027662875,0.7918024774,-172.6403812,
703567855,-2.997476003,0.7081515333,145.3733933,
705401800,-4.844695665,0.5724864563,74.92899558,
707235745,-5.049445642,0.5591492129,-24.79339147,
709069689,-4.996920045,0.5625407628,-107.5302604,
710903634,-12.41978496,0.2393375008,-177.5518837,
712737579,-5.319393857,0.5420387151,-72.19921559,
714571523,-10.73593415,0.2905382341,144.2888328,
716405468,-2.716340112,0.7314472213,-90.79678348,
718239413,-1.927133559,0.8010199304,-126.9425637,
720073357,-1.91037434,0.8025669716,-152.8525127,
721907302,-3.69397076,0.6535840753,171.4206632,
723741247,-3.681691951,0.6545086679,-151.9866016,
725575191,-3.295140796,0.6842943595,173.8530335,
727409136,-3.54314463,0.665032345,168.555452,
729243081,-3.912676291,0.6373326762,145.4736511,
731077025,-2.611934932,0.7402923362,129.1649182,
732910970,-2.86719175,0.7188535346,105.1490176,
734744914,-3.265812144,0.6866088435,80.83760846,
736578859,-3.692140675,0.6537217976,54.6571719,
738412804,-4.127697594,0.6217490356,24.23358569,
740246748,-9.942807784,0.3183168371,29.62966815,
742080693,-5.294396075,0.5436009365,-14.43020163,
743914638,-5.564788009,0.5269393114,-43.5924832,
745748582,-6.394209588,0.4789492755,-70.6636221,
747582527,-8.845516667,0.3611803934,-90.87148298,
749416472,-6.724379657,0.4610850246,-99.22668718,
751250416,-9.528841348,0.3338550367,-169.0854676,
753084361,-7.451411156,0.4240620829,14.00580072,
754918306,-1.915817695,0.8020641689,-70.78702567,
756752250,-1.91625467,0.8020238192,-114.3810511,
758586195,-3.063866839,0.7027593914,-146.2426043,
760420140,-5.244161324,0.5467539557,-177.8541284,
762254084,-11.67394688,0.260797039,126.9294288,
764088029,-9.009573926,0.3544225156,-42.74740523,
765921973,-2.692428903,0.7334635816,-103.2664089,
767755918,-1.904259328,0.8031321911,-130.9599647,
769589863,-1.218012625,0.8691592745,-153.7381069,
771423807,-1.201386418,0.8708245802,-172.1426364,
773257752,-1.2204362,0.8689167917,174.2539839,
775091697,-1.220892121,0.8688711836,159.229038,
776925641,-1.40396419,0.8507496723,143.7847637,
778759586,-1.980452484,0.7961178763,126.1707755,
780593531,-4.895518524,0.5691465057,110.6084161,
782427475,-5.146168044,0.5529573024,120.0950786,
784261420,-2.383083625,0.7600563973,95.18050665,
786095365,-4.263986605,0.6120694027,38.58021316,
787929309,-3.723465497,0.6513684591,125.047056,
789763254,-4.193062328,0.6170876909,66.40101102,
791597199,-14.86029017,0.1807113755,36.47493858,
793431143,-3.983022066,0.6321918558,88.46743949,
795265088,-2.216552834,0.7747692192,39.55683098,
797099033,-4.358923079,0.6054159327,-3.575836537,
798932977,-5.067463761,0.557990509,-5.046449662,
800766922,-3.860894528,0.6411435441,-26.64388169,
802600866,-4.0405677,0.6280173109,-69.54155377,
804434811,-4.134515231,0.6212612103,-100.6387616,
806268756,-4.87578955,0.5704407241,-123.1253089,
808102700,-4.48002613,0.5970334905,-153.0033722,
809936645,-13.42257113,0.2132413599,-147.0489429,
811770590,-7.308138633,0.4311149351,175.5650037,
813604534,-2.233637999,0.7732467442,-176.3176261,
815438479,-3.145766885,0.6961641514,140.3954735,
817272424,-3.575752298,0.6625404298,131.1401661,
819106368,-3.161676984,0.6948901423,105.6259371,
820940313,-4.017467937,0.6296897198,74.02833894,
822774258,-9.476681665,0.3358659031,42.94808858,
824608202,-8.899035194,0.358961805,94.55668532,
826442147,-3.719866717,0.6516383932,34.92664642,
828276092,-4.94879893,0.565665971,-16.59791393,
830110036,-6.27664112,0.4854762001,-68.495613,
831943981,-10.28458161,0.3060348742,-87.83038939,
833777925,-4.457635281,0.5985745338,-137.125452,
835611870,-4.138152851,0.6210010828,176.9168991,
837445815,-4.287660155,0.6104034678,136.4767686,
839279759,-4.949486142,0.5656212183,97.60752365,
841113704,-6.519279796,0.4721021847,-2.511997588,
842947649,-7.811932529,0.4068210099,112.2385227,
844781593,-5.214005674,0.5486554737,23.76385338,
846615538,-4.688318882,0.5828865791,-48.4168584,
848449483,-4.441973624,0.5996548061,-106.7445473,
850283427,-6.661140478,0.4644542873,-122.0797061,
852117372,-3.503263701,0.6680928362,-165.3890621,
853951317,-4.171193059,0.6186433473,169.3644634,
855785261,-4.454425726,0.5987957561,156.5635038,
857619206,-2.586376208,0.7424738966,144.1022113,
859453151,-3.051387673,0.7037697834,116.5013928,
861287095,-6.443602893,0.476233405,73.05402217,
863121040,-5.067300445,0.5580010007,135.7436004,
864954984,-4.142670321,0.6206781885,100.1477347,
866788929,-6.511509918,0.4725246881,72.43356997,
868622874,-12.65407676,0.2329679413,63.73907298,
870456818,-15.30192082,0.1717528526,108.1759879,
872290763,-12.59617765,0.2345260655,108.0505683,
874124708,-16.18868309,0.1550835899,173.2071897,
875958652,-4.366906537,0.6048597326,144.1831803,
877792597,-3.085299471,0.7010274541,115.5072348,
879626542,-3.511135393,0.6674876433,97.61183912,
881460486,-4.1234738,0.6220514546,89.46573518,
883294431,-4.333718959,0.6071752384,87.64676846,
885128376,-2.667931431,0.7355351444,82.06963622,
886962320,-2.842779558,0.7208767556,61.04371819,
888796265,-4.184731404,0.6176798441,59.04396868,
890630210,-3.640204296,0.6576423691,58.89917883,
892464154,-3.07403151,0.7019374675,40.7337576,
894298099,-5.363974305,0.5392638212,30.6104093,
896132044,-5.275625603,0.5447769449,34.04248348,
897965988,-5.375537702,0.5385463848,21.09267518,
899799933,-5.821223452,0.5116097676,8.475468905,
901633877,-8.825602759,0.362009412,-18.85418661,
903467822,-17.22924352,0.1375744622,130.8731232,
905301767,-3.367219985,0.6786392918,46.97613482,
907135711,-3.750904678,0.6493139988,-9.280553515,
908969656,-11.23869166,0.2741987162,-84.14246426,
910803601,-11.137024,0.2774270476,100.5188771,
912637545,-6.369054164,0.480338383,54.53933923,
914471490,-9.127328002,0.3496500542,39.47244662,
916305435,-9.257825993,0.3444361295,3.954496211,
918139379,-9.091894784,0.3510793299,43.93140283,
919973324,-10.51252203,0.2981081836,9.109969182,
921807269,-8.27263227,0.385805475,0.2187104319,
923641213,-10.68611054,0.2922095954,160.0476127,
925475158,-5.140679586,0.5533068166,64.52090536,
927309103,-4.80159611,0.5753342048,26.06982136,
929143047,-7.85979979,0.4045852173,-16.38107493,
930976992,-13.96433552,0.2003471755,113.4288665,
932810936,-4.098483695,0.6238437311,51.24530977,
934644881,-5.433486938,0.5349653496,17.49074708,
936478826,-4.127177366,0.6217862754,19.20560298,
938312770,-3.199901951,0.6918387805,4.438289959,
940146715,-3.403673583,0.6757970955,-37.41487772,
941980660,-7.272825423,0.4328712366,-24.73886096,
943814604,-12.54445094,0.2359268955,-71.22965856,
945648549,-6.788210236,0.457709038,-174.2076532,
947482494,-2.991463289,0.7086419134,65.77138464,
949316438,-5.663726666,0.5209711414,-3.414967445,
951150383,-12.46307516,0.2381476179,90.27800016,
952984328,-5.686446954,0.5196101815,37.40732128,
954818272,-2.794607473,0.7248858568,19.68180693,
956652217,-2.18530377,0.7775616121,-4.67703379,
958486162,-2.446763556,0.7545044789,-27.8764243,
960320106,-3.620475706,0.6591377948,-78.23436483,
962154051,-8.642242762,0.3697326997,65.69215892,
963987995,-6.159092721,0.492090934,-17.89492077,
965821940,-12.99735855,0.2239402055,-44.66340033,
967655885,-11.66927514,0.2609373472,22.01275414,
969489829,-6.0944398,0.4957674507,9.740169513,
971323774,-4.579278812,0.5902500865,-18.75193321,
973157719,-4.861490618,0.5713805715,-39.92704634,
974991663,-4.756453451,0.5783321389,-72.02119157,
976825608,-9.914892943,0.3193414941,-139.8944035,
978659553,-8.77806256,0.3639962186,121.5770657,
980493497,-8.335156633,0.383038271,24.79511243,
982327442,-21.61611258,0.08302222555,-10.77690645,
984161387,-6.350731991,0.481352687,79.29314078,
985995331,-3.007059916,0.7073705978,57.0937854,
987829276,-1.381376758,0.852964904,25.92669175,
989663221,-1.115143961,0.8795140912,8.123978967,
991497165,-1.440026416,0.8472248375,-5.99037495,
993331110,-2.219184713,0.7745344949,-12.09084312,
995165055,-1.973713889,0.7967357516,-15.91561481,
996998999,-1.733235991,0.8191024038,-21.57516056,
998832944,-1.424288899,0.8487612721,-28.93604574,
1000666888,-1.418754898,0.8493022118,-38.33608005,
1002500833,-2.943603132,0.7125573816,-51.42354273,
1004334778,-1.835872124,0.8094805047,-43.02354872,
1006168722,-2.887583113,0.717167903,-56.82677358,
1008002667,-3.089908127,0.7006555939,-70.40739088,
1009836612,-6.108750394,0.4949513126,8.519599233,
1011670556,-1.459873071,0.8452911976,-38.61818322,
1013504501,-1.33017881,0.8580074513,-55.71857897,
1015338446,-2.137736003,0.7818315642,-79.60536279,
1017172390,-4.829199526,0.5735087175,-73.05879713,
1019006335,-4.093495208,0.6242021204,-39.0924797,
1020840280,-2.03282234,0.7913322822,-67.79527595,
1022674224,-3.602490195,0.6605040581,-62.56133126,
1024508169,-3.571193944,0.6628882222,-72.79784275,
1026342114,-4.128724133,0.6216755588,-79.09728098,
1028176058,-4.226206316,0.6147374683,-71.14888315,
1030010003,-2.154380184,0.7803348279,-88.79045807,
1031843947,-3.576635773,0.6624730437,-116.2295119,
1033677892,-12.6033829,0.2343315984,-141.8610078,
1035511837,-12.74949882,0.2304225927,-12.93155092,
1037345781,-6.704929817,0.4621186641,-39.77199485,
1039179726,-2.994143056,0.7084233172,-58.92543165,
1041013671,-6.012163756,0.5004858601,-85.16199195,
1042847615,-5.299171031,0.543302181,-61.38125033,
1044681560,-5.219384477,0.5483158198,-52.64530953,
1046515505,-2.374716689,0.7607888965,-63.07272893,
1048349449,-2.302394582,0.7671499673,-75.98053631,
1050183394,-2.025254737,0.7920220328,-78.80427272,
1052017339,-1.710478618,0.8212512982,-89.73773877,
1053851283,-3.23273745,0.6892283414,-106.2432392,
1055685228,-5.150476737,0.5526830723,-94.24927667,
1057519173,-1.519642596,0.839494529,-85.49565809,
1059353117,-2.485538223,0.7511438033,-116.2782391,
1061187062,-3.725022855,0.6512516809,-113.4339057,
1063021007,-7.782221085,0.4082149876,-80.24750041,
1064854951,-5.249773616,0.5464007908,-86.85243134,
1066688896,-4.170739037,0.6186756854,-95.34142703,
1068522840,-1.442280223,0.8470050289,-91.36477994,
1070356785,-1.296425857,0.8613481141,-107.8117346,
1072190730,-3.506356939,0.6678549559,-116.6363035,
1074024674,-2.903116452,0.7158865078,-109.875685,
1075858619,-2.910090905,0.7153119077,-127.9389818,
1077692564,-9.305064621,0.3425679817,-87.41190166,
1079526508,-3.621102822,0.6590902072,-123.7739553,
1081360453,-5.769027726,0.5146934171,-94.3861046,
1083194398,-3.305917447,0.6834458766,-102.8408251,
1085028342,-3.427823868,0.673920716,-114.1452624,
1086862287,-2.686815086,0.7339377831,-109.1339083,
1088696232,-2.299912584,0.7673692122,-113.2469016,
1090530176,-2.117669553,0.7836398672,-120.2050613,
1092364121,-1.762092499,0.816385674,-130.2622143,
1094198066,-3.815083634,0.6445339798,-128.573041,
1096032010,-2.098076766,0.7854095211,-127.4248733,
1097865955,-3.250257566,0.6878395153,-139.2680112,
1099699899,-2.067302106,0.7881972127,-129.5755634,
1101533844,-1.868449518,0.8064501446,-145.6856832,
1103367789,-2.118211695,0.7835909567,-148.2299942,
1105201733,-2.374852183,0.7607770288,-164.2683329,
1107035678,-7.28237423,0.4323956224,-150.7175689,
1108869623,-2.225510318,0.773970636,-150.396448,
1110703567,-2.213207167,0.7750677055,168.7772183,
1112537512,-31.58382867,0.02635169569,53.49299471,
1114371457,-9.634954707,0.3298012252,-102.7761113,
1116205401,-7.555609723,0.4190052976,-126.2893687,
1118039346,-2.090940844,0.7860550421,-129.2412987,
1119873291,-2.399919725,0.7585845859,-159.8042547,
1121707235,-4.622649766,0.5873101571,161.7398045,
1123541180,-11.90601518,0.2539213632,45.70705233,
1125375125,-6.289417661,0.4847626121,-61.53109688,
1127209069,-2.371054094,0.7611097673,-89.77524921,
1129043014,-2.033681595,0.7912540032,-113.125,
1130876958,-2.248336093,0.7719393775,-119.6729909,
1132710903,-1.199205657,0.871043245,-125.1259993,
1134544848,-1.099380307,0.8811117335,-134.9847121,
1136378792,-1.484079257,0.8429387855,-141.0151807,
1138212737,-1.76314321,0.8162869237,-145.5597656,
1140046682,-2.088576309,0.7862690567,-145.1749122,
1141880626,-1.533382111,0.8381676494,-146.3831886,
1143714571,-1.412524768,0.8499116095,-153.4643004,
1145548516,-1.303021741,0.8606942725,-154.3690633,
1147382460,-1.245292543,0.8664337737,-161.2885375,
1149216405,-1.425744434,0.8486190531,-165.8066778,
1151050350,-2.418981436,0.7569216513,-168.5968959,
1152884294,-3.272160186,0.6861072219,-176.156868,
1154718239,-1.883930779,0.8050140515,-172.2870654,
1156552184,-2.839560804,0.7211439424,168.6152717,
1158386128,-4.145803474,0.6204543394,-156.966253,
1160220073,-2.717466219,0.7313523969,-176.223533,
1162054018,-4.39571143,0.6028571672,170.4074447,
1163887962,-5.118448243,0.5547248071,-171.0278957,
1165721907,-9.814032237,0.3230713066,-172.6920213,
1167555851,-10.46244235,0.2998319315,-179.899175,
1169389796,-3.386253221,0.6771538296,-149.7296158,
1171223741,-1.815525424,0.8113789358,-161.0405955,
1173057685,-2.713671805,0.7316719565,-175.0686934,
1174891630,-3.083353765,0.7011845073,-155.068979,
1176725575,-1.098661881,0.8811846149,-171.0702471,
1178559519,-1.319368014,0.8590760257,178.1465397,
1180393464,-2.273470972,0.7697087993,168.9584156,
1182227409,-5.980854694,0.5022931613,172.6824253,
1184061353,-2.400674926,0.758518633,-179.3054348,
1185895298,-3.048411433,0.7040109731,173.0766188,
1187729243,-4.176601514,0.6182582557,-179.8723377,
1189563187,-3.399192666,0.6761458187,-175.3838612,
1191397132,-1.747901295,0.8177205937,-174.8913191,
1193231077,-1.071893582,0.8839044512,176.9351417,
1195065021,-1.051182812,0.8860145613,170.9177797,
1196898966,-1.06328815,0.8847806019,165.7946627,
1198732910,-1.151204378,0.8758702618,160.0407401,
1200566855,-2.548401249,0.7457271202,160.0232486,
1202400800,-1.883926389,0.8050144584,158.9121697,
1204234744,-2.14841696,0.7808707442,153.9344596,
1206068689,-2.702996056,0.7325718009,149.3370497,
1207902634,-2.710554399,0.7319346042,148.8329185,
1209736578,-7.781832802,0.4082332363,139.2194858,
1211570523,-4.407261725,0.6020560345,151.7357732,
1213404468,-3.50030797,0.6683202209,159.5275979,
1215238412,-2.646291415,0.7373699405,166.6304489,
1217072357,-2.156028158,0.7801867891,159.1765639,
1218906302,-1.602253304,0.831548022,146.8839619,
