Frequency,S11_Magnitude,S11_Magnitude (linear),S11_Phase,
500000000,-11.57394467,0.2638169932,11.10033495,
501833944,-2.405990091,0.758054614,138.8358803,
503667889,-0.7939184944,0.9126496157,112.5257083,
505501833,-2.020889484,0.7924201781,94.26580139,
507335778,-2.195361782,0.7766617391,107.7170063,
509169723,-1.341755845,0.8568646133,102.9222908,
511003667,-1.109599489,0.8800756915,98.39905133,
512837612,-1.03693702,0.8874689127,94.35505966,
514671557,-1.098607054,0.8811901771,89.81050559,
516505501,-1.09740955,0.8813116732,94.86346818,
518339446,-0.9611157016,0.8952497634,86.92231417,
520173391,-1.096057443,0.8814488751,83.14282794,
522007335,-1.020133251,0.8891874767,82.46780603,
523841280,-0.9366244052,0.8977776298,75.42084014,
525675225,-1.201811214,0.8707819924,69.70139943,
527509169,-1.696196574,0.822602777,61.7494981,
529343114,-3.835389089,0.6430289792,43.37238049,
531177059,-2.939224083,0.7129167126,85.58172657,
533011003,-5.084084651,0.5569237868,68.01840756,
534844948,-5.989904525,0.5017700945,88.07168379,
536678892,-3.527846855,0.6662046463,93.26430025,
538512837,-2.239128347,0.7727581296,87.8067312,
540346782,-1.711478127,0.8211568001,81.83584721,
542180726,-1.534430307,0.8380665071,76.13222382,
544014671,-1.677543194,0.8243712557,69.96610659,
545848616,-3.004752142,0.7075585657,62.48161414,
547682560,-3.183622165,0.6931366958,88.92148656,
549516505,-0.9620845351,0.8951499119,77.52758086,
551350450,-0.7238492235,0.9200417573,70.33236044,
553184394,-0.645889573,0.9283367033,64.16142348,
555018339,-1.041497784,0.8870030451,64.86396716,
556852284,-0.7926861787,0.9127791076,59.13609906,
558686228,-0.9575663886,0.8956156639,52.32747338,
560520173,-2.048541809,0.7899014473,58.90407663,
562354118,-1.374524352,0.8536380841,60.43094991,
564188062,-1.005928923,0.8906427845,54.23064579,
566022007,-0.9589401556,0.8954740238,50.45452726,
567855951,-0.9708259464,0.8942494932,47.13435942,
569689896,-1.033596881,0.8878102525,43.85726311,
571523841,-1.197131856,0.8712512359,40.3955183,
573357785,-1.755658655,0.8169906142,36.79301838,
575191730,-1.109061796,0.8801301735,44.15083073,
577025675,-1.79345147,0.8134435624,37.39024023,
578859619,-1.375867623,0.8535060793,38.85029109,
580693564,-1.005824743,0.8906534671,35.39214354,
582527509,-0.8885858619,0.9027566721,31.78506676,
584361453,-0.8894494217,0.9026669236,28.13701908,
586195398,-0.919770416,0.8995213572,24.98631525,
588029343,-0.9787738528,0.8934315965,21.84425325,
589863287,-1.055779324,0.8855458126,18.76842234,
591697232,-1.115158325,0.8795126367,15.15040089,
593531177,-1.900953955,0.8034378773,2.443209043,
595365121,-1.376788737,0.8534155723,18.08161201,
597199066,-1.17131534,0.8738446527,12.90690922,
599033011,-1.108212886,0.8802161968,9.124711846,
600866955,-1.086976266,0.8823709198,5.409926288,
602700900,-1.111407265,0.8798925422,1.285113707,
604534844,-1.279577608,0.8630205151,-4.175563109,
606368789,-3.31581614,0.6826674454,-9.514389915,
608202734,-1.459558088,0.8453218515,1.122371371,
610036678,-1.141142525,0.8768854697,-5.859878423,
611870623,-1.095268276,0.8815289638,-11.07565346,
613704568,-1.206349356,0.8703271511,-15.29604921,
615538512,-1.224872756,0.868473082,-20.26557061,
617372457,-1.291278808,0.8618586794,-25.8479968,
619206402,-1.662071117,0.8258410075,-33.40083324,
621040346,-2.315895875,0.7659584405,-38.18021863,
622874291,-3.082078727,0.7012874447,-43.62414634,
624708236,-4.268008893,0.6117860294,-46.35593342,
626542180,-4.965948253,0.5645502283,-44.06930947,
628376125,-4.712975696,0.5812342734,-46.68251853,
630210070,-5.097381581,0.5560718635,-61.78681069,
632044014,-11.05673374,0.2800034053,-114.062902,
633877959,-5.076206036,0.5574291787,32.98703118,
635711903,-1.788250089,0.8139308236,-3.590694451,
637545848,-1.621013713,0.829753923,-29.12423046,
639379793,-2.664835244,0.7357973812,-44.44110059,
641213737,-4.158425707,0.6195533572,-26.91862924,
643047682,-1.537603234,0.8377604201,-52.62054552,
644881627,-5.962541977,0.5033532779,-66.78867987,
646715571,-3.192580093,0.6924222189,-43.83736702,
648549516,-2.236637297,0.7729797828,-60.32411351,
650383461,-2.788006692,0.7254369381,-75.48880281,
652217405,-5.456972862,0.5335208016,-89.90244211,
654051350,-7.341610514,0.4294567907,-52.31949209,
655885295,-2.137319491,0.781869056,-72.42409728,
657719239,-2.454593105,0.7538246674,-115.2497555,
659553184,-12.83767049,0.228095373,56.3049901,
661387129,-3.223213701,0.6899844685,-52.19033604,
663221073,-2.528443664,0.7474425488,-85.43403884,
665055018,-3.821162879,0.644083029,-117.183408,
666888962,-12.62565279,0.2337315616,-160.7722402,
668722907,-9.984318724,0.316799191,-40.76180683,
670556852,-5.029735058,0.5604195113,-66.68228828,
672390796,-3.030112931,0.7054956714,-106.3698617,
674224741,-7.818275256,0.406524044,-124.1469296,
676058686,-3.706081857,0.6526733909,-151.4417793,
677892630,-5.546415681,0.528055069,137.2404592,
679726575,-3.89128737,0.6389040359,29.61525778,
681560520,-7.432936209,0.4249650259,-45.28793187,
683394464,-2.593036105,0.7419048236,-61.10381381,
685228409,-2.971028364,0.7103110679,-103.6654296,
687062354,-2.876552216,0.7180792697,-112.6187787,
688896298,-2.717917893,0.7313143669,-156.3608141,
690730243,-5.934839054,0.5049612442,91.12751592,
692564188,-2.764776014,0.7273797383,-72.5228643,
694398132,-2.179002085,0.7781259442,-138.1567236,
696232077,-3.144611318,0.6962567749,155.206381,
698066022,-5.803460698,0.5126570866,-22.70831326,
699899966,-4.020855434,0.6294441887,-151.1779339,
701733911,-5.112420163,0.5551099244,97.49081905,
703567855,-4.419480906,0.6012096664,-58.24178508,
705401800,-12.87295534,0.2271706564,91.87111225,
707235745,-8.350989581,0.3823406912,-65.49583962,
709069689,-7.221579715,0.4354326737,-126.3593792,
710903634,-8.73412553,0.3658421355,164.2409129,
712737579,-13.51242667,0.2110467489,-76.02661868,
714571523,-4.655393441,0.5851003096,51.71812537,
716405468,-3.373599544,0.678141032,-55.83271994,
718239413,-12.21518715,0.2450420644,-73.77111848,
720073357,-3.881311125,0.6396382755,-129.7182782,
721907302,-4.744385951,0.5791361871,158.788919,
723741247,-4.29533292,0.6098645,56.72311897,
725575191,-3.880973669,0.6396631266,-27.27911159,
727409136,-3.760198753,0.6486195915,-43.38986733,
729243081,-2.036253995,0.7910197013,-82.82921678,
731077025,-1.42480726,0.8487106208,-112.1868121,
732910970,-1.291127849,0.8618736585,-140.2909422,
734744914,-1.543595326,0.8371826777,-170.193316,
736578859,-1.905338914,0.8030323744,150.5192198,
738412804,-17.47665704,0.1337110034,44.51437464,
740246748,-13.84194326,0.203190237,123.6354342,
742080693,-18.13697533,0.1239228046,89.69790741,
743914638,-25.90508213,0.05066941539,78.6991607,
745748582,-22.33293298,0.07644575088,97.05402661,
747582527,-13.20668008,0.2186079723,49.13638303,
749416472,-4.985716527,0.5632668257,-67.64485281,
751250416,-5.738875017,0.516483259,36.18278633,
753084361,-2.638637765,0.738019967,-31.50191812,
754918306,-1.679340916,0.8242006529,-71.92201816,
756752250,-1.430764709,0.8481287096,-104.4987863,
758586195,-1.532126025,0.8382888675,-138.60721,
760420140,-2.304625568,0.7669529488,166.8339761,
762254084,-3.859636735,0.6412363941,35.78368726,
764088029,-2.202394795,0.7760331263,-68.64457343,
765921973,-1.933012061,0.8004779935,-112.5097501,
767755918,-6.680830148,0.4634026282,-115.9281363,
769589863,-1.300167364,0.8609771623,-141.6533289,
771423807,-1.27694874,0.8632817561,-166.1782872,
773257752,-4.53819575,0.593048501,162.8590364,
775091697,-5.52281263,0.5294919581,-165.5555066,
776925641,-1.798056855,0.8130123771,173.303404,
778759586,-1.214957506,0.8694650408,142.0492025,
780593531,-2.150530798,0.780680731,112.9778266,
782427475,-2.783036589,0.725852155,58.13195259,
784261420,-4.646390234,0.5857070996,-29.26250181,
786095365,-12.45817563,0.2382819901,131.2873146,
787929309,-8.005850794,0.3978390968,-67.75207559,
789763254,-3.448758602,0.6722983879,-121.9775785,
791597199,-2.110092616,0.7843237558,-160.3851032,
793431143,-2.172059224,0.7787481695,167.9148024,
795265088,-2.066090045,0.7883072083,133.1322968,
797099033,-3.87648666,0.639993653,77.82214232,
798932977,-11.49310331,0.2662838543,-19.70423198,
800766922,-12.61831671,0.2339290541,-160.7957013,
802600866,-10.18595294,0.3095297185,54.48687369,
804434811,-3.198795727,0.6919268979,-91.06407237,
806268756,-6.384638633,0.479477319,-163.2488671,
808102700,-4.718415101,0.5808703982,-162.9187237,
809936645,-2.477679154,0.7518237524,179.9372593,
811770590,-2.894148399,0.7166260317,152.8706742,
813604534,-4.937373989,0.5664105064,114.5759048,
815438479,-16.62236122,0.1475305424,-8.231008556,
817272424,-16.10657998,0.1565564631,125.546029,
819106368,-3.703392072,0.6528755375,-145.2522435,
820940313,-1.788745726,0.8138843801,161.5916315,
822774258,-3.845635937,0.6422708375,122.1791786,
824608202,-11.63603605,0.2619378133,145.8062539,
826442147,-5.090309647,0.5565247941,123.2364895,
828276092,-3.344987522,0.6803785665,174.2246647,
830110036,-2.22961578,0.7736048984,114.2636982,
831943981,-8.640500821,0.3698068564,30.59753577,
833777925,-5.692092154,0.5192725822,-142.3836296,
835611870,-2.246498817,0.7721026787,162.3233566,
837445815,-1.500532862,0.8413435253,137.2610719,
839279759,-1.350361517,0.8560160826,116.7872918,
841113704,-1.569190262,0.834719361,99.85334186,
842947649,-6.731478323,0.4607083503,51.96831397,
844781593,-4.96299667,0.5647421027,116.4177916,
846615538,-2.999372434,0.7079969361,86.01387845,
848449483,-4.526672654,0.5938357882,46.80292425,
850283427,-14.96964162,0.1784505617,-168.7840471,
852117372,-2.622824728,0.739364788,37.93408616,
853951317,-4.454928472,0.5987610984,-122.4319534,
855785261,-2.420008221,0.7568321787,163.334608,
857619206,-1.821057166,0.8108623612,130.6820001,
859453151,-1.917191169,0.8019373509,108.9156139,
861287095,-2.847858674,0.7204553427,109.0522803,
863121040,-3.037681212,0.7048812191,85.96171352,
864954984,-7.67936401,0.4130777469,67.30964127,
866788929,-2.234555689,0.7731650527,111.7957933,
868622874,-1.637984389,0.8281343148,87.6823882,
870456818,-2.07225784,0.787747635,71.58899013,
872290763,-4.789535949,0.5761335981,92.23370105,
874124708,-3.004434913,0.7075844079,76.22395855,
875958652,-2.003190384,0.7940365264,75.38594091,
877792597,-1.397575701,0.8513756306,63.03245845,
879626542,-1.29858357,0.8611341681,57.63024587,
881460486,-0.9351593874,0.8979290675,46.7304517,
883294431,-1.0685845,0.8842412583,34.67660281,
885128376,-2.105102296,0.7847745042,24.68960709,
886962320,-4.49350507,0.5961077203,0.9470098098,
888796265,-5.094068398,0.5562840145,37.14702361,
890630210,-2.81781359,0.7229517619,21.84814562,
892464154,-4.020945224,0.6294376819,-12.84686599,
894298099,-5.893670029,0.5073603199,62.65265095,
896132044,-3.020543253,0.7062733795,28.09835601,
897965988,-4.40832505,0.6019823354,-19.898974,
899799933,-3.767730991,0.6480573647,38.73642815,
901633877,-3.544308724,0.6649432225,-4.824167299,
903467822,-10.19581157,0.3091785965,-138.2009109,
905301767,-2.593091614,0.7419000823,28.86989146,
907135711,-1.820377892,0.8109257766,-8.562715699,
908969656,-1.694158077,0.8227958569,-30.85342143,
910803601,-5.013375079,0.561476063,-111.5053041,
912637545,-9.078929596,0.3516037677,78.87956629,
914471490,-8.89396911,0.3591712321,28.44643782,
916305435,-11.52157166,0.2654125269,20.44809213,
918139379,-4.610425809,0.5881372812,18.00985444,
919973324,-7.084153129,0.4423768008,19.92123784,
921807269,-2.29806616,0.767532355,-20.65467161,
923641213,-8.560079585,0.3732467379,28.32958386,
925475158,-5.980786985,0.5022970768,-3.960020508,
927309103,-2.611327242,0.740344131,-22.07597676,
929143047,-2.517524302,0.7483827781,-80.22714908,
930976992,-10.91918997,0.2844726388,-127.4889996,
932810936,-18.39023751,0.1203616477,-97.81816226,
934644881,-3.035958761,0.7050210141,122.8863047,
936478826,-1.667558265,0.8253194627,68.79999112,
938312770,-1.47094355,0.8442145298,37.14666042,
940146715,-2.200777732,0.7761776148,12.98754236,
941980660,-3.183858061,0.6931178715,-16.95160755,
943814604,-2.499835547,0.7499084075,11.53738981,
945648549,-3.737822784,0.6502926731,-16.19275114,
947482494,-3.443229373,0.6727264932,-7.238832315,
949316438,-1.377491768,0.8533465,-23.15638056,
951150383,-3.14300373,0.6963856503,-42.66883051,
952984328,-2.438871841,0.7551903085,-58.25013744,
954818272,-7.185481314,0.4372460897,-43.1520252,
956652217,-5.188441324,0.5502726576,-119.1311787,
958486162,-12.11472113,0.2478928173,125.5314064,
960320106,-8.569141072,0.3728575542,4.939247468,
962154051,-2.00349701,0.794008496,-39.3024567,
963987995,-3.659519185,0.6561815888,-111.0058349,
965821940,-13.98400575,0.1998939787,-107.8821947,
967655885,-7.980308465,0.3990107319,110.7281463,
969489829,-10.01125907,0.3158181217,24.44769012,
971323774,-5.664427745,0.520929093,-16.43753053,
973157719,-2.894368867,0.7166078423,-104.6325554,
974991663,-4.974110132,0.5640199859,101.5491173,
976825608,-13.10800266,0.2211056634,20.17965633,
978659553,-2.281409355,0.7690056528,26.6330619,
980493497,-1.883406182,0.805062673,-11.48747756,
982327442,-1.696981521,0.8225284415,-37.12693313,
984161387,-1.829714609,0.810054557,-69.21321844,
985995331,-3.693548029,0.6536158851,-128.6493137,
987829276,-7.325338799,0.4302620678,35.32118175,
989663221,-3.554453527,0.6641670464,-91.44974745,
991497165,-3.717354616,0.6518268849,137.2801803,
993331110,-3.132363536,0.6972392438,60.97713402,
995165055,-2.099870138,0.7852473747,24.78651534,
996998999,-1.37429092,0.8536610258,-4.52144316,
998832944,-2.407441116,0.7579279874,-31.69633714,
1000666888,-5.628618687,0.5230811449,-56.84045947,
1002500833,-16.37932209,0.1517168773,41.27233043,
1004334778,-2.48031855,0.7515953292,5.556400539,
1006168722,-1.10803135,0.8802345936,-24.0537038,
1008002667,-1.259099877,0.8650575605,-51.7513152,
1009836612,-2.668393472,0.7354960191,-15.83701885,
1011670556,-1.367595217,0.8543193423,-59.43543938,
1013504501,-5.891286839,0.507499546,-82.9317481,
1015338446,-13.48992837,0.2115941135,83.39487785,
1017172390,-2.956174265,0.7115268395,-56.76660142,
1019006335,-5.000252638,0.5623249692,-88.61063395,
1020840280,-25.84679894,0.05101055552,176.818675,
1022674224,-2.989161466,0.7088297334,-2.19318113,
1024508169,-2.59388917,0.7418319627,-14.41295252,
1026342114,-1.983677855,0.7958223051,-38.41031861,
1028176058,-2.666954141,0.7356179075,-53.39878002,
1030010003,-5.328711009,0.5414575946,-40.3188206,
1031843947,-8.563062858,0.3731185638,-21.54339222,
1033677892,-2.164955371,0.7793853379,-55.35940085,
1035511837,-1.600626434,0.8317037858,-45.83312571,
1037345781,-2.317133105,0.7658493441,-62.10780551,
1039179726,-6.677984342,0.4635544802,-62.86819706,
1041013671,-1.206585459,0.870303494,-60.07711152,
1042847615,-1.126908167,0.8783236799,-68.95688624,
1044681560,-0.9522278981,0.8961662932,-78.66750216,
1046515505,-2.17179905,0.7787714962,-81.24407621,
1048349449,-1.285763042,0.862406156,-69.12261585,
1050183394,-0.9442307689,0.8969917766,-79.81814043,
1052017339,-1.647826612,0.8271964642,-86.00613547,
1053851283,-1.003308785,0.8909114915,-85.51722987,
1055685228,-0.843163795,0.907489921,-91.2350693,
1057519173,-0.9090344172,0.9006338778,-97.40699555,
1059353117,-1.064358077,0.8846716215,-102.610276,
1061187062,-4.774734786,0.5771161938,-96.80875061,
1063021007,-1.133840699,0.8776229368,-95.49439391,
1064854951,-0.9609950736,0.8952621966,-106.3533272,
1066688896,-1.216139843,0.8693466959,-105.1214404,
1068522840,-1.899319132,0.8035891113,-113.2601283,
1070356785,-1.041762266,0.8869760367,-113.2785606,
1072190730,-2.084518215,0.7866364917,-120.8704239,
1074024674,-1.191055899,0.8718609072,-117.3255035,
1075858619,-1.207609156,0.8702009282,-125.4327186,
1077692564,-1.256710111,0.8652955982,-134.6825592,
1079526508,-9.792084045,0.323888701,-127.372895,
1081360453,-1.897383717,0.8037681893,-138.4449561,
1083194398,-13.83397129,0.203376812,-78.39032538,
1085028342,-2.196090857,0.7765965505,-130.9624501,
1086862287,-2.326279457,0.7650433195,-126.3171764,
1088696232,-2.063206625,0.7885689429,-166.4830336,
1090530176,-7.312416289,0.4309026704,-80.01479423,
1092364121,-2.100347372,0.7852042316,-125.1852051,
1094198066,-3.451756152,0.672066414,-162.9183822,
1096032010,-5.794148751,0.5132069894,128.2962114,
1097865955,-2.55378921,0.7452646802,-71.60953798,
1099699899,-1.254901141,0.865475828,-104.8192599,
1101533844,-1.180967337,0.872874152,-116.9193943,
1103367789,-1.414174092,0.849750239,-131.0421296,
1105201733,-3.557774871,0.6639131282,-154.864795,
1107035678,-2.250946083,0.7717074552,-118.6237428,
1108869623,-2.34659708,0.7632558577,-119.1806983,
1110703567,-1.10870756,0.8801660686,-136.8505803,
1112537512,-4.061929093,0.6264747123,-142.2392233,
1114371457,-1.039889228,0.8871673261,-144.270577,
1116205401,-0.8305633851,0.90880735,-151.2925311,
1118039346,-1.454125707,0.8458507031,-167.5767187,
1119873291,-2.336435788,0.7641492841,-172.2264752,
1121707235,-6.007818679,0.5007362886,-149.5515788,
1123541180,-4.741967911,0.5792974335,-154.0230499,
1125375125,-2.146053176,0.7810832798,-148.5382066,
1127209069,-2.060691351,0.788797331,-170.7709619,
1129043014,-2.261347634,0.770783871,-148.8789845,
1130876958,-1.396818948,0.8514498094,-170.826843,
1132710903,-4.073056175,0.625672679,-162.9075138,
1134544848,-15.10884356,0.1756134691,165.0911475,
1136378792,-2.898108328,0.7162993938,-171.9728902,
1138212737,-8.502674345,0.3757217035,82.86849302,
1140046682,-1.975858152,0.7965390878,-114.8565288,
1141880626,-3.260619519,0.6870194367,-132.1614007,
1143714571,-4.094087479,0.6241595589,-166.7753528,
1145548516,-1.517015731,0.8397484549,-148.1759646,
1147382460,-1.277558823,0.8632211228,-160.5976657,
1149216405,-1.528491565,0.8386397084,-177.1157656,
1151050350,-2.524301988,0.7477990354,-152.686321,
1152884294,-0.9796151432,0.8933450654,-170.6935417,
1154718239,-1.109846164,0.8800506981,177.629091,
1156552184,-1.840573514,0.8090424778,159.382894,
1158386128,-3.943973355,0.6350403665,-178.4803999,
1160220073,-4.059211017,0.6266707857,175.631201,
1162054018,-3.171132886,0.694134061,-162.2188382,
1163887962,-6.792952667,0.4574592005,-118.5261583,
1165721907,-1.81002603,0.8118928159,-169.4943012,
1167555851,-2.492812381,0.7505150075,177.1074021,
1169389796,-2.261366552,0.7707821923,-174.7890053,
1171223741,-1.046523518,0.8864899656,170.9020728,
1173057685,-1.479377616,0.8433951888,154.8502176,
1174891630,-4.203215567,0.616366777,91.9755958,
1176725575,-1.720282968,0.8203248195,-166.967641,
1178559519,-1.186231348,0.8723453142,167.2807552,
1180393464,-1.972954731,0.7968053904,140.6371303,
1182227409,-9.45725913,0.3366177738,78.51816196,
1184061353,-6.397936606,0.4787438078,-177.945341,
1185895298,-8.310902576,0.3841093432,173.0378849,
1187729243,-9.144700486,0.3489514246,-179.3862084,
1189563187,-3.600281017,0.6606720727,-117.1071142,
1191397132,-1.606645442,0.8311276447,-162.0536049,
1193231077,-6.596492964,0.4679240333,169.9060833,
1195065021,-2.986169428,0.7090739469,175.900176,
1196898966,-1.679521188,0.8241835471,174.7730327,
1198732910,-2.199090549,0.7763283974,169.6327084,
1200566855,-8.036860322,0.3964213023,130.4939143,
1202400800,-1.555555216,0.8360307263,-173.5843446,
1204234744,-1.696100284,0.8226118962,169.6706941,
1206068689,-3.454110691,0.6718842573,135.6432325,
1207902634,-1.707021672,0.8215782177,168.2554687,
1209736578,-1.159783989,0.8750055356,163.6435671,
1211570523,-1.970783964,0.797004552,139.9627114,
1213404468,-11.40743736,0.2689231142,158.6183843,
1215238412,-2.611163094,0.7403581223,174.7627127,
1217072357,-11.42780159,0.2682933575,163.9262898,
1218906302,-1.241814384,0.8667807961,163.5630159,
1220740246,-6.596559439,0.4679204522,171.9409473,
