Frequency,S11_Magnitude,S11_Magnitude (linear),S11_Phase,
500000000,-0.6468468554,0.9282343959,100.440439,
501833944,-5.137227994,0.553526733,131.8375409,
503667889,-0.6557817744,0.9272800394,102.7613493,
505501833,-3.695936617,0.6534361679,125.1120953,
507335778,-0.7369680294,0.9186532134,107.766381,
509169723,-0.6292752488,0.9301141203,103.0805899,
511003667,-0.6054341054,0.9326706166,99.84909022,
512837612,-0.5945135343,0.9338439796,96.86454362,
514671557,-0.5992784574,0.9333318301,93.54035901,
516505501,-0.6480482984,0.9281060102,88.17454783,
518339446,-7.980294334,0.3990113811,52.18209204,
520173391,-0.763300458,0.9158724115,97.6875921,
522007335,-1.093571634,0.8817011725,97.04853165,
523841280,-0.629128361,0.9301298497,90.68051062,
525675225,-0.6180726903,0.9313145017,87.50631753,
527509169,-0.6930407851,0.9233108961,83.55552666,
529343114,-0.6048870835,0.9327293564,85.73286863,
531177059,-0.5873180003,0.9346179119,82.27376137,
533011003,-0.585856981,0.9347751335,79.83578662,
534844948,-0.5847867601,0.9348903177,77.48732231,
536678892,-0.5830230063,0.9350801755,74.81171022,
538512837,-2.059255876,0.7889277025,72.21723029,
540346782,-0.6457612969,0.9283504134,72.33642721,
542180726,-0.626372717,0.9304249851,69.17596706,
544014671,-0.6316176784,0.9298633189,65.48741345,
545848616,-0.7162330502,0.9208488445,57.43412925,
547682560,-1.277190404,0.8632577378,92.528914,
549516505,-0.6497702478,0.9279220345,69.85895599,
551350450,-0.6310838707,0.9299204672,65.15067219,
553184394,-0.6298836073,0.9300489775,61.94210198,
555018339,-0.6350709106,0.9294937084,58.77938278,
556852284,-0.992529117,0.8920178482,49.80474669,
558686228,-0.6653972641,0.926254086,55.02672725,
560520173,-1.050594521,0.8860745726,44.84200568,
562354118,-0.7072374804,0.9218030186,56.17198447,
564188062,-0.6849418925,0.9241722106,50.51292713,
566022007,-0.8732561948,0.904351348,52.68775115,
567855951,-0.6643858375,0.9263619497,47.54007159,
569689896,-0.6564266368,0.9272111984,44.55465092,
571523841,-0.6628144633,0.9265295541,41.46751823,
573357785,-0.7066160873,0.9218689673,36.70381346,
575191730,-2.267081952,0.770275177,56.43130048,
577025675,-0.7510510175,0.9171649491,40.19041261,
578859619,-0.7197630099,0.9204746861,36.4331098,
580693564,-0.7952349899,0.9125112985,33.60102235,
582527509,-0.6841740443,0.9242539127,31.19611234,
584361453,-0.6923010804,0.9233895301,28.59141533,
586195398,-0.694342364,0.9231725485,25.91195493,
588029343,-0.7506317682,0.9172092197,22.03276736,
589863287,-0.8213279266,0.9097741728,22.84724477,
591697232,-0.7648846143,0.9157053874,19.37363106,
593531177,-0.7903126006,0.9130285753,16.00007043,
595365121,-1.095623231,0.8814929403,15.03482196,
597199066,-1.901716544,0.8033673415,5.054733741,
599033011,-0.8335868378,0.9084910602,17.58015909,
600866955,-0.7006559668,0.9225017563,11.11978113,
602700900,-0.9654356589,0.8948046186,7.53099843,
604534844,-0.7647221668,0.9157225135,5.260081977,
606368789,-0.7574111535,0.9164936121,2.139702645,
608202734,-0.7648572326,0.9157082741,-0.9448648989,
610036678,-0.7782916925,0.9142930434,-4.182548485,
611870623,-0.8015499849,0.9118481068,-7.802662508,
613704568,-0.8619088821,0.9055335716,-12.62534343,
615538512,-1.300893568,0.8609051813,-24.41598212,
617372457,-1.278828782,0.8630949209,0.6582406429,
619206402,-1.868110936,0.8064815811,-18.80364854,
621040346,-0.7998456449,0.9120270467,-13.25805619,
622874291,-0.8290571814,0.9089649582,-18.69805861,
624708236,-0.8951673725,0.9020728904,-23.11436212,
626542180,-1.096829525,0.8813705272,-27.66997323,
628376125,-1.256234713,0.8653429591,-25.90322232,
630210070,-0.8030013016,0.9116957597,-33.42717354,
632044014,-0.9041441135,0.9011410928,-40.39208299,
633877959,-1.115936183,0.8794338762,-51.13967672,
635711903,-5.650780006,0.5217482483,-103.6851378,
637545848,-1.450247973,0.8462284095,-14.75277086,
639379793,-1.682582144,0.8238931514,-36.00932854,
641213737,-0.8375844563,0.9080730299,-38.22519828,
643047682,-0.846519478,0.9071393915,-41.5512979,
644881627,-0.770699056,0.915092608,-47.87722333,
646715571,-0.7769232501,0.9144370996,-52.94192061,
648549516,-0.7888750363,0.9131796992,-57.71375201,
650383461,-0.813964303,0.9105457777,-62.59844933,
652217405,-0.8503205309,0.9067425029,-67.81540396,
654051350,-0.9207581167,0.8994190755,-73.98802893,
655885295,-1.157412379,0.8752444812,-83.25474807,
657719239,-8.263712533,0.3862018709,-109.827552,
659553184,-1.083451916,0.8827290196,-74.02936067,
661387129,-1.446562966,0.8465874999,-95.70848622,
663221073,-1.308184951,0.8601827964,-75.72845339,
665055018,-1.034702037,0.8876972984,-93.72665639,
666888962,-1.728725505,0.819527865,-115.2687554,
668722907,-1.668749139,0.8252063155,-99.32396678,
670556852,-2.097752246,0.785438866,-128.2267902,
672390796,-11.19066607,0.2757190011,66.65900222,
674224741,-7.918247445,0.4018718885,-32.93443392,
676058686,-1.266909025,0.8642801701,-78.1074672,
677892630,-1.178416645,0.8731305173,-96.80821087,
679726575,-3.152363423,0.6956356471,-124.2913073,
681560520,-1.000208001,0.8912295956,-97.63522341,
683394464,-0.899078357,0.9016668067,-111.655132,
685228409,-0.890119355,0.9025973046,-120.8835094,
687062354,-0.9252920688,0.8989497098,-130.0742074,
688896298,-1.125330176,0.878483262,-140.8538569,
690730243,-2.532505568,0.7470930935,-169.6036701,
692564188,-1.53489593,0.8380215823,-130.4775241,
694398132,-1.099940203,0.8810549385,-152.8696827,
696232077,-1.335546251,0.8574774099,-177.2402859,
698066022,-7.351244688,0.4289807119,-141.8473864,
699899966,-2.037964579,0.7908639346,-147.1821423,
701733911,-2.184097455,0.777669609,167.1926355,
703567855,-2.143357612,0.7813257174,-138.2189431,
705401800,-2.878602521,0.717909787,-176.1265762,
707235745,-1.465340483,0.8447592887,171.0453945,
709069689,-1.747233524,0.8177834624,145.0186144,
710903634,-3.327265494,0.6817681763,87.45072894,
712737579,-4.308466303,0.6089430594,-84.51278936,
714571523,-2.119609376,0.7834648762,-164.9985345,
716405468,-2.457253812,0.7535937873,163.6910724,
718239413,-4.332959488,0.6072283306,120.8421088,
720073357,-13.86749768,0.2025933175,-66.91684157,
721907302,-2.418751894,0.7569416548,-173.1159153,
723741247,-2.149901777,0.7807372689,142.5220453,
725575191,-7.885314698,0.4033984871,-98.96262212,
727409136,-1.583658188,0.8333301417,151.0025385,
729243081,-3.756460576,0.6488988003,92.42854547,
731077025,-8.253353507,0.3866627404,166.4105459,
732910970,-1.345663287,0.8564792301,141.4783187,
734744914,-1.238629369,0.8670986929,121.7165595,
736578859,-1.255394912,0.8654266294,106.5831662,
738412804,-1.308925793,0.8601094323,92.51285593,
740246748,-2.546430992,0.7458962958,81.67526625,
742080693,-1.400657186,0.8510736424,65.85124374,
743914638,-1.488434546,0.8425162241,49.72885136,
745748582,-1.606955646,0.8310979627,31.01456431,
747582527,-1.792278497,0.8135534201,6.710266944,
749416472,-2.144584314,0.7812153792,-31.41114025,
751250416,-2.963498935,0.7109270734,-112.0739138,
753084361,-6.694542511,0.4626716344,69.4968745,
754918306,-1.879663873,0.8054096084,100.0170869,
756752250,-2.761229377,0.7276768038,17.05091044,
758586195,-3.52021821,0.6667900176,-77.37863118,
760420140,-1.761600523,0.816431916,78.44760974,
762254084,-1.397858293,0.8513479318,30.93778379,
764088029,-1.409134537,0.8502434073,4.091832149,
765921973,-1.556869023,0.8359042799,-19.79636023,
767755918,-2.603366897,0.7410229442,-56.15354575,
769589863,-2.839719392,0.7211307758,4.073392936,
771423807,-1.41242352,0.8499215166,-43.29538317,
773257752,-1.702394185,0.8220160376,-75.76704226,
775091697,-1.698711916,0.8223645944,-69.69473159,
776925641,-1.576866578,0.8339819881,-101.5992673,
778759586,-2.264983149,0.7704613238,-127.6356972,
780593531,-4.720193516,0.5807514786,108.3870575,
782427475,-2.645965451,0.7373976131,-130.847357,
784261420,-4.164183797,0.6191427762,31.99636396,
786095365,-6.425912282,0.4772043412,-86.08963934,
787929309,-1.866143045,0.8066643198,-70.14059829,
789763254,-1.447600787,0.8464863527,-106.6589416,
791597199,-1.737309781,0.8187183246,-138.8098,
793431143,-23.83501855,0.06430564115,-98.05062592,
795265088,-2.545088819,0.7460115631,-147.9836918,
797099033,-6.355571221,0.4810845823,122.0419069,
798932977,-3.152042773,0.6956613278,-103.94443,
800766922,-3.55090106,0.6644387415,-169.2860815,
802600866,-1.753909121,0.8171551911,-158.6344814,
804434811,-3.049453346,0.7039265288,159.90345,
806268756,-6.925696616,0.4505211346,-154.2558459,
808102700,-4.193423801,0.6170620106,144.6419227,
809936645,-3.026702723,0.7057727137,107.5510517,
811770590,-6.861605173,0.4538577349,38.1982727,
813604534,-2.546296484,0.7459078466,-53.57309346,
815438479,-2.516090595,0.7485063176,-120.9747647,
817272424,-9.511724488,0.3345135972,-144.6463531,
819106368,-4.548718552,0.5923304682,-129.1109698,
820940313,-1.616318893,0.8302025354,-163.4491702,
822774258,-1.432512739,0.8479580414,176.807124,
824608202,-1.471839685,0.8441274355,158.5624299,
826442147,-2.085458788,0.7865513135,133.0649271,
828276092,-11.56801088,0.2639972822,-167.8712256,
830110036,-3.399312382,0.6761364996,-161.9154941,
831943981,-1.676058732,0.8245121569,153.0343498,
833777925,-1.470738929,0.8442344179,131.5838562,
835611870,-5.166340738,0.5516745674,121.8398436,
837445815,-2.766496406,0.7272356823,102.0389591,
839279759,-6.928965716,0.4503516043,60.74186084,
841113704,-7.339624188,0.4295550119,163.9773212,
842947649,-3.860988042,0.6411366415,76.94932538,
844781593,-2.007522478,0.7936405988,170.9374828,
846615538,-1.282369972,0.8627431135,127.9921087,
848449483,-1.608599005,0.8309407349,105.8581949,
850283427,-8.043405419,0.3961226986,35.68268094,
852117372,-1.111854315,0.8798472567,100.684227,
853951317,-1.413497578,0.8498164257,71.79647657,
855785261,-8.234341928,0.3875099905,160.2986135,
857619206,-1.287505737,0.8622331443,90.32521515,
859453151,-1.132708501,0.8777373416,70.39007357,
861287095,-2.968216253,0.7105410728,47.46192393,
863121040,-0.9138346422,0.9001362833,47.68332229,
864954984,-1.030727587,0.8881035798,27.756122,
866788929,-1.339223371,0.8571144788,2.139609151,
868622874,-8.855318036,0.3607730585,-57.65830204,
870456818,-4.407386298,0.6020473999,-79.3148951,
872290763,-9.056216954,0.3525243758,88.33438395,
874124708,-5.042424841,0.5596013557,-118.6150122,
875958652,-2.691045016,0.7335804507,135.0093385,
877792597,-2.970311777,0.710369671,76.57987212,
879626542,-3.80886002,0.6449959668,64.16789105,
881460486,-3.432399318,0.6735658096,25.81476843,
883294431,-11.87546125,0.2548161428,-91.92257908,
885128376,-6.090982215,0.4959648397,20.42274007,
886962320,-13.56100468,0.2098697117,164.2624814,
888796265,-3.606361535,0.6602097341,30.2959576,
890630210,-2.006067946,0.7937735124,-33.95137951,
892464154,-2.342973604,0.7635743301,-99.19951206,
894298099,-3.184870857,0.693037057,-161.5946519,
896132044,-2.796672428,0.7247135453,148.4315105,
897965988,-10.80304481,0.2883020693,74.35753505,
899799933,-1.693386288,0.82286897,122.8494231,
901633877,-1.7999978,0.8128307221,95.43393221,
903467822,-1.394151373,0.8517113434,72.05108618,
905301767,-1.349723179,0.8560789947,58.89760323,
907135711,-1.346971681,0.8563502245,38.34475094,
908969656,-1.729496864,0.8194550892,6.706687337,
910803601,-4.147125138,0.6203599368,20.5628561,
912637545,-7.490806187,0.4221430957,-95.37612196,
914471490,-3.836449223,0.6429505007,81.03938731,
916305435,-2.8231381,0.7225087234,34.74916682,
918139379,-4.120067404,0.6222954561,6.78655161,
919973324,-3.918932298,0.636873803,19.49501368,
921807269,-2.453463206,0.7539227346,-10.9792897,
923641213,-4.796786555,0.5756528674,-64.26148386,
925475158,-2.395212112,0.7589958379,-146.227241,
927309103,-2.863392291,0.7191680507,106.0173968,
929143047,-2.219256887,0.774528059,107.5116565,
930976992,-1.266681683,0.8643027919,71.89050551,
932810936,-1.078651452,0.8832170157,47.67225337,
934644881,-1.138228173,0.877179738,25.91464583,
936478826,-4.459059506,0.5984763936,-15.96513467,
938312770,-1.881465519,0.8052425659,35.10916421,
940146715,-1.262840331,0.864685116,2.669930807,
941980660,-5.231766242,0.5475347505,-37.49336258,
943814604,-10.59661973,0.2952357966,12.32294879,
945648549,-3.694070743,0.653576552,-13.30569758,
947482494,-1.645155756,0.827450861,-38.90781596,
949316438,-1.452113349,0.8460466936,-53.30266036,
951150383,-3.824246031,0.6438544452,-125.1805134,
952984328,-4.780812465,0.5767125161,-72.90428709,
954818272,-3.895628388,0.6385848053,19.07182054,
956652217,-3.524283316,0.6664780246,-117.1223329,
958486162,-14.66590886,0.1848011022,98.85678902,
960320106,-4.525511019,0.593915212,70.10548535,
962154051,-1.518646552,0.8395908026,27.72248474,
963987995,-1.299076151,0.8610853341,-1.21336701,
965821940,-1.757564225,0.8168113968,-30.64414199,
967655885,-1.831394898,0.8098978669,-72.33543475,
969489829,-3.559978673,0.6637447001,-176.0299298,
971323774,-2.275196474,0.7695559073,68.4981288,
973157719,-1.587208695,0.8329895732,20.87840355,
974991663,-1.094898557,0.8815664873,2.135240233,
976825608,-0.9219037563,0.899300453,-20.07483178,
978659553,-1.014456673,0.8897687864,-41.1549514,
980493497,-1.163416531,0.8746396745,-63.66753135,
982327442,-2.10648135,0.7846499158,-109.1766333,
984161387,-5.904852122,0.5067075716,131.3201811,
985995331,-10.66684931,0.2928582984,-162.4436102,
987829276,-2.946394795,0.7123284009,19.62946677,
989663221,-4.021314038,0.6294109557,-88.24548055,
991497165,-2.366395998,0.7615180472,26.95799037,
993331110,-6.772537429,0.4585356732,-49.9637645,
995165055,-3.36821113,0.6785618568,15.43685861,
996998999,-1.548250966,0.8367340677,-17.84805488,
998832944,-1.632102533,0.8286952955,-33.65380379,
1000666888,-1.549683908,0.8365960402,-71.30325982,
1002500833,-8.188856311,0.3895445965,119.4664057,
1004334778,-2.520745954,0.7481052497,0.1736599815,
1006168722,-6.156153168,0.4922574998,-95.30941569,
1008002667,-1.635007748,0.8284181638,-30.83061884,
1009836612,-1.786258474,0.8141174737,-80.78847976,
1011670556,-5.803873516,0.5126327219,85.60924277,
1013504501,-2.614970809,0.7400336357,-12.82310363,
1015338446,-1.818873494,0.8110662413,-32.45960743,
1017172390,-1.559956876,0.8356071669,-66.09816739,
1019006335,-3.186417356,0.6929136746,-91.02612496,
1020840280,-4.372486747,0.6044712681,-37.45284048,
1022674224,-10.9289422,0.2841534217,-89.53882157,
1024508169,-3.095269335,0.7002232603,-10.05341235,
1026342114,-1.19669765,0.8712947907,-42.35237613,
1028176058,-2.433845063,0.7556274857,-44.65795535,
1030010003,-1.905681456,0.8030007062,-75.21989157,
1031843947,-1.339064488,0.8571301573,-54.24467431,
1033677892,-2.671423318,0.7352395052,-83.71198156,
1035511837,-9.932125868,0.3187085442,135.3715331,
1037345781,-2.128829254,0.7826336869,-69.06080572,
1039179726,-6.635338355,0.4658360368,12.65354418,
1041013671,-1.417018683,0.8494719951,-48.48116455,
1042847615,-0.9325493547,0.8981989277,-64.01471055,
1044681560,-0.909015372,0.9006358526,-76.29355305,
1046515505,-2.637901395,0.7380825374,-64.06443739,
1048349449,-0.8501748169,0.9067577145,-75.63900214,
1050183394,-0.7720367936,0.914951683,-82.94809679,
1052017339,-1.084303148,0.8826425149,-85.99347725,
1053851283,-0.7649694997,0.9156964384,-92.24522205,
1055685228,-0.7477109867,0.9175176992,-97.47183722,
1057519173,-0.7665195485,0.9155330415,-104.0385118,
1059353117,-1.812630006,0.8116494519,-112.6132399,
1061187062,-0.8258250034,0.9093032636,-108.6713184,
1063021007,-0.964741116,0.894876172,-117.1987115,
1064854951,-1.134172955,0.8775893662,-126.8824487,
1066688896,-2.115775062,0.7838108066,-136.0986274,
1068522840,-2.144281989,0.7812425709,-161.4773957,
1070356785,-8.261415626,0.3863040121,-8.272946886,
1072190730,-1.978825895,0.7962669776,-81.57749897,
1074024674,-3.028252742,0.705646778,-126.9046996,
1075858619,-1.297839125,0.8612079768,-105.1221178,
1077692564,-3.330243257,0.6815344874,-109.6810778,
1079526508,-1.559580177,0.8356434072,-126.8440585,
1081360453,-5.378564385,0.5383587558,-130.6559558,
1083194398,-2.220273055,0.7744374517,-126.7977997,
1085028342,-1.275732034,0.8634026917,-134.9473494,
1086862287,-1.689416585,0.8232451309,-162.2079201,
1088696232,-2.036500616,0.790997242,-140.0620961,
1090530176,-3.251370834,0.6877513607,-179.757225,
1092364121,-11.28490948,0.2727435732,-156.2287038,
1094198066,-9.617679645,0.330457808,54.66595383,
1096032010,-1.542316431,0.8373059521,-98.21605157,
1097865955,-1.17967282,0.8730042521,-128.374912,
1099699899,-1.396337514,0.8514970041,-155.0948898,
1101533844,-6.525245583,0.471778039,-136.0604243,
1103367789,-6.043626795,0.4986762216,-18.15457954,
1105201733,-2.585190809,0.742575232,-121.4812553,
1107035678,-2.006633539,0.7937218264,-137.0863922,
1108869623,-8.299156792,0.3846291192,28.82720092,
1110703567,-1.722371554,0.82012759,-112.3815244,
1112537512,-1.993372967,0.7949345109,-130.3982847,
1114371457,-4.097587704,0.6239080869,-95.78103882,
1116205401,-0.8450677083,0.9072910245,-137.0680669,
1118039346,-0.9527476001,0.8961126746,-157.1162498,
1119873291,-7.895254524,0.4029371161,130.4985207,
1121707235,-2.323458353,0.7652918395,-170.6533636,
1123541180,-8.668779161,0.3686048472,53.95530806,
1125375125,-1.838199811,0.8092636052,-101.3145398,
1127209069,-1.169527719,0.8740245149,-133.4584031,
1129043014,-2.327814367,0.7649081383,-156.1469414,
1130876958,-1.671026706,0.8249899627,-138.6994404,
1132710903,-2.505858324,0.7493886029,-157.1711377,
1134544848,-3.17309878,0.6939769742,-129.6741097,
1136378792,-2.455785806,0.7537211632,179.291768,
1138212737,-1.501148685,0.8412838768,-176.4203615,
1140046682,-5.622172224,0.5234695076,108.8490479,
1141880626,-10.10500453,0.3124278738,170.618786,
1143714571,-6.031754954,0.4993582764,-58.36520645,
1145548516,-3.207534632,0.6912310978,-129.1506964,
1147382460,-1.102753311,0.8807696365,-160.3365761,
1149216405,-2.130955026,0.7824421697,156.6296655,
1151050350,-4.605244404,0.5884882281,-174.9765048,
1152884294,-5.051213888,0.5590353947,-78.84350451,
1154718239,-8.728630825,0.366073641,-86.00851683,
1156552184,-1.684854545,0.8236776328,-109.5258305,
1158386128,-1.113397475,0.8796909544,-133.3224358,
1160220073,-1.183063963,0.8726634805,-151.1454153,
1162054018,-1.307321848,0.8602682757,-151.0426274,
1163887962,-9.131548365,0.349480205,-114.5219528,
1165721907,-1.064305783,0.8846769477,-149.2764337,
1167555851,-0.8679858146,0.9049002522,-160.4516742,
1169389796,-1.626565119,0.8292237724,-153.6026769,
1171223741,-0.936351728,0.8978058143,-167.2216429,
1173057685,-0.7798950644,0.9141242851,-175.5103029,
1174891630,-0.8883906997,0.9027769563,174.7694435,
1176725575,-4.86967091,0.5708427038,166.5569591,
1178559519,-7.172645273,0.4378927314,81.63250495,
1180393464,-3.014532146,0.7067623282,-161.217817,
1182227409,-1.054871506,0.8856383715,174.6112155,
1184061353,-1.287845621,0.8621994053,159.4635021,
1185895298,-12.44092367,0.2387557372,88.50882689,
1187729243,-2.131616477,0.7823825871,-148.6113557,
1189563187,-1.437615399,0.8474600417,-162.7601005,
1191397132,-1.432109643,0.8479973944,163.4986209,
1193231077,-5.666623515,0.5207974202,167.5525797,
1195065021,-1.103744293,0.8806691544,-170.2237722,
1196898966,-1.037875805,0.8873729987,-174.6510497,
1198732910,-1.409157201,0.8502411888,169.1946488,
1200566855,-2.845048695,0.7206884554,138.4179925,
1202400800,-1.090802062,0.8819823554,-176.9344955,
1204234744,-1.092610174,0.8817987752,171.2087054,
1206068689,-0.8431218693,0.9074943013,160.9955095,
1207902634,-2.420395036,0.7567984749,161.5466574,
1209736578,-2.309124034,0.7665558429,179.508985,
1211570523,-1.592267882,0.832504531,156.3648949,
1213404468,-1.853462206,0.8078428578,169.3625248,
1215238412,-1.147842678,0.8762093154,151.0566277,
1217072357,-2.624195746,0.7392480927,141.9992509,
