Frequency,S11_Magnitude,S11_Magnitude (linear),S11_Phase,
500000000,-0.5989772976,0.9333641914,113.7894269,
501833944,-0.5800390731,0.9354014663,107.2878061,
503667889,-0.6308498581,0.9299455212,100.1314703,
505501833,-2.391893719,0.7592858632,73.7838527,
507335778,-1.06267083,0.8848434869,117.7488463,
509169723,-0.6699328449,0.9257705427,106.9541249,
511003667,-0.6154373922,0.9315971053,102.190444,
512837612,-0.5971372076,0.9335619439,98.62167196,
514671557,-0.5960958949,0.9336738712,95.30054362,
516505501,-0.6123988722,0.9319230559,91.43650392,
518339446,-0.785881292,0.9134944969,92.42382877,
520173391,-0.9904640042,0.892229955,80.72168584,
522007335,-1.166515101,0.8743277146,98.52030147,
523841280,-0.6629085451,0.9265195184,87.99795526,
525675225,-0.7070645841,0.9218213677,81.34433037,
527509169,-2.715407338,0.7315257753,63.33838238,
529343114,-1.136007492,0.8774040312,93.85141771,
531177059,-0.713209059,0.9211694937,85.16207025,
533011003,-0.6494202509,0.9279594257,80.15103914,
534844948,-0.9758284132,0.8937346161,68.70822823,
536678892,-0.7213523472,0.9203062738,81.21055847,
538512837,-0.6375369268,0.9292298528,76.37334403,
540346782,-0.6243130345,0.9306456426,73.32436272,
542180726,-0.6231608594,0.9307691001,70.58902369,
544014671,-0.619720163,0.9311378739,67.8358503,
545848616,-0.6344712849,0.9295578778,64.33147426,
547682560,-0.7552018116,0.916726761,66.78965134,
549516505,-0.6385407476,0.9291224687,61.37563481,
551350450,-0.642093373,0.928742525,57.70666451,
553184394,-0.663011517,0.9265085345,53.20355708,
555018339,-0.7664617204,0.9155391369,45.13096474,
556852284,-4.597051477,0.5890435789,-5.602085099,
558686228,-1.141809298,0.8768181581,66.18320768,
560520173,-1.243927536,0.8665699465,70.41145864,
562354118,-0.963917562,0.8949610238,60.38546303,
564188062,-0.6974470222,0.9228426314,54.20257259,
566022007,-0.6738798601,0.9253499525,50.4341851,
567855951,-0.6637384361,0.9264309985,47.26431827,
569689896,-0.6575192988,0.927094565,44.31328994,
571523841,-0.6563644916,0.9272178323,41.41033577,
573357785,-0.6553699807,0.9273240023,38.42310318,
575191730,-0.6679176049,0.9259853585,35.29534918,
577025675,-0.6700857498,0.9257542457,31.6292605,
578859619,-0.6999984949,0.922571587,26.73629597,
580693564,-1.203682365,0.870594425,16.29832758,
582527509,-7.883721685,0.4034724781,-8.288333944,
584361453,-1.574845272,0.8341760879,41.15549043,
586195398,-0.9987896834,0.8913751362,31.39220844,
588029343,-0.8711294606,0.9045728049,26.12723233,
589863287,-0.8188473147,0.9100340332,21.85559253,
591697232,-0.7863101241,0.9134493978,17.45832741,
593531177,-0.8336973792,0.9084794984,10.54284575,
595365121,-1.381372126,0.8529653588,16.34864352,
597199066,-1.016273726,0.8895826697,6.210545754,
599033011,-6.177039515,0.4910752249,-33.75697631,
600866955,-1.229321539,0.8680283769,18.08687717,
602700900,-1.02146875,0.8890507702,9.425688328,
604534844,-1.005584643,0.8906780873,4.390248586,
606368789,-1.047105112,0.8864306096,0.01796477164,
608202734,-0.9723739532,0.8940901335,-3.786402642,
610036678,-1.137181107,0.8772854866,-9.676376632,
611870623,-1.775475435,0.8151287821,-18.84403558,
613704568,-1.082274681,0.8828486676,-5.281024349,
615538512,-1.10382857,0.8806606095,-20.16444696,
617372457,-1.833903761,0.8096639669,-38.8263891,
619206402,-3.66991221,0.6553969101,49.40506456,
621040346,-0.9105380056,0.9004779853,-7.866366412,
622874291,-1.02455277,0.888735159,-21.00351881,
624708236,-1.322291595,0.8587869182,-31.72923401,
626542180,-2.269189068,0.770088338,-46.64651288,
628376125,-10.72197883,0.2910054072,-67.09748002,
630210070,-2.603728966,0.7409920554,-18.09534014,
632044014,-3.97541185,0.6327459987,33.53659844,
633877959,-1.156938603,0.8752922232,-10.18572267,
635711903,-1.606536088,0.8311381085,-24.41675111,
637545848,-0.8215823622,0.9097475232,-27.88703168,
639379793,-0.8405977134,0.9077580613,-35.44028176,
641213737,-0.7843133135,0.913659416,-39.11180359,
643047682,-0.8036988516,0.9116225458,-44.9033006,
644881627,-0.848032023,0.9069814377,-50.03527637,
646715571,-0.8115270349,0.9108013135,-54.1473066,
648549516,-0.8032190744,0.911672902,-59.73147324,
650383461,-0.8242944705,0.9094635052,-65.06884239,
652217405,-0.8451581529,0.9072815771,-70.68480942,
654051350,-0.8805342618,0.9035938927,-77.39338345,
655885295,-1.327018889,0.8583196507,-81.11470292,
657719239,-1.097513427,0.8813011334,-88.40380988,
659553184,-1.139053703,0.8770963725,-97.51547536,
661387129,-1.513977077,0.8400422822,-104.2832136,
663221073,-1.614152936,0.8304095847,-120.6793961,
665055018,-2.616908084,0.7398685992,-150.4478697,
666888962,-7.590294582,0.4173354443,88.34353883,
668722907,-2.178910662,0.7781341343,-56.27907796,
670556852,-1.623623662,0.8295046347,-93.57873646,
672390796,-2.568982283,0.7439622271,-107.2009006,
674224741,-1.507625239,0.840656815,-131.0570445,
676058686,-1.810804785,0.8118200268,-159.8886812,
677892630,-3.064558368,0.7027034433,142.5178286,
679726575,-3.034486042,0.7051405627,28.87056146,
681560520,-1.680622558,0.8240790474,-74.92520892,
683394464,-4.444967991,0.5994481172,-123.8667174,
685228409,-1.671968796,0.8249004874,-145.6796743,
687062354,-1.824992916,0.8104950265,177.4189022,
688896298,-2.378448111,0.7604621349,105.6058885,
690730243,-2.288932686,0.7683398628,15.36599277,
692564188,-1.790901954,0.8136823626,-57.36616505,
694398132,-2.415134127,0.7572569949,-114.3442755,
696232077,-11.41950382,0.2685497849,128.042034,
698066022,-3.247497259,0.68805814,-70.92701552,
699899966,-1.949514208,0.7989586252,-117.3158463,
701733911,-5.30115924,0.5431778328,-150.1826602,
703567855,-2.537208048,0.746688732,178.2846878,
705401800,-6.924127857,0.4506025106,20.31954288,
707235745,-2.539989322,0.7464496761,-130.2961809,
709069689,-3.375936258,0.6779586202,168.2982444,
710903634,-8.52990686,0.3745455633,60.23748725,
712737579,-3.887025865,0.6392175743,-103.2321673,
714571523,-3.172986248,0.6939859652,163.2875366,
716405468,-4.272682775,0.6114569156,-90.2843051,
718239413,-1.729167058,0.8194862048,-166.6429245,
720073357,-14.96911728,0.1784613344,114.4402018,
721907302,-2.902080361,0.7159719069,175.6329298,
723741247,-2.405590405,0.7580894971,137.5717197,
725575191,-3.690076731,0.6538771536,96.63462979,
727409136,-4.253294611,0.6128233004,37.61781922,
729243081,-4.597599191,0.5890064362,-87.62912507,
731077025,-2.446984864,0.7544852551,171.351663,
732910970,-2.89420792,0.716621121,149.6733995,
734744914,-1.525849427,0.8388948508,94.84138393,
736578859,-1.576876539,0.8339810317,63.1509428,
738412804,-1.649999065,0.8269895976,33.51255937,
740246748,-7.603021655,0.4167243878,-21.03264892,
742080693,-1.667816619,0.8252949147,-3.026427566,
743914638,-1.513303926,0.8401073875,-29.23004135,
745748582,-1.422036763,0.8489813732,-52.68586109,
747582527,-1.343977655,0.8566454593,-75.49708943,
749416472,-1.295943686,0.8613959306,-98.88860282,
751250416,-1.622719626,0.8295909748,-124.9190383,
753084361,-1.184547245,0.8725144692,-148.8282437,
754918306,-1.325015055,0.8585176878,175.8933366,
756752250,-1.935723271,0.8002281717,125.6707387,
758586195,-5.774531693,0.5143673759,0.1629011639,
760420140,-2.566010548,0.7442168051,115.397637,
762254084,-2.365404532,0.7616049769,21.37944746,
764088029,-2.595880021,0.7416619505,-51.48281652,
765921973,-3.003026965,0.7076991137,-130.5377965,
767755918,-3.414175161,0.6749805243,109.2859463,
769589863,-2.329393499,0.7647690873,-0.4851186066,
771423807,-1.858327155,0.8073905133,-65.70950664,
773257752,-3.38543301,0.6772177765,-42.27358695,
775091697,-1.687462429,0.8234303659,-103.3758842,
776925641,-2.141898911,0.7814569436,-144.0876503,
778759586,-8.503438722,0.3756886406,-54.90879427,
780593531,-1.567447088,0.8348868979,-145.3490908,
782427475,-1.656589248,0.8263623797,156.0876968,
784261420,-10.68595781,0.2922147335,104.1289698,
786095365,-2.497813709,0.750082986,-67.11514412,
787929309,-6.717521166,0.461449247,-117.2088239,
789763254,-1.241014111,0.8668606605,-136.8922293,
791597199,-1.104454093,0.8805971902,-159.7886195,
793431143,-1.121100292,0.878911173,-177.410204,
795265088,-1.137596782,0.8772435039,162.6579376,
797099033,-1.626962387,0.8291858469,135.9875503,
798932977,-8.339246398,0.3828579592,70.88670214,
800766922,-4.312340839,0.6086714873,171.2206405,
802600866,-2.376273355,0.7606525618,116.9333469,
804434811,-3.531635464,0.6659141247,105.6133858,
806268756,-5.11465471,0.5549671342,-6.049432671,
808102700,-6.812777075,0.4564163003,120.5726035,
809936645,-8.668181044,0.3686302305,-120.3107146,
811770590,-4.000037091,0.6309546501,-163.128744,
813604534,-6.5830474,0.4686489302,49.1230218,
815438479,-7.822425236,0.4063298597,-174.7267429,
817272424,-13.94604935,0.2007694052,-139.903719,
819106368,-5.282893364,0.5443213033,174.3598112,
820940313,-4.067638288,0.6260630686,-175.9436092,
822774258,-2.118148402,0.7835966667,156.4568773,
824608202,-2.051765541,0.789608333,129.8812766,
826442147,-3.823929921,0.6438778778,87.9176407,
828276092,-6.978613575,0.447784773,-149.2297259,
830110036,-4.565452488,0.5911904033,105.7742153,
831943981,-2.902484768,0.7159385727,127.504342,
833777925,-2.733580529,0.7299968289,90.15516289,
835611870,-3.509732775,0.6675954395,80.08214875,
837445815,-4.180199412,0.6180022118,10.93859289,
839279759,-4.261789828,0.6122242228,-101.260352,
841113704,-3.923691697,0.6365249261,157.8829604,
842947649,-2.782987042,0.7258562955,-165.5191764,
844781593,-1.311713944,0.8598333834,148.3734156,
846615538,-1.05247047,0.8858832219,123.9300918,
848449483,-1.019800129,0.8892215796,99.85825822,
850283427,-1.821685297,0.8108037248,55.04415155,
852117372,-5.361424137,0.5394221717,-157.4753673,
853951317,-2.101097133,0.7851364561,127.5474064,
855785261,-1.97634015,0.7964948875,100.4965348,
857619206,-6.794484411,0.4573785354,120.1569512,
859453151,-1.090214302,0.8820420397,93.3879756,
861287095,-1.080919411,0.8829864304,76.5297341,
863121040,-1.125248562,0.8784915164,61.51503248,
864954984,-1.640865707,0.8278596483,36.79710082,
866788929,-7.558444259,0.4188685825,-61.83853851,
868622874,-2.951205029,0.7119340237,101.6220958,
870456818,-1.866855511,0.8065981553,68.78785813,
872290763,-1.488412436,0.8425183687,56.7165129,
874124708,-1.487392523,0.8426173046,38.93616818,
875958652,-3.068844638,0.7023567622,12.36314403,
877792597,-2.881299218,0.7176869331,33.43961587,
879626542,-2.401754319,0.7584243779,11.371304,
881460486,-2.649807206,0.7370715353,-3.356141224,
883294431,-2.802706673,0.7242102485,-23.99383868,
885128376,-3.26948119,0.6863188712,-53.5339942,
886962320,-3.567122888,0.6631989892,-116.1959304,
888796265,-4.893290259,0.5692925324,141.1595647,
890630210,-5.182706806,0.5506360735,62.61675181,
892464154,-4.966929381,0.5644864622,-21.84249405,
894298099,-6.826922243,0.4556736209,29.08393012,
896132044,-5.244906018,0.5467070812,-96.54258712,
897965988,-4.138862628,0.6209503391,167.3414512,
899799933,-3.930506105,0.6360257441,97.32264548,
901633877,-13.19623123,0.2188711091,-24.56597194,
903467822,-12.72907142,0.2309651363,46.60483726,
905301767,-8.748993457,0.365216447,108.003676,
907135711,-11.26753322,0.2732897471,71.76981572,
908969656,-2.92003073,0.7144937982,72.27865763,
910803601,-6.545605724,0.4706734638,48.43516188,
912637545,-2.286381503,0.7685655695,52.90302523,
914471490,-2.693589074,0.7333656197,14.11600933,
916305435,-4.044351862,0.6277437637,42.855526,
918139379,-17.64754691,0.1311060263,136.0989689,
919973324,-2.070327676,0.7879227065,42.61558298,
921807269,-2.999229516,0.7080085857,4.546369021,
923641213,-3.369257155,0.6784801438,-24.91073136,
925475158,-3.873791703,0.6401922536,34.97426939,
927309103,-2.76526461,0.7273388231,-4.701157522,
929143047,-3.336259649,0.6810625773,-45.89152796,
930976992,-6.807403616,0.4566987461,-150.3917871,
932810936,-2.488451578,0.7508919027,26.62145599,
934644881,-2.027933341,0.7917778222,-30.82450543,
936478826,-4.942853183,0.5660533186,-113.7407622,
938312770,-6.633439914,0.4659378639,38.21424139,
940146715,-6.974563186,0.4479936319,-124.2510506,
941980660,-5.106558964,0.5554846365,83.58995956,
943814604,-10.80588635,0.2882077684,4.640483058,
945648549,-4.77104468,0.5773614274,16.48885068,
947482494,-12.22245159,0.2448372092,12.30141059,
949316438,-1.89805039,0.8037064997,12.53117699,
951150383,-3.283137888,0.6852406299,-2.052526204,
952984328,-1.958691274,0.7981149323,-32.40507642,
954818272,-1.95032497,0.798884052,-42.31239644,
956652217,-1.621875555,0.8296715961,-67.25985962,
958486162,-8.296628213,0.3847411062,-132.04173,
960320106,-4.557413779,0.5917377977,-80.69556591,
962154051,-2.989673825,0.7087879226,-155.0103135,
963987995,-10.8000496,0.2884015033,161.5829196,
965821940,-2.445150004,0.754644654,96.70696862,
967655885,-1.882681467,0.8051298469,50.10891503,
969489829,-9.436041691,0.3374410513,-10.31162314,
971323774,-3.618131039,0.6593157463,-3.422951381,
973157719,-2.511706359,0.7488842244,34.08808269,
974991663,-2.443739363,0.7547672228,-13.45334717,
976825608,-2.472969574,0.7522315097,24.70959964,
978659553,-1.203018479,0.8706609694,-2.174532949,
980493497,-1.182289909,0.8727412525,-12.5644547,
982327442,-0.9747714574,0.8938433782,-29.4702863,
984161387,-1.083153383,0.8827593595,-33.19842894,
985995331,-0.9654751614,0.8948005491,-47.71997406,
987829276,-1.324532232,0.8585654116,-65.48732224,
989663221,-1.157874356,0.8751979308,-81.9182262,
991497165,-2.388872739,0.7595499912,-122.1922711,
993331110,-3.634999334,0.6580365751,164.9465955,
995165055,-3.049422415,0.7039290355,56.90876385,
996998999,-1.782529996,0.8144670144,-1.383903486,
998832944,-1.483604896,0.842984822,-40.06590798,
1000666888,-3.104197072,0.69950391,-104.5851085,
1002500833,-3.268211098,0.6864192353,26.08530502,
1004334778,-1.408010607,0.8503534336,-39.52512988,
1006168722,-7.372305353,0.427941823,-139.60029,
1008002667,-7.783814603,0.4081401031,-31.23621062,
1009836612,-5.575798641,0.5262717621,-26.17718238,
1011670556,-5.521313553,0.5295833498,-25.54560768,
1013504501,-11.81382424,0.2566308061,-23.38224351,
1015338446,-1.655907462,0.8264272463,-45.34244965,
1017172390,-1.776657701,0.8150178396,-62.68513778,
1019006335,-3.753156961,0.6491456512,-103.6890989,
1020840280,-6.344739938,0.4816848678,30.14060155,
1022674224,-2.287669073,0.768451648,-19.01390305,
1024508169,-1.223531237,0.8686072264,-47.50144092,
1026342114,-1.4368998,0.8475298636,-66.31142564,
1028176058,-1.741681256,0.81830638,-72.83974604,
1030010003,-5.149382255,0.5527527186,-27.79688112,
1031843947,-1.382370081,0.852867364,-67.08647094,
1033677892,-1.867012162,0.8065836083,-71.90583819,
1035511837,-1.709932466,0.8213029386,-88.32690675,
1037345781,-6.850523081,0.4544371693,-77.60443782,
1039179726,-3.401207482,0.6759889952,-75.2154245,
1041013671,-1.334317831,0.857598689,-91.72866947,
1042847615,-1.129501944,0.8780614344,-110.3488659,
1044681560,-3.220864059,0.6901711433,-136.6844906,
1046515505,-4.53252028,0.593436133,-152.6898096,
1048349449,-2.876104564,0.7181162789,-173.213754,
1050183394,-5.614161622,0.5239525024,61.32611162,
1052017339,-5.340986997,0.5406928793,-65.56792927,
1053851283,-4.045965603,0.6276271468,-37.48518671,
1055685228,-2.993841388,0.7084479217,-90.40834114,
1057519173,-16.99452852,0.1413427621,-173.4833961,
1059353117,-2.78491838,0.7256949167,-60.97521856,
1061187062,-9.947382241,0.3181492384,15.70563196,
1063021007,-3.959695929,0.6338919018,-52.59075339,
1064854951,-1.807593652,0.8121202084,-73.84716987,
1066688896,-2.601664462,0.7411681989,-92.95439147,
1068522840,-2.385074093,0.7598822419,-73.51602889,
1070356785,-1.273254069,0.8636490439,-91.95407156,
1072190730,-1.07023016,0.8840737426,-103.8053816,
1074024674,-2.520149748,0.7481566019,-115.424771,
1075858619,-4.122770582,0.6221018186,-150.7571119,
1077692564,-2.509787965,0.7490496437,-98.23891662,
1079526508,-8.956913903,0.356577803,-78.41800396,
1081360453,-1.502686355,0.8411349568,-98.26822848,
1083194398,-2.399155966,0.7586512919,-123.8559095,
1085028342,-1.297122321,0.861279051,-121.4719496,
1086862287,-7.377918591,0.4276653558,-68.93538914,
1088696232,-2.289241059,0.7683125851,-128.636126,
1090530176,-8.483679419,0.3765442577,-128.2311778,
1092364121,-2.815993495,0.7231032696,-102.9093592,
1094198066,-1.377796792,0.8533165334,-124.3315101,
1096032010,-3.074324369,0.7019138009,-149.0409655,
1097865955,-2.389894649,0.7594606341,-118.6106802,
1099699899,-3.830876145,0.6433631657,-147.5859346,
1101533844,-8.085509332,0.3942071829,162.5490123,
1103367789,-4.169558791,0.6187597573,-93.93686124,
1105201733,-3.520975236,0.6667319055,-100.968874,
1107035678,-6.155040887,0.4923205405,-119.9532138,
1108869623,-1.582063557,0.8334831457,-115.2931894,
1110703567,-2.88600651,0.7172980902,-141.1329655,
1112537512,-1.163435063,0.8746378084,-134.272959,
1114371457,-1.981799462,0.7959944266,-142.3581681,
1116205401,-6.917041757,0.45097027,-142.1420313,
1118039346,-1.35780306,0.855283014,-143.2643935,
1119873291,-1.683063849,0.8238474609,-164.1219234,
1121707235,-5.064055073,0.5582095296,-179.1168749,
1123541180,-9.69437719,0.3275526675,-171.8907157,
1125375125,-1.822845032,0.8106954739,-114.0636264,
1127209069,-1.345643812,0.8564811504,-145.0493325,
1129043014,-2.217194086,0.7747120225,-128.6296947,
1130876958,-1.216687582,0.8692918759,-151.9096301,
1132710903,-1.154904462,0.8754972311,-168.2787944,
1134544848,-2.929566695,0.7137098084,175.8035802,
1136378792,-7.823022957,0.406301899,144.0203367,
1138212737,-4.484624471,0.5967175025,-113.8593114,
1140046682,-14.27387577,0.1933330986,-108.126865,
1141880626,-2.858084236,0.7196076775,-139.1089171,
1143714571,-32.52685481,0.02364053276,68.90962482,
1145548516,-2.309187338,0.7665502562,-122.7060254,
1147382460,-1.724601466,0.8199170672,-144.3163113,
1149216405,-1.48590198,0.8427619144,-158.9967864,
1151050350,-3.862952482,0.6409916556,-179.6710246,
1152884294,-4.234368158,0.6141600912,174.9240638,
1154718239,-3.203965427,0.6915151968,163.4905933,
1156552184,-5.827833422,0.5112205802,-103.1640076,
1158386128,-3.360194604,0.6791884155,-129.1643056,
1160220073,-1.070533731,0.8840428448,-151.3290951,
1162054018,-1.45607726,0.845660678,-160.4818113,
1163887962,-2.154934147,0.7802850618,173.3990492,
1165721907,-6.152236379,0.492479527,-178.4697679,
1167555851,-1.964597084,0.7975724533,-171.940283,
1169389796,-6.242875801,0.4873671016,131.5752385,
1171223741,-3.810663784,0.644862037,-169.0452651,
1173057685,-2.701929459,0.7326617636,-163.5953062,
1174891630,-1.804869611,0.8123749429,-163.7406759,
1176725575,-2.939037448,0.7129320314,166.6987586,
1178559519,-2.303735498,0.7670315449,-146.648853,
1180393464,-4.034587495,0.6284498476,-168.0674036,
1182227409,-1.393512786,0.8517739635,-166.0685164,
1184061353,-1.408695862,0.8502863494,-175.7964487,
1185895298,-5.62959321,0.5230224606,-164.8195556,
1187729243,-1.31497186,0.8595109363,-172.5895533,
1189563187,-1.278404753,0.8631370566,-177.0862662,
1191397132,-0.9997030693,0.8912814064,174.2113399,
1193231077,-1.517080712,0.8397421726,167.4035342,
1195065021,-1.632258375,0.8286804272,166.5552197,
1196898966,-0.9943490221,0.8918309683,160.5296316,
1198732910,-2.15958026,0.7798677962,141.4528041,
1200566855,-6.59612458,0.4679438792,152.9483966,
1202400800,-1.808316329,0.8120526418,167.2526943,
1204234744,-5.668775181,0.5206684244,172.4463209,
1206068689,-1.424010898,0.848788438,150.7572345,
1207902634,-1.930227261,0.8007346775,149.7606763,
1209736578,-8.952526725,0.3567579533,130.0369111,
1211570523,-7.329521314,0.4300549336,177.188674,
1213404468,-2.406963544,0.7579696613,158.238517,
1215238412,-4.799122995,0.5754980419,148.5336776,
1217072357,-3.662098775,0.6559867408,-179.7371692,
1218906302,-2.946509853,0.7123189651,152.8155285,
