Frequency,S11_Magnitude,S11_Phase,S12_Magnitude,S12_Phase,S22_Magnitude,S22_Phase,
50000000,-0.06443508782,-61.33640954,-58.83179828,55.21412603,-3.105990959,173.1166436,
50057777,-0.06320996188,-61.40251129,-58.83168724,54.1765041,-3.125908344,171.8297966,
50115555,-0.06227217799,-61.47176537,-58.28642182,56.37777875,-3.144867309,170.5401782,
50173333,-0.06184662626,-61.54347247,-58.26937842,55.64493946,-3.163126513,169.3025517,
50231111,-0.06092466172,-61.60841653,-57.771379,57.10537078,-3.180697583,168.0295802,
50288888,-0.05920449216,-61.67958507,-57.68276712,56.50311452,-3.198824195,166.7718724,
50346666,-0.05727696381,-61.75367562,-57.319969,58.2643965,-3.216281269,165.5045071,
50404444,-0.0557123893,-61.82127911,-57.3945449,56.97335817,-3.233840112,164.2457451,
50462222,-0.05324975755,-61.88766157,-56.96441422,57.7248701,-3.250142768,162.9883018,
50520000,-0.05139906955,-61.96605565,-56.73371293,55.83685568,-3.26873513,161.7434986,
50577777,-0.04917784371,-62.04227448,-56.47939584,56.05567427,-3.283430426,160.5031199,
50635555,-0.04669250753,-62.09996467,-56.17841446,55.65285205,-3.298760342,159.2569595,
50693333,-0.04424509413,-62.18991539,-55.82394263,53.42232032,-3.31407108,158.0270512,
50751111,-0.04231649445,-62.24992592,-55.7956812,51.45023355,-3.328818879,156.8090961,
50808888,-0.04215732533,-62.33965585,-55.53299988,50.24491392,-3.343682289,155.5691578,
50866666,-0.03708192332,-62.40684096,-55.2093382,49.86652616,-3.357666716,154.3524356,
50924444,-0.03492471474,-62.45631602,-54.92708695,46.76135446,-3.37016719,153.1324848,
50982222,-0.03328353982,-62.52301609,-54.74480793,46.46787394,-3.38257639,151.897633,
51040000,-0.03292246526,-62.59330591,-54.58021419,43.55042919,-3.394364797,150.6956565,
51097777,-0.03182167356,-62.64938777,-54.36499063,42.3117901,-3.405816283,149.4911232,
51155555,-0.03007830787,-62.7243416,-54.20411401,40.55174876,-3.41706894,148.2860048,
51213333,-0.02851694691,-62.79356874,-54.02263727,38.87342739,-3.426750639,147.0791783,
51271111,-0.02818464628,-62.86969712,-54.05514601,37.06276314,-3.435505299,145.8681066,
51328888,-0.02670997151,-62.9348946,-53.95567676,35.49406187,-3.443644538,144.6518293,
51386666,-0.02475468062,-62.99902136,-53.90246644,32.60841662,-3.447972661,143.4371537,
51444444,-0.02305244498,-63.0455719,-53.42793438,31.81059343,-3.454820716,142.2460934,
51502222,-0.02160781132,-63.13507078,-53.47521869,30.40669581,-3.461657641,141.0548816,
51560000,-0.02062032251,-63.17927891,-53.40553251,27.41857113,-3.467287181,139.8684074,
51617777,-0.02169051098,-63.21247428,-53.50540942,26.60441577,-3.472314278,138.6631287,
51675555,-0.02204702877,-63.26360652,-53.3382407,24.77244427,-3.47574269,137.472679,
51733333,-0.02531863832,-63.28399265,-53.35851798,20.44034588,-3.489741269,136.3227598,
51791111,-0.02035836314,-63.37961447,-53.12741819,21.21541956,-3.48186116,135.0878415,
51848888,-0.02010455324,-63.44406781,-53.12988577,18.49835093,-3.48215527,133.8850706,
51906666,-0.02101525535,-63.52347266,-53.16163166,17.13436507,-3.482127956,132.641916,
51964444,-0.01920419944,-63.58035183,-53.03646745,15.62222919,-3.481935728,131.4419852,
52022222,-0.01776953708,-63.66107774,-53.04333878,12.98197144,-3.478472196,130.2444456,
52080000,-0.01707246064,-63.72774523,-53.01859846,11.40690673,-3.477476286,129.0529896,
52137777,-0.01592780142,-63.78596564,-52.85545355,10.42190659,-3.473581308,127.8529266,
52195555,-0.01441792646,-63.86967923,-52.93471792,7.487935232,-3.470136458,126.6252522,
52253333,-0.01401728204,-63.92484673,-52.92014646,6.332003521,-3.465719143,125.4145246,
52311111,-0.01325200992,-63.98332184,-53.0600617,5.513540646,-3.458539125,124.2090332,
52368888,-0.01064840316,-64.05238664,-52.86040712,3.492940993,-3.452459029,122.9981922,
52426666,-0.01003621359,-64.12882609,-52.80425152,1.389838824,-3.443135942,121.7647554,
52484444,-0.007971155473,-64.1998332,-52.82519822,0.3644214,-3.433936711,120.5305196,
52542222,-0.006821544761,-64.27285768,-52.72563201,-1.276850596,-3.426894775,119.3136038,
52600000,-0.005187595906,-64.35081539,-52.70644841,-4.976787456,-3.415307352,118.0858337,
52657777,-0.003309224927,-64.42268321,-52.61874898,-4.672836566,-3.404902951,116.8850939,
52715555,6.440688797e-05,-64.5050098,-52.66406938,-5.79512962,-3.393812634,115.6451426,
52773333,0.00098553346,-64.59059613,-52.8326991,-7.869162317,-3.380550825,114.3777491,
52831111,0.003819607542,-64.68682807,-52.71476049,-9.460171442,-3.367800141,113.1231125,
52888888,0.005123725203,-64.78104725,-52.58999671,-10.81196897,-3.354873006,111.8809257,
52946666,0.008231359234,-64.82398357,-52.73951741,-13.26596512,-3.341056816,110.6498634,
53004444,0.008877546715,-64.92145018,-52.61465572,-13.85469349,-3.327596983,109.4003492,
53062222,0.01086169941,-64.97894165,-52.68104423,-16.40650862,-3.311265407,108.1200508,
53120000,0.01270142698,-65.03297464,-52.73250156,-17.04592994,-3.295914895,106.8662856,
53177777,0.01313801861,-65.09405905,-52.57110265,-19.95979789,-3.280498985,105.5843558,
53235555,0.01240941157,-65.16134432,-52.73137338,-20.58224433,-3.263036383,104.3180656,
53293333,0.01306354323,-65.21372028,-52.6898809,-22.13117427,-3.245951892,103.0436563,
53351111,0.01224601323,-65.28735195,-52.56521335,-23.28834681,-3.22929201,101.7727603,
53408888,0.01025530001,-65.34984025,-52.41700886,-25.5495947,-3.210192401,100.4888926,
53466666,0.01041681068,-65.42314498,-52.64780225,-25.64848373,-3.192261419,99.19500363,
53524444,0.01134593027,-65.47291703,-52.59842296,-27.52889875,-3.170469151,97.88786612,
53582222,0.009908152362,-65.54862791,-52.55848493,-29.69193539,-3.151889465,96.5756475,
53640000,0.009358066162,-65.61795173,-52.64272474,-30.36589436,-3.131017513,95.28382345,
53697777,0.009744700268,-65.67345634,-52.55809338,-32.15036332,-3.110506443,93.94695084,
53755555,0.009378294272,-65.75572115,-52.45723033,-33.59675605,-3.089807008,92.60551675,
53813333,0.01081212204,-65.81900382,-52.62359547,-33.86928833,-3.069534972,91.2771327,
53871111,0.01012708254,-65.88058606,-52.46984532,-35.89928132,-3.048167234,89.9392335,
53928888,0.0109363374,-65.94437314,-52.55806239,-37.13994373,-3.027726601,88.59288433,
53986666,0.01005086866,-65.99952494,-52.51487098,-38.31473278,-3.006969606,87.24215604,
54044444,0.01091794389,-66.08231367,-52.53027744,-40.66771164,-2.984204186,85.87628332,
54102222,0.01350674012,-66.17490942,-52.74687001,-40.76537694,-2.960446187,84.47549348,
54160000,0.02020859198,-66.30961396,-52.56155418,-42.07149533,-2.936404673,83.12467481,
54217777,0.02069402758,-66.36529137,-52.59722071,-43.83360157,-2.916476202,81.77974757,
54275555,0.01927437102,-66.41139653,-52.56035107,-45.22831435,-2.894903348,80.40305463,
54333333,0.01728565781,-66.45552251,-52.51001274,-45.49710278,-2.87302225,79.01553099,
54391111,0.01719267554,-66.51237052,-52.62800384,-48.45802759,-2.849439621,77.6347961,
54448888,0.01575889537,-66.56755151,-52.59524685,-49.47628692,-2.828686775,76.25862063,
54506666,0.01632677769,-66.6273274,-52.6923657,-50.92961825,-2.806638287,74.87124257,
54564444,0.01628770817,-66.69256619,-52.74527664,-53.06001889,-2.784281129,73.49715241,
54622222,0.0150563519,-66.75361982,-52.64455628,-54.18445945,-2.762010088,72.08332595,
54680000,0.01565160415,-66.82582514,-52.71679987,-55.40246197,-2.740586415,70.66959085,
54737777,0.01503523958,-66.88283074,-52.64059174,-57.08487756,-2.716115741,69.26490907,
54795555,0.01513492523,-66.9491089,-52.76346762,-58.81594618,-2.693808973,67.85091944,
54853333,0.01498920896,-67.02802895,-52.76791092,-60.41811113,-2.671177531,66.43933506,
54911111,0.01462707553,-67.08674639,-52.8003011,-61.98980499,-2.649440226,65.02192163,
54968888,0.01522903183,-67.1564926,-52.69882119,-63.37317857,-2.62717634,63.58611506,
55026666,0.01629705235,-67.22934814,-52.70798759,-64.56412511,-2.602937128,62.16465497,
55084444,0.01678586741,-67.30145068,-52.86723891,-65.67304988,-2.580115513,60.74994622,
55142222,0.01812379796,-67.36323281,-52.65467441,-67.31570561,-2.555652021,59.29986612,
55200000,0.01650828079,-67.46931955,-53.08557263,-68.96542496,-2.534354991,57.82360121,
55257777,0.02225674063,-67.54117813,-52.6666268,-69.07714153,-2.508857844,56.40560613,
55315555,0.02543340482,-67.65362667,-52.77228056,-71.58429264,-2.484285023,54.94854245,
55373333,0.02321367356,-67.68415287,-52.79348323,-71.11176562,-2.461091613,53.5013066,
55431111,0.02159279046,-67.73422268,-52.75302124,-73.38490326,-2.437973188,52.03938433,
55488888,0.01965431321,-67.790078,-52.87346609,-74.39491707,-2.415724672,50.57499473,
55546666,0.01959367262,-67.86256614,-52.79355061,-76.74958861,-2.393530173,49.11869099,
55604444,0.02145764216,-67.91516144,-52.72729204,-77.69610754,-2.370878511,47.64186652,
55662222,0.02202974286,-67.99601343,-52.79664811,-80.1879444,-2.346261086,46.15926424,
55720000,0.02245789895,-68.06910842,-52.77127593,-80.68026685,-2.321079605,44.6609757,
55777777,0.02282168445,-68.14714407,-52.76539464,-81.24571589,-2.295020301,43.09070251,
55835555,0.02187240876,-68.20475921,-52.80748754,-81.04979413,-2.273439028,41.60394118,
55893333,0.02129765496,-68.25146426,-52.86311396,-82.45426604,-2.253325901,40.15017812,
55951111,0.02073750751,-68.31277938,-52.78138796,-83.31500448,-2.231723038,38.68443402,
56008888,0.02032761663,-68.37996404,-52.97961135,-84.30051989,-2.210890394,37.18973802,
56066666,0.02010304887,-68.44136627,-53.02192032,-86.41665,-2.188449147,35.70230043,
56124444,0.01973799053,-68.51447754,-53.00656715,-87.74340678,-2.165959183,34.21439934,
56182222,0.02134511569,-68.5823735,-52.97845294,-89.10667359,-2.143764339,32.71751764,
56240000,0.02193313875,-68.64611786,-53.0740844,-90.46798013,-2.121814846,31.19237455,
56297777,0.02280611895,-68.71394387,-53.15243955,-91.72871743,-2.098496989,29.69673556,
56355555,0.02235223991,-68.78372461,-53.2311107,-92.94227803,-2.076315428,28.17256224,
56413333,0.02174112659,-68.8566529,-53.31515098,-95.38323806,-2.054154263,26.67206057,
56471111,0.02254605637,-68.93439078,-53.2410756,-96.07797145,-2.032333047,25.14065258,
56528888,0.0219540215,-69.01439025,-53.07791737,-97.44928809,-2.010455099,23.624033,
56586666,0.02249727275,-69.08022394,-53.34033534,-99.23458574,-1.986445363,22.11283449,
56644444,0.02248943597,-69.15394163,-53.22238663,-100.4311271,-1.964217962,20.58388031,
56702222,0.02343693179,-69.22318912,-53.2012491,-101.1939284,-1.942015579,19.05156055,
56760000,0.02350549439,-69.29035244,-53.23433546,-102.4576995,-1.919810111,17.5162341,
56817777,0.02313579858,-69.3760935,-53.23196463,-103.4251141,-1.898532502,15.97087134,
56875555,0.02384953349,-69.4570178,-53.29585655,-104.4827403,-1.875941039,14.43150454,
56933333,0.02387699725,-69.52385342,-53.29071912,-106.361903,-1.854180293,12.88732858,
56991111,0.02303547947,-69.58900939,-53.32323055,-108.0680122,-1.83222992,11.34103347,
57048888,0.02500544232,-69.66298808,-53.30664087,-109.2761742,-1.810524938,9.773091902,
57106666,0.02511890165,-69.74661915,-53.45424536,-110.3927885,-1.788874329,8.218565432,
57164444,0.02520274515,-69.80772244,-53.36935611,-111.4875653,-1.766417166,6.670504165,
57222222,0.02584076644,-69.8677806,-53.28915411,-111.4487955,-1.745913307,5.105407356,
57280000,0.02580212211,-69.9405738,-53.39592152,-113.7063624,-1.725757206,3.544337259,
57337777,0.02536192488,-70.00138277,-53.45319293,-115.7195445,-1.703990928,1.99862825,
57395555,0.02597049585,-70.07162778,-53.44971102,-115.80748,-1.682276561,0.4348529326,
57453333,0.02584375692,-70.12915574,-53.41373622,-117.0596741,-1.661561681,-1.136373503,
57511111,0.02471523809,-70.19582005,-53.45722677,-118.9820217,-1.640519764,-2.718798963,
57568888,0.02320426432,-70.27839361,-53.36859835,-120.0579493,-1.617581136,-4.356886525,
57626666,0.02248649129,-70.34399047,-53.42102088,-121.4122587,-1.602140903,-5.883105355,
57684444,0.02068436606,-70.41396743,-53.38513574,-122.1846344,-1.582593453,-7.443954037,
57742222,0.01923661289,-70.47671027,-53.51182227,-122.6850515,-1.560180569,-9.042601952,
57800000,0.01749937496,-70.54025544,-53.57799843,-124.5891712,-1.542327661,-10.6311504,
57857777,0.0149196671,-70.61876371,-53.48966589,-125.6947222,-1.523682606,-12.20896192,
57915555,0.01295781464,-70.69387397,-53.65264394,-126.9906401,-1.505166222,-13.79139612,
57973333,0.01075620742,-70.75607978,-53.57059641,-127.6473213,-1.487148849,-15.36224522,
58031111,0.01027176385,-70.82303532,-53.5487596,-129.3864808,-1.46564796,-16.93466587,
58088888,0.008676942326,-70.89397472,-53.59623364,-130.3828982,-1.446268064,-18.55762386,
58146666,0.008889544865,-70.96556478,-53.58425763,-131.0701617,-1.428435423,-20.16004134,
58204444,0.008968315647,-71.04019932,-53.63074536,-132.98172,-1.40936448,-21.7671775,
58262222,0.008774750573,-71.10027467,-53.46124036,-134.1589051,-1.391407638,-23.37609489,
58320000,0.009644888617,-71.18997929,-53.51211024,-134.9170747,-1.369165201,-24.99725481,
58377777,0.01313082867,-71.2634354,-53.46807733,-136.5459021,-1.347842331,-26.62739413,
58435555,0.01272041461,-71.33596155,-53.61781933,-136.9732827,-1.331439303,-28.18043744,
58493333,0.01387979439,-71.42385729,-53.70793129,-138.128802,-1.31508951,-29.76309043,
58551111,0.01517701758,-71.49231163,-53.86740931,-138.6393008,-1.298691158,-31.36129778,
58608888,0.01442738679,-71.56262404,-53.6086467,-140.9851168,-1.279397121,-32.97882762,
58666666,0.01076912962,-71.63991483,-53.80898699,-141.6830684,-1.263538957,-34.56501702,
58724444,0.008875473766,-71.68660716,-53.74325243,-143.4915732,-1.247897232,-36.19643934,
58782222,0.005913138621,-71.75472154,-53.73571933,-144.6392247,-1.230424223,-37.81183512,
58840000,0.00244978583,-71.8288851,-53.66215723,-145.6747565,-1.212788658,-39.43479862,
58897777,0.0002644897824,-71.88832834,-53.66991616,-146.854171,-1.194939071,-41.06775617,
58955555,-0.001481471188,-71.96381591,-53.69167343,-148.219614,-1.178881465,-42.69078573,
59013333,-0.002512886301,-72.03769195,-53.62412906,-149.5224397,-1.161292176,-44.32313,
59071111,-0.00333775437,-72.1066701,-53.56409875,-150.7915297,-1.143537819,-45.95934966,
59128888,-0.004918185768,-72.1744343,-53.8675456,-151.9114674,-1.1252256,-47.59653814,
59186666,-0.007155078114,-72.23966117,-53.78429948,-152.9844175,-1.107403479,-49.2354434,
59244444,-0.008421148516,-72.32491488,-53.818251,-154.8533166,-1.089805952,-50.86898138,
59302222,-0.009880886619,-72.38281739,-53.82528488,-156.4602945,-1.074227938,-52.50125587,
59360000,-0.01166143607,-72.46081373,-53.85932209,-157.5604196,-1.058530325,-54.14459844,
59417777,-0.01279027893,-72.53558302,-53.9512843,-158.6000393,-1.043472734,-55.78893659,
59475555,-0.01372581075,-72.60953482,-54.05495566,-159.3202416,-1.028651183,-57.44201928,
59533333,-0.01324510464,-72.68110079,-54.08534707,-161.5664563,-1.012267155,-59.08346888,
59591111,-0.01303256171,-72.74035573,-54.121123,-162.9943131,-0.9975278596,-60.7260904,
59648888,-0.01609236612,-72.82675573,-53.30598466,-166.7079491,-0.9843733712,-62.38749873,
59706666,-0.01984548123,-72.87871628,-53.72315684,-164.8721664,-0.9696641796,-64.0259862,
59764444,-0.02039054019,-72.94989792,-53.7633161,-166.5871467,-0.9556041398,-65.67450515,
59822222,-0.02239217766,-73.02133033,-53.78042664,-168.052328,-0.9416680228,-67.31731651,
59880000,-0.02189819981,-73.08153735,-53.92267138,-168.8479625,-0.9280877681,-68.97228398,
59937777,-0.02073794632,-73.15389624,-54.17624909,-171.1529153,-0.9152599805,-70.62832484,
59995555,-0.02088352931,-73.22921374,-54.16740985,-170.8624809,-0.9020885137,-72.29156184,
60053333,-0.02538846471,-73.29691861,-54.31962219,-172.3973151,-0.889392662,-73.99413447,
60111111,-0.02878994629,-73.36750425,-54.34955109,-172.8782837,-0.8772762037,-75.6678296,
60168888,-0.03166805239,-73.43773452,-54.25604744,-175.5808762,-0.864909522,-77.35529432,
60226666,-0.0344482269,-73.51079475,-54.22259244,-177.7197712,-0.8538610297,-79.03501945,
60284444,-0.03593755484,-73.58981464,-54.22435203,-178.854465,-0.8427623855,-80.72979537,
60342222,-0.0366259463,-73.65474661,-54.49689222,-179.8746751,-0.8315028763,-82.42466251,
60400000,-0.07332396341,-74.34755346,-43.40561648,171.3460578,-0.6419063167,-85.37727063,
60457777,-0.04148360855,-73.78609447,-54.40585972,177.2398808,-0.8124521573,-85.83909523,
60515555,-0.04344691455,-73.85510111,-54.39741519,175.8694002,-0.8027539086,-87.53448195,
60573333,-0.04429663193,-73.93130906,-54.49345754,174.0424031,-0.793621991,-89.24300449,
60631111,-0.04589465932,-73.99003007,-54.51989604,172.0832214,-0.7844912425,-90.96910469,
60688888,-0.0484113188,-74.07359788,-54.53628341,171.5184565,-0.7766437178,-92.69646469,
60746666,-0.05039036847,-74.13875764,-54.50193913,168.9727271,-0.7697317024,-94.42630805,
60804444,-0.05307285081,-74.21444222,-54.46748427,168.268514,-0.761289866,-96.16111486,
60862222,-0.0558009964,-74.28742591,-54.54057168,166.624356,-0.7535417608,-97.90045836,
60920000,-0.05815475106,-74.36312177,-54.6537701,164.6384314,-0.7471231787,-99.64312896,
60977777,-0.0602648351,-74.43585802,-54.77781944,161.8897335,-0.7401674295,-101.4025183,
61035555,-0.06114691133,-74.50343977,-54.73783724,160.8430349,-0.730520262,-103.1725527,
61093333,-0.06093086725,-74.57933687,-54.63111929,159.4634943,-0.7205499478,-104.9343531,
61151111,-0.06137679108,-74.64740768,-54.76529111,157.976654,-0.7122858981,-106.7256289,
61208888,-0.06055874128,-74.72563056,-54.88290126,155.9692203,-0.704545423,-108.5078097,
61266666,-0.06114911951,-74.78759778,-54.8203126,154.5912442,-0.6962404427,-110.2959263,
61324444,-0.05898160498,-74.91626305,-54.98380327,152.8736956,-0.6846067715,-112.1086895,
61382222,-0.0609625273,-74.95242749,-54.94573576,149.9961042,-0.6824194088,-113.9030716,
61440000,-0.06126704871,-75.03148654,-55.02794595,148.9455495,-0.6749914026,-115.7386671,
61497777,-0.05713412215,-75.10874687,-55.00361322,147.2207534,-0.6681277042,-117.592205,
61555555,-0.06219595546,-75.19930653,-55.01440125,145.3825765,-0.6654322242,-119.4047531,
61613333,-0.06003663998,-75.28752203,-55.37920848,142.5780178,-0.6620896967,-121.2493954,
61671111,-0.05915525695,-75.37212737,-55.21136337,141.9327348,-0.6602250456,-123.0917454,
61728888,-0.05543608623,-75.41646206,-55.30879967,139.9328166,-0.6555129306,-124.9687049,
61786666,-0.05879445908,-75.50930111,-55.34432209,138.8843466,-0.6555950959,-126.8176541,
61844444,-0.05712959652,-75.59867659,-55.43504627,136.6109047,-0.6569181608,-128.6846767,
61902222,-0.05520434316,-75.67746987,-55.47478731,133.3825287,-0.6585625856,-130.5749899,
61960000,-0.05481079878,-75.74797965,-55.5532187,131.4932581,-0.6602665164,-132.4837149,
62017777,-0.05464070207,-75.83644919,-55.46872176,129.5323003,-0.6654837174,-134.4093365,
62075555,-0.03511334297,-75.99120506,-55.2582054,128.8746877,-0.6551654409,-136.2633985,
62133333,0.0473320892,-76.40366896,-56.35987703,118.10659,-0.6086107473,-138.3807691,
62191111,-0.04973067466,-76.07555112,-55.92573835,123.7300752,-0.6909422703,-140.2559249,
62248888,-0.01083209456,-76.24116684,-52.90852893,124.5106868,-0.7243759724,-141.8594908,
62306666,-0.04787236351,-76.20953563,-56.00783488,118.9367954,-0.713753978,-144.2180538,
62364444,-0.04746604444,-76.27856571,-55.88971432,116.6483508,-0.7294110933,-146.2293086,
62422222,-0.0453998962,-76.36357262,-55.90351183,113.228822,-0.7486930593,-148.235226,
62480000,-0.04374552774,-76.41961877,-56.13804039,111.8378597,-0.7708997009,-150.3140777,
62537777,-0.04147677565,-76.50519768,-56.43031898,109.4278138,-0.7923248503,-152.4570318,
62595555,-0.040362469,-76.56575984,-56.43481542,106.9056318,-0.824319115,-154.4234096,
62653333,-0.03976178924,-76.63434388,-56.60784841,103.7535801,-0.8598550414,-156.471385,
62711111,-0.03703627435,-76.69351042,-56.56924419,101.9300605,-0.8997615456,-158.5521037,
62768888,-0.03522477168,-76.75820405,-56.84061885,99.40291098,-0.944747483,-160.6388673,
62826666,-0.03226590911,-76.83588628,-56.68618105,94.9901474,-0.9959204477,-162.7449154,
62884444,-0.0294723216,-76.89942479,-57.102571,93.12082376,-1.050192052,-164.8538548,
62942222,-0.02636383113,-76.97054557,-57.23228991,89.57242076,-1.112149415,-166.9716697,
