Frequency,S11_Magnitude,S11_Phase,S12_Magnitude,S12_Phase,S22_Magnitude,S22_Phase,
50000000,-0.05785833045,-61.43007023,-55.57253451,175.5156082,-2.038510645,173.9386291,
50057777,-0.06349377892,-61.38975891,-55.02894318,172.060902,-2.040447948,172.5901951,
50115555,-0.0632547407,-61.44106878,-54.72545372,170.069939,-2.043518403,171.2272626,
50173333,-0.06251344327,-61.51760739,-54.35004884,168.7268627,-2.044861603,169.8669156,
50231111,-0.06106280036,-61.57544627,-54.15420148,166.7582085,-2.046732713,168.5148207,
50288888,-0.05990972943,-61.65751375,-53.88650825,163.0067313,-2.048377667,167.1444663,
50346666,-0.05770433002,-61.71132714,-53.75690071,161.3131301,-2.048832214,165.7698394,
50404444,-0.05763308206,-61.77756731,-53.71514659,159.8891183,-2.050717616,164.423901,
50462222,-0.0557520414,-61.84754086,-53.45308454,156.006307,-2.051514433,163.0637768,
50520000,-0.05267074156,-61.91804341,-53.37971947,154.0311601,-2.05321246,161.6853181,
50577777,-0.05167819198,-61.99804208,-53.30886386,152.0601783,-2.054769545,160.3339666,
50635555,-0.04868538934,-62.06357868,-53.14812683,150.4635635,-2.053679413,158.9749152,
50693333,-0.04737706539,-62.14164821,-53.15924845,148.4122014,-2.054079279,157.6151291,
50751111,-0.04412905234,-62.21818785,-53.01309019,145.4577852,-2.054584747,156.2458321,
50808888,-0.04333969051,-62.29473326,-53.119239,143.3739878,-2.056401302,154.8983144,
50866666,-0.04092191148,-62.38076759,-52.98658705,140.8210436,-2.057391444,153.5319845,
50924444,-0.03862993659,-62.44997687,-53.10664333,139.414893,-2.056900289,152.177914,
50982222,-0.03635373915,-62.52587931,-52.86725696,136.8890277,-2.05787406,150.8191275,
51040000,-0.03443591308,-62.61045648,-53.14276891,134.4115686,-2.05859193,149.4601587,
51097777,-0.03215056865,-62.67307464,-53.16400738,132.9180248,-2.057989667,148.1047592,
51155555,-0.03084306081,-62.73068822,-53.09564209,131.2742636,-2.059416039,146.7362591,
51213333,-0.02844469025,-62.80098727,-53.13273307,129.583743,-2.058013525,145.3810204,
51271111,-0.02673661888,-62.88029244,-53.2683269,128.4238115,-2.057244581,144.0179574,
51328888,-0.02602340277,-62.93537727,-53.02291543,126.259316,-2.057217921,142.6608719,
51386666,-0.02537976138,-62.98898164,-53.20439171,125.1820644,-2.056873083,141.3072789,
51444444,-0.02426210493,-63.036592,-53.0803552,123.2762986,-2.056480035,139.9576404,
51502222,-0.02440242926,-63.10670283,-53.33556906,121.971812,-2.056341409,138.59269,
51560000,-0.02396271834,-63.17781568,-53.36793332,120.8007562,-2.055902863,137.26003,
51617777,-0.02239265312,-63.25072939,-53.39178148,118.9708566,-2.051949222,135.8889,
51675555,-0.01934708149,-63.34678048,-53.44639732,117.6879882,-2.050598038,134.5091274,
51733333,-0.01075232672,-63.47328284,-53.1553982,116.2893057,-2.026076682,132.9789958,
51791111,-0.01325409897,-63.51991172,-53.42424136,115.002332,-2.045906572,131.772927,
51848888,-0.01198193585,-63.56725379,-53.55917635,115.4433814,-2.042925743,130.4228235,
51906666,-0.01254113096,-63.63290748,-53.62040629,113.415958,-2.040881435,129.0481655,
51964444,-0.01168683994,-63.68269364,-53.78352964,111.6278213,-2.039024078,127.6757873,
52022222,-0.0102597456,-63.73694308,-53.76049143,111.6537728,-2.036222949,126.3159345,
52080000,-0.01088532029,-63.80115518,-53.58272995,110.5706376,-2.034200543,124.9442952,
52137777,-0.01038429853,-63.84997455,-53.58486154,109.9234652,-2.030211984,123.5931997,
52195555,-0.01098380663,-63.91555548,-53.66140422,109.1381445,-2.026534125,122.2194801,
52253333,-0.0107510602,-63.99103626,-53.85484432,108.3620886,-2.022103047,120.8442995,
52311111,-0.009759763983,-64.05190414,-53.77314618,107.0674001,-2.017767976,119.4686957,
52368888,-0.008695188904,-64.10724933,-53.76802169,106.5577163,-2.012875141,118.0839156,
52426666,-0.00729878065,-64.18423895,-53.66202452,106.5290704,-2.008356662,116.7030449,
52484444,-0.006732126859,-64.2363759,-53.79419481,105.291911,-2.003725264,115.3336408,
52542222,-0.006415450323,-64.29929182,-53.87729352,104.392852,-1.998087585,113.9506912,
52600000,-0.005104115488,-64.38215649,-53.72937507,104.0050736,-1.993396874,112.5698755,
52657777,-0.002560706559,-64.43993417,-53.97780684,102.7900663,-1.987541845,111.1989301,
52715555,-0.001155070935,-64.52679083,-53.92080625,103.0710089,-1.980756251,109.8255315,
52773333,0.000358833457,-64.61573397,-53.93430497,102.7430545,-1.973890364,108.4169286,
52831111,0.001295753775,-64.69519821,-53.92687127,101.9249631,-1.967802227,107.022699,
52888888,0.003965032203,-64.76174823,-53.85251752,101.2798575,-1.961386603,105.6276729,
52946666,0.005542731866,-64.8329647,-53.88013086,101.739527,-1.952877634,104.2265419,
53004444,0.008149520445,-64.92330369,-54.00190699,100.8785046,-1.947286692,102.8290437,
53062222,0.009322634671,-64.99855666,-54.02206391,100.2320476,-1.93980296,101.4192655,
53120000,0.01118521478,-65.08515857,-54.00771135,100.9256953,-1.930002782,99.99981334,
53177777,0.0124179417,-65.14991704,-54.16078869,98.76961228,-1.922745155,98.58787007,
53235555,0.01310511262,-65.23876182,-54.18796017,99.11229854,-1.914783333,97.15310546,
53293333,0.01502914605,-65.31350859,-54.1671178,98.05156767,-1.905346104,95.73252907,
53351111,0.01649361195,-65.37265039,-53.87311495,96.15392475,-1.899119068,94.33104369,
53408888,0.01679202112,-65.4274345,-53.78468147,96.15526591,-1.89281355,92.94380755,
53466666,0.01618065654,-65.47143508,-53.82529556,95.92830788,-1.88690146,91.57903631,
53524444,0.01432078063,-65.52915028,-53.73421516,94.4580067,-1.87868304,90.17761795,
53582222,0.01500625004,-65.58830105,-53.77900436,93.90686659,-1.872640819,88.77347087,
53640000,0.01397524249,-65.64557594,-53.82044381,93.69208031,-1.863217057,87.37131539,
53697777,0.0138179231,-65.70871764,-53.76405353,92.09494738,-1.853390132,85.95468885,
53755555,0.01510071106,-65.76826967,-53.78130972,92.57468475,-1.844570771,84.5295717,
53813333,0.01383654394,-65.83349179,-53.59788697,91.0999065,-1.834325394,83.10836381,
53871111,0.01482195649,-65.89346415,-53.6020147,90.6980028,-1.826164905,81.67704528,
53928888,0.01414998941,-65.96440017,-53.56991867,89.83687391,-1.815789686,80.24956276,
53986666,0.01283725816,-66.02710565,-53.56821808,90.03237931,-1.8064362,78.82612098,
54044444,0.01369902097,-66.08291966,-53.48346746,89.14627846,-1.795238557,77.39187845,
54102222,0.01335035581,-66.14838658,-53.47044585,89.74265494,-1.7848575,75.94277054,
54160000,0.01411253286,-66.21974486,-53.50395562,87.87815025,-1.77666126,74.49780181,
54217777,0.01428257733,-66.29438866,-53.26188149,87.49990008,-1.766416322,73.05386977,
54275555,0.01317234874,-66.35117659,-53.27449718,87.00657448,-1.757079016,71.61183832,
54333333,0.01449498923,-66.40693738,-53.34781834,86.59751683,-1.745043323,70.18869133,
54391111,0.01365457465,-66.47579064,-53.20773626,85.320627,-1.733664735,68.74847998,
54448888,0.01533424906,-66.54514979,-53.21349752,84.11143426,-1.723541953,67.28431693,
54506666,0.01491528394,-66.62205189,-53.18992885,83.78153951,-1.713173081,65.81967668,
54564444,0.01493090861,-66.68096615,-53.12399228,83.99768058,-1.701501111,64.36405201,
54622222,0.01468162625,-66.75662924,-53.17376211,83.58273004,-1.688970608,62.88660807,
54680000,0.01581837203,-66.82992165,-53.05973862,82.14256241,-1.679494205,61.42345148,
54737777,0.01477070738,-66.89728044,-52.88546124,81.08163399,-1.668182793,59.96374986,
54795555,0.01528652535,-66.95916921,-52.95224363,82.30594813,-1.656821437,58.47830988,
54853333,0.01513805491,-67.03985856,-52.88564608,81.03468473,-1.644229292,56.9981131,
54911111,0.01478556774,-67.105225,-52.79551081,80.50713249,-1.633490946,55.5143239,
54968888,0.01511767887,-67.1666012,-52.77647445,79.90463268,-1.6193588,54.02000958,
55026666,0.01566201216,-67.22454619,-52.69395603,78.3829147,-1.606139908,52.518715,
55084444,0.01629371569,-67.30119744,-52.72116275,78.07508155,-1.592228484,51.00331075,
55142222,0.01647850854,-67.36765092,-52.57723066,77.66563456,-1.577874567,49.45434329,
55200000,0.02445331049,-67.41789415,-52.74911053,78.75945568,-1.559303142,47.92515692,
55257777,0.01954831159,-67.51392946,-52.4041654,75.60355959,-1.55396845,46.49540258,
55315555,0.01878563484,-67.57947759,-52.41342329,75.8483017,-1.543112565,45.05569147,
55373333,0.01962156468,-67.64238286,-52.33106725,75.84297007,-1.532062431,43.57017686,
55431111,0.02111882885,-67.70930303,-52.2874664,74.81332264,-1.519654386,42.05071161,
55488888,0.02124415081,-67.79113503,-52.13415688,73.73262778,-1.507492556,40.53828665,
55546666,0.02373514152,-67.87807432,-52.08877573,72.87396042,-1.491961958,39.00095695,
55604444,0.0273756029,-67.98320871,-51.91861053,73.81253851,-1.480208308,37.47232387,
55662222,0.03004971221,-68.08863434,-52.03565249,72.15698946,-1.467234554,35.97843618,
55720000,0.02688803703,-68.13270828,-51.96938241,71.56203969,-1.455869287,34.4829985,
55777777,0.02457476562,-68.15945113,-51.85610442,70.5251921,-1.442546635,32.96585031,
55835555,0.02135797549,-68.20742608,-51.79505982,70.18920873,-1.429763122,31.4442973,
55893333,0.02000820674,-68.26703291,-51.52453204,69.70923462,-1.416781228,29.92108376,
55951111,0.01958992511,-68.32673664,-51.54656819,68.61991776,-1.402768862,28.39724687,
56008888,0.02040527021,-68.40038261,-51.49445325,67.87049857,-1.388503764,26.85419004,
56066666,0.01959372388,-68.46021992,-51.46759931,67.15545613,-1.376623861,25.29479329,
56124444,0.02041440167,-68.53453421,-51.39600553,66.48973088,-1.365226288,23.76643179,
56182222,0.02053945155,-68.60178712,-51.27552226,65.90284509,-1.354359601,22.23450893,
56240000,0.02027273307,-68.67305673,-51.17497042,64.5636434,-1.342283601,20.68579595,
56297777,0.02032198068,-68.73674014,-51.13296859,63.77922766,-1.330294808,19.15043315,
56355555,0.01938936746,-68.80723233,-51.05835702,63.91206821,-1.31936658,17.61917744,
56413333,0.01911752122,-68.86525322,-50.96977745,63.38595064,-1.307292336,16.07013194,
56471111,0.02071810981,-68.93712369,-50.86187531,62.33224,-1.297147518,14.51741425,
56528888,0.01946043785,-69.02035218,-50.84782717,61.24794691,-1.285200255,12.9615502,
56586666,0.02131592414,-69.09111437,-50.7308122,60.68005579,-1.272605934,11.42440389,
56644444,0.02068135117,-69.16466215,-50.66171896,60.27447246,-1.262355124,9.873216357,
56702222,0.02005732975,-69.23041887,-50.61857449,59.38477849,-1.249742537,8.311183658,
56760000,0.02101073804,-69.30248944,-50.50471262,58.8255762,-1.238880405,6.757015466,
56817777,0.02135872525,-69.3706748,-50.49658167,57.83743715,-1.227636482,5.21429769,
56875555,0.02271859987,-69.45555847,-50.38392074,57.47775026,-1.214847754,3.656028272,
56933333,0.02770064149,-69.5757487,-50.31350459,56.991695,-1.199672995,2.076445625,
56991111,0.02465218716,-69.6001746,-50.20249613,55.80551612,-1.189406435,0.5206702019,
57048888,0.02354303116,-69.65267796,-50.28181816,54.78122916,-1.179467611,-1.025723864,
57106666,0.02322049789,-69.72550819,-50.13608005,54.46487736,-1.167964104,-2.595686103,
57164444,0.02351105535,-69.79815635,-50.12041306,53.59548831,-1.157822966,-4.163425437,
57222222,0.02257062147,-69.86687479,-50.01446625,52.81060131,-1.145797097,-5.727805199,
57280000,0.02226260786,-69.93705754,-49.86424148,51.22673843,-1.137178216,-7.310603584,
57337777,0.02360762784,-70.00184865,-49.90744381,50.35500762,-1.125952988,-8.875609403,
57395555,0.02406837471,-70.08505925,-49.80171961,49.61052501,-1.115666661,-10.44404156,
57453333,0.0244280826,-70.15651674,-49.6395216,48.70645775,-1.102769019,-11.99941716,
57511111,0.0249027915,-70.22196554,-49.59996785,48.37664124,-1.088979464,-13.60820856,
57568888,0.02539303613,-70.27992124,-49.56602208,47.81509547,-1.078536293,-15.13704207,
57626666,0.02493921955,-70.34550013,-49.49342531,46.44972583,-1.066895434,-16.72565047,
57684444,0.02527561723,-70.41576808,-49.42169311,45.81736667,-1.056039686,-18.29129818,
57742222,0.02418329599,-70.4905119,-49.32668775,45.20871428,-1.045064132,-19.87506029,
57800000,0.02362786267,-70.55298043,-49.28298401,43.98115438,-1.034358261,-21.45498814,
57857777,0.02357293223,-70.62676772,-49.17500787,43.62145587,-1.021106679,-23.04192217,
57915555,0.02321996291,-70.69045319,-49.11801971,42.38573969,-1.010866228,-24.61622425,
57973333,0.02105878775,-70.74676981,-49.04791848,40.9016375,-1.000278096,-26.20404156,
58031111,0.01979295003,-70.82642147,-48.91601581,40.92455583,-0.9906780414,-27.7971053,
58088888,0.01874383955,-70.90696679,-48.87353944,39.52274492,-0.9794648888,-29.39619412,
58146666,0.01650287269,-70.97008725,-48.81456964,38.87168334,-0.9700840749,-30.98707498,
58204444,0.01451996002,-71.04150324,-48.73760962,38.05178531,-0.9603015767,-32.57570087,
58262222,0.01251195011,-71.09974697,-48.67807503,36.82658948,-0.9519795774,-34.18191326,
58320000,0.01026465607,-71.17375798,-48.62005944,36.43484093,-0.9419824995,-35.76771531,
58377777,0.008686443343,-71.23922914,-48.51629609,36.03476255,-0.9315807153,-37.36746753,
58435555,0.007803456858,-71.31257511,-48.44049103,34.9033486,-0.9227372395,-38.96957024,
58493333,0.005406986536,-71.38744708,-48.34942626,33.84947073,-0.9144460728,-40.57575291,
58551111,0.003558626188,-71.44958567,-48.19388969,32.32988975,-0.9044090644,-42.17132159,
58608888,0.005889978487,-71.55111598,-48.29316424,32.57286209,-0.8987370939,-43.80773972,
58666666,0.007720484157,-71.61784732,-48.09468034,31.87251027,-0.891847162,-45.40449028,
58724444,0.002708686159,-71.67628272,-48.0784076,30.7444793,-0.8867524775,-47.00298447,
58782222,0.0006074513086,-71.74671274,-47.97504199,29.54492941,-0.8787779044,-48.58589666,
58840000,-0.001286730683,-71.80049418,-47.85443851,28.91935013,-0.8694702974,-50.17833954,
58897777,-0.00314697153,-71.87476672,-47.81217252,28.10463667,-0.8629121331,-51.79466778,
58955555,-0.004132586872,-71.94823924,-47.82930997,27.1106205,-0.8569608256,-53.40070337,
59013333,-0.003077962202,-72.01953089,-47.68512489,26.53485422,-0.848985657,-55.01048913,
59071111,0.0008136782582,-72.10693076,-47.66499525,25.57456863,-0.8418423786,-56.63363228,
59128888,-0.0007744038106,-72.17751174,-47.55704508,24.79491241,-0.8345515831,-58.24037271,
59186666,-0.005766059219,-72.24411851,-47.48816472,23.85634542,-0.8311491269,-59.85128932,
59244444,-0.009340071916,-72.30300579,-47.37983046,22.75424645,-0.8256285877,-61.47493349,
59302222,-0.01090359694,-72.36400646,-47.34522592,21.67468317,-0.8206929762,-63.06419299,
59360000,-0.01194761561,-72.42291808,-47.27314534,21.03964567,-0.8161979614,-64.6961102,
59417777,-0.01332153357,-72.50311311,-47.21459513,20.11687969,-0.8132737827,-66.32345119,
59475555,-0.01289790475,-72.57161449,-47.1104001,19.35244836,-0.8079486674,-67.9376737,
59533333,-0.01226116003,-72.65452273,-47.07278647,18.41824017,-0.8065546457,-69.54773008,
59591111,-0.007426105806,-72.74614447,-47.01924964,17.79978643,-0.8029929558,-71.17359378,
59648888,-0.01094372241,-72.79944297,-46.77072655,19.35771927,-0.800679738,-72.78483377,
59706666,-0.01882578264,-72.86152529,-46.84794855,16.12470869,-0.7965573449,-74.39375728,
59764444,-0.02200941175,-72.92389861,-46.75327159,15.23465893,-0.7930893468,-76.00147989,
59822222,-0.02463071721,-73.00668999,-46.68499273,14.35982129,-0.7895919309,-77.62517513,
59880000,-0.02618933965,-73.06653713,-46.61443654,13.59992284,-0.7848079726,-79.25385306,
59937777,-0.02771242368,-73.14637927,-46.52774736,12.67315743,-0.7813164957,-80.89783868,
59995555,-0.02823674738,-73.20537336,-46.49687134,12.01461334,-0.7829454792,-82.52412653,
60053333,-0.02866735349,-73.28272817,-46.3945928,11.05674709,-0.78086919,-84.14702312,
60111111,-0.02847965849,-73.34826084,-46.34238715,10.08376682,-0.7768855955,-85.77069386,
60168888,-0.02976791116,-73.42263018,-46.23608831,9.105220766,-0.7749840212,-87.41751065,
60226666,-0.03148609708,-73.49655616,-46.14853203,8.172823917,-0.7732789923,-89.04676948,
60284444,-0.03512325943,-73.57167766,-46.07974437,7.218208908,-0.7720634232,-90.70012215,
60342222,-0.0370152962,-73.65034935,-46.0098966,6.436151415,-0.7719054559,-92.32595156,
60400000,-0.141813615,-74.34489142,-45.1716192,-31.32157099,-0.688842371,-94.79599629,
60457777,-0.04150294427,-73.7908448,-45.85375798,5.418240148,-0.7737771176,-95.59073142,
60515555,-0.04350227139,-73.87077523,-45.88710556,3.813246867,-0.775584147,-97.23008378,
60573333,-0.04490401957,-73.92288255,-45.78286561,3.001093488,-0.7778981953,-98.87227634,
60631111,-0.04649323424,-74.00618174,-45.72430653,2.221198293,-0.7789722526,-100.5246025,
60688888,-0.04984695162,-74.09144771,-45.67266578,1.396622463,-0.7819749555,-102.1944073,
60746666,-0.05277503364,-74.1710507,-45.49977688,0.5513126387,-0.7843803557,-103.8248048,
60804444,-0.05596409559,-74.22760136,-45.45877256,-0.1959704787,-0.7869660911,-105.4639836,
60862222,-0.0577218206,-74.29908254,-45.40818976,-1.494069984,-0.7911230754,-107.1142364,
60920000,-0.06050482612,-74.3623971,-45.37902663,-2.140955816,-0.7942257198,-108.7716694,
60977777,-0.06247820549,-74.44550751,-45.26384039,-3.147338647,-0.7976095876,-110.4304658,
61035555,-0.06279390394,-74.52131433,-45.24029285,-3.819172805,-0.7978929545,-112.0911942,
61093333,-0.06269420605,-74.58339797,-45.14022986,-4.778027351,-0.7970071584,-113.7558223,
61151111,-0.06240027241,-74.66337371,-45.05675294,-5.925408731,-0.7977834574,-115.41413,
61208888,-0.06260590491,-74.74288385,-44.9884163,-6.885139786,-0.7984260046,-117.0816808,
61266666,-0.062261271,-74.82255045,-44.89858663,-7.568143159,-0.8004487826,-118.7507784,
61324444,-0.06709915514,-74.89937436,-44.83560859,-8.552350795,-0.8019772447,-120.4533793,
61382222,-0.06275369543,-74.98611509,-44.79616378,-9.488852344,-0.8029709306,-122.0713378,
61440000,-0.06328006667,-75.05499815,-44.64803815,-10.70308863,-0.8055308449,-123.7465965,
61497777,-0.05832865787,-75.09656454,-44.64303873,-11.4830795,-0.8042081352,-125.4173107,
61555555,-0.06224020112,-75.20037379,-44.53959248,-12.57304466,-0.8112523649,-127.0905595,
61613333,-0.06032271663,-75.28107564,-44.43498402,-13.29181445,-0.8139386966,-128.7496864,
61671111,-0.0608056095,-75.35986652,-44.38169865,-14.29532885,-0.8179489726,-130.4155862,
61728888,-0.06009993772,-75.45470783,-44.27406545,-14.77825012,-0.8271526735,-132.0807918,
61786666,-0.05852188419,-75.51146736,-44.2187278,-16.37181665,-0.8249219356,-133.7635157,
61844444,-0.0563913324,-75.595954,-44.13080138,-17.05884424,-0.8307258485,-135.4363447,
61902222,-0.0551574168,-75.65972322,-44.04184777,-18.0942441,-0.8354326646,-137.1057234,
61960000,-0.05480147599,-75.73881497,-43.96847898,-18.94086838,-0.8417354208,-138.8009874,
62017777,-0.05409844343,-75.83511616,-43.89971934,-20.16099399,-0.8465742239,-140.4951083,
62075555,-0.04906134429,-75.75760929,-43.76400634,-21.40968895,-0.8700523856,-142.1457882,
62133333,-0.129985404,-75.72715037,-43.62689997,-22.76097682,-0.8808934116,-143.7982866,
62191111,-0.05014374705,-76.04473546,-43.65568382,-23.12861989,-0.8615121244,-145.5998017,
62248888,-0.07865653946,-76.36198444,-42.97825407,-18.68914014,-0.8174437399,-147.1712582,
62306666,-0.04579344906,-76.21051842,-43.45888743,-24.60996236,-0.8792787901,-148.9816937,
62364444,-0.04407420384,-76.28417578,-43.42948226,-25.66051298,-0.8875325044,-150.6713358,
62422222,-0.04374980615,-76.37848896,-43.35253241,-26.5169195,-0.8942847925,-152.3739085,
62480000,-0.03994448346,-76.44533748,-43.22763323,-27.63125506,-0.9041445047,-154.0554073,
62537777,-0.037714991,-76.53059517,-43.11938096,-28.38974196,-0.9140637562,-155.7523205,
62595555,-0.03473900694,-76.58199666,-43.06169864,-29.32537398,-0.9214318135,-157.4654562,
62653333,-0.03229299087,-76.63317421,-42.95874008,-30.28236123,-0.9319531063,-159.172035,
62711111,-0.03092631513,-76.69462996,-42.87224878,-31.17130543,-0.9414684264,-160.8858252,
62768888,-0.02897875497,-76.77988497,-42.79288273,-32.05124083,-0.9517377978,-162.6032709,
62826666,-0.02781241893,-76.84083362,-42.7000624,-33.12060424,-0.9633870709,-164.3120117,
62884444,-0.02501078557,-76.91130004,-42.6209659,-33.78104084,-0.9751496424,-166.0174593,
62942222,-0.02436511582,-76.97781698,-42.55109148,-34.81913547,-0.9877197615,-167.7306818,
63000000,-0.01552642246,-77.08725309,-42.50613323,-35.68965199,-0.9899594925,-169.4744569,
