Frequency,S11_Magnitude,S11_Phase,S12_Magnitude,S12_Phase,S22_Magnitude,S22_Phase,
50000000,-0.06140856615,-61.34603291,-62.79248791,-176.1135565,-1.587428978,171.6514431,
50057777,-0.06341684968,-61.41344146,-61.66983686,176.4881833,-1.587025564,170.2859641,
50115555,-0.06141000109,-61.4656714,-62.27489364,170.2520743,-1.586565253,168.8927331,
50173333,-0.06092091687,-61.5261304,-62.04250869,168.8018404,-1.585841203,167.535839,
50231111,-0.05942365676,-61.61340769,-61.66861936,167.4559542,-1.584898027,166.1475974,
50288888,-0.05801616682,-61.67766718,-61.62353877,165.0506449,-1.583535947,164.7649863,
50346666,-0.05557892112,-61.74147273,-61.30160317,163.0058552,-1.580743208,163.3736421,
50404444,-0.05416582731,-61.82486884,-61.46337461,157.6518462,-1.57997598,161.9891352,
50462222,-0.05139822132,-61.89841501,-61.0712649,154.074262,-1.578811552,160.618355,
50520000,-0.04987008603,-61.98353264,-61.37019599,151.8501233,-1.576542614,159.2348686,
50577777,-0.04853314887,-62.03209893,-61.05615645,148.4326705,-1.573827092,157.8411441,
50635555,-0.04525862336,-62.11776028,-61.06362398,145.1809118,-1.568063697,156.4332933,
50693333,-0.04361478387,-62.20583133,-61.75616307,144.2189224,-1.561568136,155.0170198,
50751111,-0.04220668204,-62.25946509,-61.61703009,141.8455792,-1.558219654,153.598338,
50808888,-0.04043540783,-62.33268412,-61.85356093,138.0067382,-1.55658133,152.2049736,
50866666,-0.03875971782,-62.40932879,-62.06416316,138.4597291,-1.552495178,150.8068386,
50924444,-0.03576837047,-62.46174582,-61.66701152,131.8644649,-1.549441944,149.4235324,
50982222,-0.03465351087,-62.52829298,-62.20861938,122.8902697,-1.545512594,148.0425587,
51040000,-0.03254983896,-62.59728162,-62.53997443,127.2317959,-1.542075512,146.6322076,
51097777,-0.03183024326,-62.66633803,-62.42778214,121.5372659,-1.538866655,145.2401367,
51155555,-0.02929782553,-62.73363389,-62.33470505,118.8728238,-1.534146531,143.8388649,
51213333,-0.02806402496,-62.79750208,-63.30505599,120.4626711,-1.529080156,142.4370149,
51271111,-0.02746232426,-62.87660377,-62.96460675,116.8781032,-1.523495645,141.031536,
51328888,-0.02551459076,-62.95135116,-63.00108672,120.0424102,-1.520904665,139.6387511,
51386666,-0.02412478019,-63.00206443,-62.99027516,114.7664289,-1.516160199,138.2395801,
51444444,-0.02308218875,-63.05564349,-63.03800657,112.8022268,-1.510092131,136.8608281,
51502222,-0.02160754436,-63.12098847,-62.9841356,110.2042776,-1.504139439,135.4169899,
51560000,-0.02145338407,-63.19670665,-63.49428974,109.29949,-1.498037419,133.9879094,
51617777,-0.01886004597,-63.27785521,-64.20301002,106.8808496,-1.492682742,132.5715096,
51675555,-0.01715312859,-63.35093009,-63.58559126,104.8535559,-1.485803814,131.1531394,
51733333,-0.01765379306,-63.3839409,-65.09916425,95.64373889,-1.485251351,129.706247,
51791111,-0.01546769741,-63.47681679,-63.60506962,103.5753218,-1.475275142,128.2969495,
51848888,-0.01384979099,-63.5321313,-63.88312225,102.1309645,-1.46892899,126.8607827,
51906666,-0.01215517062,-63.59435457,-63.97003211,98.88411745,-1.462818787,125.4430699,
51964444,-0.01249583456,-63.65856424,-63.95505741,102.5859881,-1.456908962,124.0264104,
52022222,-0.01107818419,-63.71511957,-64.9187774,98.77509186,-1.452467265,122.6127663,
52080000,-0.01152003564,-63.77571631,-64.74227575,103.2155768,-1.444896686,121.1685571,
52137777,-0.009609217181,-63.82584205,-65.23751941,102.8580626,-1.439455091,119.7283989,
52195555,-0.009111069949,-63.89886,-64.7406768,100.0482101,-1.434300616,118.2900989,
52253333,-0.008276215397,-63.97078692,-64.98124864,104.5430094,-1.428638671,116.8462608,
52311111,-0.008281237246,-64.04595314,-64.97356198,98.86891194,-1.421850425,115.4059516,
52368888,-0.005778474722,-64.10681204,-64.94429655,100.4151549,-1.415887102,113.9582212,
52426666,-0.004334808408,-64.17518837,-64.47139355,103.1816271,-1.411720659,112.4966942,
52484444,-0.003005500984,-64.23734511,-64.97875427,97.06024712,-1.404093415,111.0315948,
52542222,-0.002583801121,-64.32001828,-65.30281727,101.8502656,-1.39647743,109.5570881,
52600000,-0.00198785771,-64.40496111,-65.11189541,101.8552939,-1.389891723,108.0738023,
52657777,0.001219761342,-64.47792278,-65.43480523,102.19593,-1.38199687,106.5912834,
52715555,0.002775601419,-64.55013484,-65.36021058,103.789491,-1.374097568,105.111249,
52773333,0.004799279298,-64.63783235,-65.73892144,102.5261631,-1.366486839,103.623309,
52831111,0.006056227314,-64.69911284,-64.77923902,108.1305032,-1.359846384,102.1328607,
52888888,0.005972473861,-64.77924974,-65.38696656,104.9025915,-1.353196529,100.6535482,
52946666,0.008119757167,-64.85378613,-65.25491803,103.4147407,-1.346171633,99.16803972,
53004444,0.009683944646,-64.91861692,-65.39392103,102.1830325,-1.340655008,97.69220116,
53062222,0.009857994838,-64.99094401,-67.1588186,104.2225219,-1.334235496,96.1939662,
53120000,0.01154457,-65.06661407,-66.39714173,99.26760315,-1.327581235,94.69393598,
53177777,0.0116863876,-65.14632451,-65.3699994,98.45643,-1.322149626,93.20218863,
53235555,0.01374868542,-65.21229095,-65.08091144,93.8702435,-1.316988912,91.69455836,
53293333,0.01301496341,-65.24976393,-64.66986285,96.22041464,-1.308777757,90.19030508,
53351111,0.01218084001,-65.30966798,-64.41484961,95.47513769,-1.301147711,88.66940375,
53408888,0.01169795806,-65.35924568,-64.67681272,96.92466761,-1.295365284,87.14713204,
53466666,0.01138687839,-65.42563902,-65.01867086,93.73162714,-1.289268817,85.6214323,
53524444,0.01019228374,-65.49353579,-64.41630329,97.49849766,-1.282557702,84.11685104,
53582222,0.01040693619,-65.55866458,-65.19378345,95.0022202,-1.277502951,82.60520654,
53640000,0.01123515703,-65.61945297,-64.39018741,93.96108863,-1.270929802,81.06940643,
53697777,0.01104858884,-65.68540578,-64.24649322,93.85702165,-1.265228113,79.55222977,
53755555,0.01090665041,-65.73650066,-65.23404856,98.48326969,-1.25992242,78.03213835,
53813333,0.01172733808,-65.79406234,-65.31733333,94.50671569,-1.253645728,76.50580032,
53871111,0.01181861231,-65.85748137,-64.75002879,100.2585356,-1.248498262,74.97652243,
53928888,0.01152005099,-65.94594399,-64.41430404,97.55350819,-1.243270795,73.42900277,
53986666,0.01208320072,-66.01346788,-64.96027943,97.87890722,-1.23630965,71.89946143,
54044444,0.01446626753,-66.08575281,-64.92262269,95.76900744,-1.230576671,70.34213233,
54102222,0.01609853789,-66.18689269,-64.68831644,93.89234767,-1.22614098,68.78880486,
54160000,0.02013374894,-66.29534782,-65.10997665,93.13188559,-1.220796524,67.26191714,
54217777,0.0174450454,-66.30905516,-64.91665041,91.50357787,-1.217099231,65.76593144,
54275555,0.01457511951,-66.34574041,-64.36031957,93.80471063,-1.212941388,64.22830769,
54333333,0.01337883477,-66.40428082,-64.2326652,92.38353112,-1.207265898,62.64834272,
54391111,0.01396153384,-66.48486,-64.12415616,93.08519871,-1.202834406,61.07648292,
54448888,0.01489494391,-66.54984094,-64.69005904,89.45375784,-1.19665122,59.49379831,
54506666,0.0151156335,-66.61374555,-64.35243694,89.04935371,-1.190191979,57.91743968,
54564444,0.01446732424,-66.68443164,-64.09365071,89.34424243,-1.185876582,56.32895901,
54622222,0.01364979516,-66.74085712,-63.69497437,86.27369207,-1.181077583,54.7260124,
54680000,0.01392471881,-66.79563654,-63.54649682,90.20606951,-1.176633367,53.16432161,
54737777,0.01382331635,-66.87393267,-63.05133224,90.98712638,-1.17361837,51.57155406,
54795555,0.01363724588,-66.93956231,-63.64980386,90.97164238,-1.168480386,49.98688809,
54853333,0.01414637762,-67.00843735,-63.24925389,87.45695123,-1.163825374,48.39242745,
54911111,0.01397653763,-67.08161322,-62.92440402,88.9533732,-1.159600314,46.79901219,
54968888,0.01403512549,-67.14165335,-63.14234973,85.2240633,-1.156793677,45.2082505,
55026666,0.01530441525,-67.21810085,-62.99010749,84.06972376,-1.151782427,43.61123738,
55084444,0.0145270583,-67.29977221,-62.99590712,84.19674397,-1.147181745,42.01316444,
55142222,0.01781576399,-67.35370444,-63.07362667,85.41169497,-1.14357055,40.40529665,
55200000,0.0210178259,-67.47936906,-62.86250994,97.16947312,-1.141524151,38.76500222,
55257777,0.02640857907,-67.60112647,-62.77073651,88.26605738,-1.134100475,37.13238033,
55315555,0.02652398995,-67.6652117,-62.7443263,88.12715376,-1.12987378,35.48952574,
55373333,0.02416241155,-67.70138118,-62.81538815,83.12806951,-1.12684252,33.88654228,
55431111,0.02289184102,-67.76139707,-62.64667548,82.28955394,-1.124940488,32.26926122,
55488888,0.02198745079,-67.82699258,-62.64990081,82.17530986,-1.123982433,30.65689956,
55546666,0.02188303266,-67.90950174,-62.17013602,83.87300906,-1.119878276,29.02845857,
55604444,0.02394278408,-67.97388415,-61.81999849,77.62473761,-1.116782019,27.42278149,
55662222,0.02279806596,-68.03106587,-61.93441567,76.37270082,-1.115434386,25.79125673,
55720000,0.02011536593,-68.08561849,-61.29366973,77.35354834,-1.11029165,24.13598644,
55777777,0.01951055302,-68.14577523,-61.55798588,76.45539405,-1.107579143,22.48736586,
55835555,0.01967864879,-68.20862496,-61.16795764,78.97014502,-1.103090831,20.83233356,
55893333,0.01914567515,-68.26828533,-61.31351396,75.68974548,-1.097914636,19.1696077,
55951111,0.02041248898,-68.33525218,-61.36938928,78.7912054,-1.093883782,17.50225247,
56008888,0.02044642296,-68.39860834,-61.24549275,75.29540394,-1.093086464,15.81035824,
56066666,0.02184838023,-68.47081711,-60.83614801,75.76165809,-1.09168262,14.14192344,
56124444,0.02329464745,-68.55459762,-60.86603134,74.96882445,-1.091056975,12.49207252,
56182222,0.02310445273,-68.62457318,-60.87641818,73.23810734,-1.09178653,10.82295583,
56240000,0.02394377151,-68.70160523,-60.55167986,72.58798458,-1.09025439,9.159416325,
56297777,0.02369090502,-68.77871628,-60.8030361,68.11462005,-1.089157537,7.481343179,
56355555,0.02455605073,-68.86225542,-60.86872119,68.32484958,-1.086508861,5.784953023,
56413333,0.02503260455,-68.92794284,-60.77015034,68.17460625,-1.085728055,4.099815762,
56471111,0.02385969958,-68.98639389,-60.75114172,68.40270337,-1.086073776,2.43533338,
56528888,0.02360779692,-69.04591253,-60.87053916,66.94226157,-1.08746278,0.7344893058,
56586666,0.0229477648,-69.10608083,-60.41542079,68.04238891,-1.08751517,-0.9560024466,
56644444,0.02331217256,-69.17022495,-60.33235055,65.30330429,-1.088119095,-2.647044658,
56702222,0.02312338359,-69.23658918,-60.79264723,66.36048971,-1.088237716,-4.333596137,
56760000,0.02289348425,-69.3081635,-60.73669724,65.29382579,-1.089940727,-6.033674695,
56817777,0.02353203266,-69.38562395,-60.51427572,66.70427652,-1.090373152,-7.765129913,
56875555,0.02325928063,-69.4630436,-59.92904373,67.03799989,-1.090506195,-9.481404149,
56933333,0.02584200073,-69.54061492,-59.8226071,63.73296819,-1.092238598,-11.22389188,
56991111,0.02977613525,-69.63578882,-60.13292748,63.39202337,-1.094298398,-12.96702974,
57048888,0.02865980298,-69.70970951,-60.13396548,59.53000017,-1.098301406,-14.67286999,
57106666,0.02601674507,-69.74089155,-60.04705784,59.9117597,-1.100401969,-16.38341496,
57164444,0.0258302887,-69.8128175,-59.97236074,59.70645727,-1.10214379,-18.12849568,
57222222,0.02537482269,-69.88485211,-60.09646867,57.33382679,-1.104839741,-19.89331049,
57280000,0.02527105463,-69.95572232,-59.94571371,56.94717462,-1.107569462,-21.63883625,
57337777,0.02585333728,-70.02624744,-60.11622733,56.37838009,-1.112518256,-23.40192214,
57395555,0.02554480227,-70.09236056,-59.98639787,55.94526311,-1.117400414,-25.17433657,
57453333,0.02729456524,-70.15620792,-60.13906172,54.40262189,-1.122258097,-26.93291068,
57511111,0.02628156062,-70.22095254,-59.76785934,53.82898781,-1.128323865,-28.70106075,
57568888,0.02748029199,-70.31751653,-59.82124679,52.56723684,-1.132623294,-30.47663056,
57626666,0.02751271071,-70.38560715,-59.46933519,53.01773066,-1.138958372,-32.26339794,
57684444,0.02768296071,-70.45735059,-59.84766712,50.05006423,-1.146419186,-34.04777241,
57742222,0.02605096282,-70.52117321,-59.67293301,50.13650958,-1.153702021,-35.83174191,
57800000,0.02444329936,-70.57345725,-59.39851169,49.30268131,-1.160975839,-37.63168465,
57857777,0.02332430708,-70.63583211,-59.45561237,47.94569739,-1.170290597,-39.4263649,
57915555,0.0210617953,-70.69365315,-59.3856843,49.22075043,-1.177876086,-41.22060117,
57973333,0.01895146015,-70.77243832,-59.16642713,46.05428727,-1.187546185,-43.04692448,
58031111,0.01613239822,-70.83073547,-59.22667559,44.81736524,-1.19612077,-44.86600972,
58088888,0.01348584917,-70.90389667,-59.00546763,45.10201752,-1.206977306,-46.71657908,
58146666,0.0124430534,-70.96806697,-58.9105664,44.45982931,-1.214968486,-48.59330507,
58204444,0.01440343318,-71.06312098,-59.12316715,44.71124926,-1.224092897,-50.49121013,
58262222,0.01434925318,-71.14196805,-59.26910649,43.06184798,-1.239590357,-52.3315011,
58320000,0.01256858518,-71.20992917,-59.10388098,43.07510662,-1.253743887,-54.17582542,
58377777,0.01156830028,-71.28066742,-59.06438628,42.52912303,-1.269539883,-56.01302346,
58435555,0.008758417366,-71.34767418,-58.83553599,41.54161226,-1.285916693,-57.87133722,
58493333,0.00719788331,-71.40864024,-58.8586669,39.80418059,-1.301913485,-59.75339906,
58551111,0.007012725644,-71.48490699,-58.16307406,43.56270903,-1.319446779,-61.65562019,
58608888,0.004360453895,-71.54491244,-58.994501,38.66748027,-1.337480681,-63.5286201,
58666666,0.002648206115,-71.61999587,-58.68793217,37.93314171,-1.357732109,-65.43480114,
58724444,0.001181659086,-71.69636978,-58.34882628,34.697869,-1.377640173,-67.34279479,
58782222,-0.0001582853351,-71.7592412,-58.49927358,36.24390202,-1.399153007,-69.25914077,
58840000,-0.001641092424,-71.82187456,-58.65926707,34.82329827,-1.421429558,-71.17774438,
58897777,-0.001008312857,-71.90348222,-58.67798813,34.42646368,-1.443410153,-73.1474032,
58955555,0.004867533541,-71.99030947,-58.43111815,33.95722112,-1.469633568,-75.09235635,
59013333,0.0001258661273,-72.04782324,-58.21214221,33.06923307,-1.495323479,-77.06353839,
59071111,-0.005147067096,-72.10297585,-58.09748159,33.42498642,-1.522287699,-79.04059065,
59128888,-0.007610408073,-72.15933056,-58.29260117,31.6675685,-1.551020022,-81.02177288,
59186666,-0.009281217666,-72.24492923,-58.09390489,31.47433351,-1.581057487,-83.01219113,
59244444,-0.009063094589,-72.30703535,-58.28399131,29.72505164,-1.612418593,-85.02738579,
59302222,-0.006697732228,-72.38449123,-58.66822754,29.7395872,-1.640507258,-87.0559693,
59360000,-0.005113388193,-72.46692483,-58.58648294,30.74788582,-1.670070895,-89.08383445,
59417777,-0.008480095705,-72.53663732,-58.60135686,28.72556507,-1.708575621,-91.09865752,
59475555,-0.009287669373,-72.60121763,-58.35709581,29.037881,-1.748848665,-93.12310096,
59533333,-0.009416241857,-72.66869631,-58.23237934,26.84626424,-1.789257037,-95.18909386,
59591111,-0.01365054797,-72.73375881,-58.23565159,26.12780347,-1.831584771,-97.26800133,
59648888,-0.01618999685,-72.80726892,-59.62067052,25.96801664,-1.87456799,-99.36565428,
59706666,-0.02034514149,-72.88698197,-57.97853143,24.60055014,-1.920061407,-101.4822526,
59764444,-0.02032736513,-72.95003773,-58.02215441,26.33319837,-1.967946793,-103.6007377,
59822222,-0.02087152037,-73.01138713,-57.96560705,23.33140514,-2.017424375,-105.7522633,
59880000,-0.02182841214,-73.10263161,-57.85195962,22.44648286,-2.071702266,-107.9209263,
59937777,-0.02248672368,-73.15511264,-57.80425223,22.5580738,-2.126524407,-110.0787497,
59995555,-0.02433159303,-73.23131465,-57.90429541,21.9173516,-2.182025142,-112.2617697,
60053333,-0.02692660444,-73.31589751,-57.50171623,21.82182694,-2.240776726,-114.4708369,
60111111,-0.02868174208,-73.36529805,-57.56378881,20.9135042,-2.303123904,-116.6961349,
60168888,-0.02985822488,-73.43282408,-57.31890605,17.98060414,-2.36917411,-118.9241471,
60226666,-0.03308414667,-73.50733881,-57.23800801,18.50938322,-2.437721223,-121.1783751,
60284444,-0.03489992177,-73.57221476,-57.17439978,17.30915771,-2.510365967,-123.4544049,
60342222,-0.03663269124,-73.632357,-56.88452549,17.66279969,-2.586315747,-125.7511633,
60400000,-0.06294862252,-74.40090179,-56.71724564,0.7337091071,-2.512484186,-129.0431059,
60457777,-0.03961687031,-73.78458636,-56.8927539,16.41860952,-2.75132452,-130.4405171,
60515555,-0.04175179349,-73.85747005,-56.80094746,14.91357968,-2.839742254,-132.8157323,
60573333,-0.04360971907,-73.92962054,-56.84423024,14.53582721,-2.932638014,-135.2382358,
60631111,-0.04454099409,-73.99793767,-56.69846389,14.10289475,-3.030110999,-137.6833154,
60688888,-0.04821340483,-74.07588745,-56.60540611,13.70537277,-3.132438195,-140.1462844,
60746666,-0.05052938263,-74.14757097,-56.49402548,11.93471934,-3.239781853,-142.64385,
60804444,-0.05218617316,-74.21332498,-56.46581417,10.56861945,-3.351327746,-145.1625539,
60862222,-0.05649741207,-74.27144831,-56.17490626,11.95464205,-3.47097134,-147.7204372,
60920000,-0.05927198499,-74.3432103,-56.30911125,8.721495558,-3.593138693,-150.3059077,
60977777,-0.06122192877,-74.42349212,-56.2026865,9.168552779,-3.723423902,-152.9291725,
61035555,-0.05995012539,-74.48428004,-56.17995725,8.11278589,-3.856987367,-155.5833924,
61093333,-0.05943979546,-74.55948047,-55.91298121,8.037170879,-3.997007408,-158.2790422,
61151111,-0.06026807087,-74.62948732,-55.99364163,5.891920186,-4.142215726,-161.032715,
61208888,-0.06039171071,-74.71776911,-55.80235645,5.991981085,-4.297342179,-163.803803,
61266666,-0.06048689247,-74.79015642,-55.71820158,4.251922869,-4.460645736,-166.6244067,
61324444,-0.06658194374,-74.88473444,-55.82669135,3.552154999,-4.628468795,-169.5628178,
61382222,-0.06028664123,-74.9494811,-55.53100728,2.954367526,-4.814041966,-172.409227,
61440000,-0.06217296164,-75.04505333,-55.62946467,2.152944398,-5.00476291,-175.3598792,
61497777,-0.05847339633,-75.11845519,-55.44938727,0.7291809986,-5.2109322,-178.4134248,
61555555,-0.06176968912,-75.18397934,-55.31413297,-1.696807198,-5.416627015,178.5016358,
61613333,-0.06122613133,-75.28052009,-55.34451138,-1.999333543,-5.639790383,175.3556559,
61671111,-0.06169587543,-75.3784506,-55.2954658,-2.278457396,-5.873349632,172.1199652,
61728888,-0.05632844389,-75.44698084,-54.98431233,-0.8578372559,-6.11486664,168.7822178,
61786666,-0.05697384573,-75.5181073,-55.00774216,-4.266268516,-6.384898652,165.4166673,
61844444,-0.05532539296,-75.60278603,-54.92649978,-7.544465651,-6.660829625,161.9353682,
61902222,-0.05538052366,-75.69638865,-54.81475261,-7.760808061,-6.950217744,158.3491915,
61960000,-0.05533871545,-75.78481775,-54.75218751,-7.913972777,-7.255493853,154.6322751,
62017777,-0.05449866751,-75.88079877,-54.65670095,-9.366871043,-7.573877126,150.7967222,
62075555,-0.06993901108,-76.06175115,-55.18577035,-13.47717285,-7.881664678,146.7244022,
62133333,0.01280736623,-76.37142151,-54.06031382,-19.55431713,-8.304067274,142.5472231,
62191111,-0.04778485878,-76.11116314,-54.17120325,-13.20559798,-8.641636468,138.4463544,
62248888,-0.03391905156,-76.49684747,-54.61390875,-7.90280956,-9.035819203,133.9265877,
62306666,-0.04439763292,-76.24192178,-54.29573616,-16.01150894,-9.438796197,129.2546811,
62364444,-0.04357472032,-76.30648838,-54.44246629,-16.21927897,-9.864871295,124.3105179,
62422222,-0.04149113739,-76.38911467,-54.34449958,-18.80728751,-10.30612122,119.0668923,
62480000,-0.03934623796,-76.43106959,-54.3700797,-18.32104045,-10.75855312,113.5330073,
62537777,-0.03799429615,-76.5023335,-54.23475402,-19.36422328,-11.21747654,107.6345879,
62595555,-0.03624991373,-76.56596695,-54.24429108,-20.87524969,-11.68313249,101.3289197,
62653333,-0.03413905448,-76.65185779,-54.07696221,-21.42774846,-12.14076195,94.5810245,
62711111,-0.0335031193,-76.71801332,-54.08658171,-23.10401546,-12.58249265,87.37463525,
62768888,-0.03126440056,-76.76601811,-53.80660731,-24.51781593,-12.9902402,79.67847486,
62826666,-0.02641029132,-76.89712965,-54.08734968,-24.51521726,-13.3468892,71.4880813,
62884444,-0.02492046801,-76.93106493,-54.02832206,-25.52504841,-13.63885318,62.84409744,
62942222,-0.0233821976,-76.98385318,-54.00964169,-26.82429572,-13.84501474,53.8145902,
63000000,-0.02781242993,-77.00576278,-53.97744556,-28.29490801,-13.94536733,44.69253984,
63057777,-0.01997992479,-77.12179931,-53.86702278,-29.28414774,-13.9444721,35.30349554,
