Frequency,S11_Magnitude,S11_Phase,S12_Magnitude,S12_Phase,S22_Magnitude,S22_Phase,
50000000,-0.06755012926,-61.32152445,-63.90153532,-6.002919179,-2.285791285,171.5853743,
50057777,-0.06498397604,-61.39037964,-64.60113852,-6.198230085,-2.298940889,170.2527162,
50115555,-0.06481114379,-61.46516338,-65.07707368,-2.553991431,-2.309433422,168.8903773,
50173333,-0.06196315972,-61.53217532,-65.0635628,0.1619784513,-2.319489787,167.5352623,
50231111,-0.06085073662,-61.60109811,-65.14217955,1.713488401,-2.328996725,166.1753422,
50288888,-0.06061490597,-61.67905678,-65.12830751,11.31100677,-2.339890843,164.8163967,
50346666,-0.05811671303,-61.72023381,-65.43328322,8.748051267,-2.349768287,163.4714321,
50404444,-0.05648362547,-61.80713188,-65.22272737,15.70921736,-2.35809943,162.114001,
50462222,-0.05559610433,-61.87619609,-64.95670912,15.92276219,-2.369036535,160.7639587,
50520000,-0.0540677321,-61.94081838,-64.38525836,26.24487141,-2.378160215,159.4093222,
50577777,-0.05132126489,-62.00789547,-64.3325026,24.13628233,-2.386992627,158.0853832,
50635555,-0.0495613002,-62.07397418,-63.38804753,27.68462048,-2.396384262,156.7649825,
50693333,-0.04718544758,-62.1548748,-63.28406016,27.19253354,-2.404642131,155.4161496,
50751111,-0.04403700402,-62.22055796,-62.52403987,29.91914757,-2.414000195,154.0958957,
50808888,-0.04277108714,-62.30470994,-62.26504244,28.37108988,-2.423799566,152.7735188,
50866666,-0.04068789477,-62.38863514,-61.46340993,27.00292629,-2.433377143,151.474143,
50924444,-0.03877072773,-62.45632102,-60.86092822,27.95781579,-2.440942885,150.1410266,
50982222,-0.03725835438,-62.53353498,-60.91494798,27.74710143,-2.450121221,148.8107235,
51040000,-0.0336027132,-62.58890685,-60.23307671,27.89469665,-2.456546278,147.4829895,
51097777,-0.03144625636,-62.64585042,-60.10552596,26.27078451,-2.465148167,146.1711094,
51155555,-0.0298579702,-62.71782219,-59.93372605,24.6658515,-2.471136022,144.8527359,
51213333,-0.02887669451,-62.79119362,-59.56745902,23.12235956,-2.479261982,143.5191376,
51271111,-0.02740563627,-62.86829753,-59.19713635,21.91327915,-2.485534779,142.2268012,
51328888,-0.02710269086,-62.9237223,-59.04859932,21.79132224,-2.49151943,140.893482,
51386666,-0.02550298189,-63.00358002,-58.42948766,19.1591903,-2.495377469,139.5737293,
51444444,-0.02423589457,-63.05107075,-58.51496042,16.6689791,-2.500053017,138.2378178,
51502222,-0.02567886278,-63.08994266,-58.089742,15.77300389,-2.506284206,136.9439209,
51560000,-0.02442540152,-63.17741756,-57.92634315,14.09948742,-2.512495083,135.6541803,
51617777,-0.02157103055,-63.26075018,-57.65385875,13.92667333,-2.516795074,134.3407495,
51675555,-0.0192013752,-63.33789331,-57.71407187,11.13748678,-2.520848015,133.0308051,
51733333,-0.01218785783,-63.45147808,-57.20485821,8.020123041,-2.515303849,131.7063501,
51791111,-0.01246498573,-63.49570236,-57.23234571,7.329701546,-2.524386404,130.3998149,
51848888,-0.01257288282,-63.54733979,-57.0678505,6.289608561,-2.522506095,129.0677578,
51906666,-0.01157231773,-63.60718267,-57.05414673,2.110400153,-2.522116083,127.7202887,
51964444,-0.01329933502,-63.64810986,-57.00332155,1.558654434,-2.525444582,126.4631224,
52022222,-0.01454450031,-63.69150816,-56.76981951,-0.1225189635,-2.528191714,125.1758015,
52080000,-0.01526055052,-63.7531941,-56.71633605,-2.512720022,-2.529336065,123.8713141,
52137777,-0.01529015288,-63.81049311,-56.33726397,-2.445941868,-2.529096548,122.5610789,
52195555,-0.01455801784,-63.8753324,-56.43277255,-5.574454419,-2.527459936,121.2496479,
52253333,-0.01480438335,-63.93478443,-56.27195421,-5.717336062,-2.525828561,119.9408722,
52311111,-0.01190758843,-64.00505788,-56.05216179,-8.158367586,-2.523020371,118.6410622,
52368888,-0.01017049886,-64.08431639,-55.97706551,-10.91828076,-2.518576707,117.3290136,
52426666,-0.00712334821,-64.17220128,-55.85284449,-12.14412098,-2.513893783,115.9960249,
52484444,-0.002942173389,-64.280781,-55.78198395,-12.77360082,-2.508730962,114.661613,
52542222,0.0009021644628,-64.40287364,-55.65208143,-14.69924068,-2.503871288,113.3437037,
52600000,0.00334108791,-64.45880739,-55.55088949,-17.59911579,-2.498005035,112.0290967,
52657777,0.0004879412651,-64.49347236,-55.61458204,-17.53814988,-2.491674656,110.711775,
52715555,-0.002781769818,-64.52792519,-55.44774525,-20.24532785,-2.486618374,109.3841994,
52773333,-0.001015816502,-64.55249075,-55.21665969,-22.08663536,-2.478032124,108.0279474,
52831111,-0.00297883305,-64.62004483,-55.08957346,-23.55578487,-2.469354053,106.7150644,
52888888,-0.00307405946,-64.68228742,-55.08364285,-23.93243074,-2.460498274,105.3791471,
52946666,-0.0006780792814,-64.76388912,-54.95713405,-26.63606974,-2.450173674,104.0407404,
53004444,0.001453966864,-64.8386499,-54.97794585,-27.81286539,-2.44071002,102.6962806,
53062222,0.00486391894,-64.92863918,-54.96695448,-28.8596575,-2.429080821,101.3598226,
53120000,0.006888658876,-65.01949772,-54.82727659,-29.84592851,-2.416060214,100.0023399,
53177777,0.009953134556,-65.10991218,-54.73660308,-32.61412828,-2.403812044,98.64298656,
53235555,0.01208704387,-65.19321197,-54.63521174,-34.76885126,-2.391445267,97.28035176,
53293333,0.01263252547,-65.26822,-54.57537108,-35.45239258,-2.376876791,95.89647191,
53351111,0.01346289629,-65.30794795,-54.52661609,-35.99751951,-2.361766576,94.51705758,
53408888,0.01324332232,-65.36965038,-54.41504216,-38.6517185,-2.345739,93.13117743,
53466666,0.01176120432,-65.42278018,-54.38422251,-40.69345369,-2.330881277,91.73759035,
53524444,0.01092366885,-65.50358579,-54.26365716,-41.13261238,-2.317504432,90.40287747,
53582222,0.009290658637,-65.56027491,-54.29190433,-42.75168701,-2.304332412,89.05826199,
53640000,0.008658947952,-65.62029662,-54.13885736,-44.0365404,-2.289309239,87.685178,
53697777,0.00878893534,-65.68537141,-54.05324874,-47.15000057,-2.271249972,86.29896731,
53755555,0.009639460307,-65.75434988,-54.13998414,-47.40253387,-2.255308771,84.91627374,
53813333,0.01082591725,-65.8242958,-54.08672337,-49.22520799,-2.237106527,83.50866872,
53871111,0.01188497976,-65.92009396,-54.04316214,-50.54244696,-2.219088892,82.09529499,
53928888,0.02011908611,-66.03596192,-53.96264122,-52.14197877,-2.198639995,80.69150654,
53986666,0.0230409865,-66.10262583,-53.88137197,-54.17327584,-2.180624558,79.27386378,
54044444,0.01962489509,-66.1388027,-53.755341,-55.04362316,-2.161088121,77.87064105,
54102222,0.01686721712,-66.18046689,-53.69858422,-55.5376282,-2.141262944,76.41859239,
54160000,0.01430495077,-66.2264332,-53.73741062,-58.50685409,-2.121164684,74.99517071,
54217777,0.01471234131,-66.2970595,-53.67574932,-59.95485991,-2.100524934,73.55473142,
54275555,0.01329765714,-66.36436124,-53.60711935,-60.23326244,-2.077361274,72.12207526,
54333333,0.01333994974,-66.41620761,-53.58607483,-62.68451919,-2.05646555,70.66800781,
54391111,0.01421043442,-66.48934619,-53.47363934,-64.03691036,-2.032045199,69.20027933,
54448888,0.01413683309,-66.55345752,-53.39447968,-65.02939857,-2.01028333,67.74261281,
54506666,0.01375973443,-66.60995007,-53.39580204,-67.12389878,-1.988012373,66.25870447,
54564444,0.01389208705,-66.68168093,-53.13422571,-68.3242248,-1.963165004,64.75992588,
54622222,0.01458477639,-66.73374007,-53.13069906,-69.91520634,-1.941701354,63.25760659,
54680000,0.01333990662,-66.8027414,-53.13965441,-71.29176641,-1.919035368,61.76737705,
54737777,0.01468305769,-66.86944071,-53.13746519,-72.3405476,-1.89428651,60.27810775,
54795555,0.01597484631,-66.95173531,-53.1492103,-73.12984784,-1.870075389,58.76320395,
54853333,0.01516211646,-67.01463013,-53.00443686,-76.46162208,-1.845748158,57.24356591,
54911111,0.0147282678,-67.07726992,-53.0229652,-77.36799981,-1.819933056,55.72507662,
54968888,0.01382504363,-67.15580294,-53.0564262,-78.21898405,-1.795437583,54.18419066,
55026666,0.01394029516,-67.22248303,-53.07127612,-79.69920638,-1.772110104,52.65836647,
55084444,0.01669924226,-67.29014995,-52.93611594,-81.16541132,-1.745905716,51.1212512,
55142222,0.0164359507,-67.35877903,-52.85335234,-81.68234185,-1.721577234,49.5671202,
55200000,0.02107753788,-67.42564818,-52.75337457,-81.93387245,-1.698296845,48.02352294,
55257777,0.01834748209,-67.50804866,-52.82253201,-86.02665506,-1.675851071,46.46195725,
55315555,0.01918229804,-67.5803415,-52.90930483,-87.08057277,-1.650289085,44.9026999,
55373333,0.0217622343,-67.68142871,-52.73904796,-87.84500059,-1.625882038,43.33327156,
55431111,0.02398460327,-67.75235844,-52.68484448,-89.45343391,-1.601227514,41.77001906,
55488888,0.02339690567,-67.80592112,-52.61534621,-91.04842635,-1.577483928,40.20516409,
55546666,0.0223930518,-67.88774474,-52.50404875,-92.9203013,-1.553335174,38.62056643,
55604444,0.02718835507,-68.00874645,-52.56601169,-93.99801987,-1.530016653,37.05185797,
55662222,0.02758524751,-68.07125266,-52.41753037,-94.75103121,-1.505224967,35.45995076,
55720000,0.01883909615,-68.07939986,-52.40034351,-96.41125377,-1.483352576,33.87744749,
55777777,0.0182129439,-68.10831085,-52.57184007,-98.49156483,-1.457364145,32.26704095,
55835555,0.01856718328,-68.17546109,-52.46700306,-99.20904551,-1.433011353,30.64216132,
55893333,0.01930071984,-68.23787639,-52.41246915,-100.5840609,-1.407035561,29.00690448,
55951111,0.02033448235,-68.32250168,-52.33508042,-101.8445972,-1.381488348,27.35185962,
56008888,0.02028310155,-68.398047,-52.24850969,-103.013139,-1.357789876,25.70499104,
56066666,0.01985856859,-68.47475738,-52.29072629,-104.2094118,-1.336199845,24.07688157,
56124444,0.02088856225,-68.54313963,-52.22887463,-105.2403858,-1.313690465,22.46342001,
56182222,0.02066255048,-68.6171003,-52.17896167,-107.7460957,-1.291605809,20.82431412,
56240000,0.02132589979,-68.68143467,-52.24856743,-108.9620165,-1.268463699,19.18969283,
56297777,0.02082018895,-68.76566282,-52.10890733,-110.2932199,-1.245400602,17.53736286,
56355555,0.02100488685,-68.8075307,-52.17992311,-112.2470038,-1.222922061,15.86025673,
56413333,0.02157535678,-68.88828272,-52.27880878,-113.1512654,-1.199480658,14.20256658,
56471111,0.02080776614,-68.95111043,-52.22469799,-114.4497445,-1.177008079,12.51100814,
56528888,0.02011816728,-69.0138628,-52.22410381,-115.612016,-1.156023988,10.82343088,
56586666,0.021078628,-69.08990226,-52.13533307,-117.4113963,-1.133275277,9.117139451,
56644444,0.02008967612,-69.14759459,-52.13539755,-119.02801,-1.111191439,7.432349215,
56702222,0.0205443951,-69.23509496,-52.0559284,-120.0064155,-1.088338344,5.702820087,
56760000,0.02016268024,-69.30100312,-52.04167963,-120.7923196,-1.066242991,3.986094888,
56817777,0.01957288527,-69.37357354,-51.98742768,-123.0880149,-1.047760588,2.264827428,
56875555,0.02076343037,-69.43429407,-52.09112459,-124.1961147,-1.027745679,0.5388993058,
56933333,0.01992045947,-69.4983494,-52.05928114,-126.3294289,-1.007473737,-1.20383792,
56991111,0.01957723253,-69.56963126,-52.09419605,-127.3827947,-0.9869743746,-2.948169437,
57048888,0.02052214672,-69.64892136,-52.03109961,-128.950711,-0.9682263903,-4.708723276,
57106666,0.02263445294,-69.70525199,-51.98745635,-129.8384485,-0.9489768194,-6.459986478,
57164444,0.02385538115,-69.79017449,-51.85917153,-131.5529893,-0.9294062571,-8.224123072,
57222222,0.02451282644,-69.86102853,-51.81834217,-132.5939617,-0.9131786153,-9.995358096,
57280000,0.02413562098,-69.92696976,-51.90255874,-134.1319993,-0.8932392179,-11.78126985,
57337777,0.0242248914,-70.00671665,-51.75955165,-135.228074,-0.8769128961,-13.56307067,
57395555,0.02442683277,-70.0791499,-51.80115836,-137.6231848,-0.8607114677,-15.37611395,
57453333,0.02371675754,-70.14610341,-51.79573389,-138.7364708,-0.8441287773,-17.18253295,
57511111,0.02438793906,-70.21961885,-51.85785791,-140.3688122,-0.8302427658,-18.99153005,
57568888,0.02567860016,-70.28628143,-51.82289765,-141.5601828,-0.8162616686,-20.79829737,
57626666,0.0256045724,-70.34428176,-51.73521747,-142.8610993,-0.800795344,-22.6123281,
57684444,0.02480939392,-70.40921224,-51.66789224,-145.1473072,-0.7875698078,-24.46137031,
57742222,0.02397962622,-70.47667067,-51.62789892,-146.1793585,-0.7751129087,-26.32052645,
57800000,0.02333053074,-70.55755398,-51.67001637,-147.4250817,-0.7646582076,-28.17697061,
57857777,0.02296826587,-70.63574364,-51.65549604,-148.2828918,-0.7531009041,-30.03455956,
57915555,0.02159862853,-70.70091599,-51.57274411,-150.1276984,-0.7417729379,-31.91762562,
57973333,0.02069850382,-70.76401451,-51.60292022,-151.7671831,-0.7283713999,-33.82960743,
58031111,0.01936154799,-70.82388641,-51.60011994,-153.0970679,-0.7181660787,-35.72097297,
58088888,0.01721126804,-70.89587223,-51.66250998,-154.7536764,-0.7126137648,-37.53210388,
58146666,0.01463603224,-70.96875886,-51.68421409,-155.2984238,-0.7081036804,-39.38326402,
58204444,0.01165919976,-71.05536409,-51.54323587,-157.4408944,-0.7016576109,-41.28816187,
58262222,0.01336837051,-71.13344307,-51.51033963,-158.246341,-0.6967687247,-43.21092822,
58320000,0.01387477745,-71.21308911,-51.47372643,-160.1433553,-0.6924380961,-45.13123412,
58377777,0.01265945001,-71.28123477,-51.58156883,-160.9726827,-0.6887585092,-47.06239178,
58435555,0.01141934642,-71.34315415,-51.37530272,-163.4846179,-0.6843133331,-49.01768221,
58493333,0.00891432148,-71.40306563,-51.41937688,-163.7700092,-0.6815046898,-50.95601982,
58551111,0.009974344307,-71.45790533,-51.34729002,-165.689825,-0.6789971575,-52.93153787,
58608888,0.005759640029,-71.52945685,-51.43280251,-167.5551384,-0.6808722275,-54.87498137,
58666666,0.002974795778,-71.60668033,-51.32158323,-168.6341603,-0.6834888252,-56.82295022,
58724444,0.002159511802,-71.67119693,-51.35741498,-170.4210868,-0.6889781571,-58.77625502,
58782222,-0.0004746010109,-71.75052229,-51.29812229,-171.8767699,-0.6941795706,-60.75168008,
58840000,-0.002042173836,-71.81310951,-51.36663096,-173.9008007,-0.7013478515,-62.73440414,
58897777,-0.003814106506,-71.87667365,-51.22954312,-175.0713693,-0.7097591384,-64.72581679,
58955555,-0.004292540563,-71.95502124,-51.26862022,-176.6204742,-0.7192817894,-66.72514137,
59013333,-0.005571730315,-72.0281368,-51.22891251,-178.2877309,-0.7308944505,-68.73833,
59071111,-0.006140613607,-72.09816094,-51.30355506,-179.9297774,-0.7430771865,-70.77161574,
59128888,-0.007880717719,-72.17592226,-51.24893052,178.5657994,-0.7567733468,-72.80587455,
59186666,-0.008670455271,-72.24591893,-51.30203452,177.0981339,-0.7731937723,-74.85296298,
59244444,-0.01162478798,-72.30506356,-51.10822453,175.7118968,-0.7896399181,-76.92211053,
59302222,-0.01263544784,-72.36305847,-51.23437575,173.5960678,-0.8081691391,-78.99662922,
59360000,-0.01369376099,-72.43432575,-51.20054652,172.239723,-0.8293888797,-81.07604509,
59417777,-0.01417575858,-72.51546311,-51.18820074,169.6954851,-0.8516112607,-83.18315807,
59475555,-0.01496606452,-72.59694967,-51.17820416,168.2854862,-0.8775996526,-85.26934183,
59533333,-0.01567948119,-72.65967938,-51.20487708,167.0779857,-0.9035838804,-87.36931903,
59591111,-0.01490633274,-72.73325553,-51.18560149,165.5221077,-0.934162866,-89.48832969,
59648888,-0.01395137671,-72.79669148,-51.7246501,165.7928241,-0.9657100057,-91.62601369,
59706666,-0.01486113605,-72.88187617,-51.19344797,162.3665999,-1.002423896,-93.73771665,
59764444,-0.01677490545,-72.9466208,-51.22272612,161.1586527,-1.043684124,-95.8848579,
59822222,-0.01915856447,-73.02144786,-51.23394415,158.8446986,-1.085252302,-98.06472685,
59880000,-0.02416496412,-73.09442683,-51.22730513,157.3648516,-1.127615796,-100.2474965,
59937777,-0.02688044866,-73.15461279,-51.20204604,155.0047276,-1.170330098,-102.4383346,
59995555,-0.02805117732,-73.22321597,-51.22038416,153.6927392,-1.217759031,-104.623365,
60053333,-0.02987764329,-73.29796819,-51.2060163,151.4799315,-1.267101925,-106.8375051,
60111111,-0.03059631916,-73.37004611,-51.33865856,150.5143356,-1.3216554,-109.0620414,
60168888,-0.0331179429,-73.44465648,-51.49533721,148.2921925,-1.378873228,-111.2817529,
60226666,-0.03458617099,-73.52020738,-51.41781018,145.9945314,-1.440060259,-113.5347352,
60284444,-0.0372997118,-73.5823479,-51.54898584,144.5109083,-1.506121954,-115.7800146,
60342222,-0.03959246505,-73.64648856,-51.62510333,142.4804931,-1.575469679,-118.0468585,
60400000,-0.1967822566,-72.91518717,-46.33548315,53.25155327,-1.815945549,-120.7607097,
60457777,-0.04184166725,-73.78574982,-51.76652718,139.3587787,-1.725768141,-122.6103686,
60515555,-0.04353239968,-73.8589705,-51.75303396,137.2724711,-1.807644145,-124.9239791,
60573333,-0.04521307826,-73.93787913,-51.80778949,135.312227,-1.8938653,-127.251364,
60631111,-0.04751645294,-74.01354832,-51.96565653,132.9656757,-1.984462833,-129.5738945,
60688888,-0.05012760018,-74.084432,-51.91110047,132.1959424,-2.078970694,-131.9030502,
60746666,-0.05380568959,-74.15105516,-51.98363727,130.0320598,-2.180648427,-134.253336,
60804444,-0.05532212297,-74.22376081,-52.14025008,126.8726056,-2.285464827,-136.6168509,
60862222,-0.05832657045,-74.29622984,-52.27581459,125.6103357,-2.39682016,-138.9974109,
60920000,-0.06173478105,-74.37332434,-52.25096729,124.10364,-2.513377588,-141.3898796,
60977777,-0.06395360612,-74.44239661,-52.46076564,120.5932956,-2.635164048,-143.7895179,
61035555,-0.06488431202,-74.51547586,-52.44106633,119.2957888,-2.761480017,-146.1987894,
61093333,-0.06302707835,-74.5820509,-52.53326394,117.0490453,-2.893456051,-148.6100506,
61151111,-0.06335554599,-74.6542532,-52.71045587,115.6851075,-3.030112777,-151.0287619,
61208888,-0.06352261034,-74.72733302,-52.79193018,113.3005382,-3.174343345,-153.4607242,
61266666,-0.06385474235,-74.80747706,-52.87588991,110.5372472,-3.326594567,-155.8920364,
61324444,-0.05733377051,-74.89850063,-53.04415839,109.2822417,-3.482007022,-158.2930208,
61382222,-0.06349100648,-74.96094308,-53.10938588,106.828613,-3.653266953,-160.8002213,
61440000,-0.06451474639,-75.04359975,-53.33258655,104.0144128,-3.827672499,-163.2582486,
61497777,-0.06151120018,-75.11175718,-53.49718076,102.5423161,-4.009076825,-165.6914963,
61555555,-0.06306683532,-75.20393821,-53.66674841,99.80117241,-4.204038445,-168.1769193,
61613333,-0.06252588021,-75.27769572,-53.807278,97.31960934,-4.407448645,-170.6456017,
61671111,-0.06025291282,-75.35364325,-53.99786858,95.02038296,-4.61942996,-173.126375,
61728888,-0.06078184776,-75.40945738,-53.89589498,94.02000784,-4.836518252,-175.56818,
61786666,-0.05781310374,-75.49560434,-54.54020922,90.49398662,-5.073481575,-178.0957084,
61844444,-0.05721521305,-75.57344763,-54.67987533,88.82566217,-5.317511772,179.4445949,
61902222,-0.05581377427,-75.65687829,-54.85120547,86.69002113,-5.573580791,176.9777047,
61960000,-0.05311209359,-75.73940936,-54.94909903,84.52664178,-5.840501308,174.4907757,
62017777,-0.05358804902,-75.83407074,-55.33950553,82.31682535,-6.117649615,171.972944,
62075555,-0.05282017514,-76.08519996,-55.12880986,73.68687441,-6.38501621,169.5467239,
62133333,0.05467671125,-76.3563018,-55.30936199,74.44958916,-6.672486436,166.9282905,
62191111,-0.04768258878,-76.08129512,-56.14555577,75.09593182,-7.046958373,164.596413,
62248888,-0.04515376682,-76.40220055,-64.18796252,93.2566527,-7.380122486,162.4675585,
62306666,-0.04653824129,-76.216184,-56.53865198,71.66017308,-7.744852501,159.6968258,
62364444,-0.04459048888,-76.30110303,-56.84265278,68.82416331,-8.121642874,157.2775806,
62422222,-0.04237467358,-76.35572475,-57.24695262,67.11969796,-8.519428007,154.8734833,
62480000,-0.04155952968,-76.44144574,-57.58511291,63.35558493,-8.937735826,152.4992982,
62537777,-0.03930039211,-76.53526647,-58.1843805,62.00429926,-9.380803616,150.1229987,
62595555,-0.03776189086,-76.60246247,-58.61008828,59.6168045,-9.852379743,147.7528855,
62653333,-0.03536012566,-76.66690176,-58.97534359,57.15295951,-10.34937116,145.4027437,
62711111,-0.03373852449,-76.74057583,-59.46794861,54.29304453,-10.8793136,143.1118516,
62768888,-0.03195015644,-76.80426728,-59.81931074,51.4164485,-11.44132017,140.8580669,
62826666,-0.03005927282,-76.88404525,-60.16365989,47.32146565,-12.04448996,138.6313087,
62884444,-0.02650767993,-76.94245324,-60.92026874,46.5908013,-12.6896402,136.4775366,
62942222,-0.02490064652,-77.03240034,-61.38110766,44.905227,-13.38589582,134.3741345,
