Frequency,S11_Magnitude,S11_Phase,S12_Magnitude,S12_Phase,S22_Magnitude,S22_Phase,
50000000,-0.06226189047,-61.37558863,-58.41794143,163.913756,-1.8772369,174.0360711,
50057777,-0.06100566763,-61.43329472,-58.1915364,165.4534244,-1.883721325,172.6546285,
50115555,-0.06059056286,-61.51082388,-57.81688303,166.2403316,-1.89066542,171.2873643,
50173333,-0.06003913173,-61.57754279,-57.64867604,162.1403313,-1.895524813,169.933115,
50231111,-0.05849481949,-61.64110371,-57.67575916,160.8393555,-1.899191735,168.5642495,
50288888,-0.05511395674,-61.71737737,-57.14740332,157.879269,-1.904946409,167.176708,
50346666,-0.05395035327,-61.78182009,-56.86982832,157.2863754,-1.90950011,165.824731,
50404444,-0.0522928551,-61.84977254,-56.75356187,156.0256329,-1.915296395,164.4567687,
50462222,-0.05005627487,-61.92487507,-56.62909987,152.5881792,-1.917699359,163.0852728,
50520000,-0.04831263944,-61.99561467,-56.82235797,151.9318527,-1.922474945,161.7180318,
50577777,-0.04645042735,-62.08102202,-56.76777592,149.2099172,-1.926056877,160.3560604,
50635555,-0.04507166646,-62.14429027,-56.42553938,147.8876648,-1.92959522,158.9948683,
50693333,-0.04349496648,-62.22103686,-56.28268279,144.4342934,-1.934492536,157.6274127,
50751111,-0.0407645225,-62.27892255,-55.97080428,143.5688708,-1.938455192,156.2759214,
50808888,-0.03963809616,-62.32837188,-56.12241613,141.3882977,-1.942150329,154.9157264,
50866666,-0.03904846094,-62.39976059,-56.00041514,139.2671575,-1.945683546,153.5551524,
50924444,-0.0367484788,-62.44436576,-55.97494563,136.147085,-1.948422166,152.2168169,
50982222,-0.0352278224,-62.51680732,-56.07023139,135.1662098,-1.951912539,150.864647,
51040000,-0.03406091116,-62.56114564,-56.30053087,131.5489582,-1.954173767,149.5150878,
51097777,-0.03339316449,-62.6278692,-56.22938915,131.2592071,-1.958473029,148.1543328,
51155555,-0.03184233198,-62.68196944,-56.23639483,129.4449393,-1.961691885,146.8184371,
51213333,-0.03076537904,-62.75021519,-56.32869067,127.9412788,-1.965087805,145.4710168,
51271111,-0.03077230721,-62.79813188,-56.15638794,125.7016874,-1.968051741,144.139431,
51328888,-0.02936458306,-62.8642482,-56.32234654,124.4067449,-1.970883468,142.7783556,
51386666,-0.02739761,-62.93962284,-56.14755205,122.4744275,-1.973175829,141.405074,
51444444,-0.0239875436,-63.04154139,-56.46706413,122.7020428,-1.973251785,140.0471605,
51502222,-0.02170318214,-63.11631136,-56.62187791,120.9436517,-1.973484432,138.6884108,
51560000,-0.02029484428,-63.17973705,-56.66078871,120.0261727,-1.975160384,137.3663702,
51617777,-0.02042497076,-63.24278729,-56.54809387,118.0882461,-1.977652124,136.0171307,
51675555,-0.01712169581,-63.33092179,-56.54448101,118.5367336,-1.980286742,134.6925637,
51733333,-0.01410231551,-63.39000246,-56.66948391,114.5100081,-1.989903677,133.4480821,
51791111,-0.01143561869,-63.47958452,-56.49822585,114.2975627,-1.983161068,131.9955857,
51848888,-0.01127089441,-63.55925072,-56.54457467,112.0626797,-1.984057993,130.6201722,
51906666,-0.01061672265,-63.59916784,-56.55436406,113.1708241,-1.983799492,129.2584534,
51964444,-0.01129311502,-63.64445938,-56.74263207,111.6110218,-1.983599381,127.8944047,
52022222,-0.01216004284,-63.70739728,-56.57905014,110.2126152,-1.982538447,126.5478171,
52080000,-0.01303773556,-63.7691285,-56.72561643,110.0180555,-1.980386479,125.1687187,
52137777,-0.01116370699,-63.83282403,-56.50688877,107.5742269,-1.978147009,123.8151772,
52195555,-0.009309827047,-63.9028021,-56.78500003,106.7657521,-1.977515222,122.4580801,
52253333,-0.009791017683,-63.96271615,-56.67955803,105.8806691,-1.97499022,121.106219,
52311111,-0.008451679904,-64.01794902,-56.74792788,104.6811713,-1.973008938,119.7445092,
52368888,-0.006924846824,-64.1039035,-56.9067918,105.0194469,-1.97060851,118.3872376,
52426666,-0.006769469049,-64.17465423,-56.66861303,102.4188409,-1.968145471,117.0050824,
52484444,-0.005865547376,-64.22643778,-56.71602945,102.1559976,-1.963938768,115.6442823,
52542222,-0.005694877684,-64.2988799,-56.86558515,100.7857984,-1.958634563,114.2767207,
52600000,-0.005401198352,-64.33652019,-56.78466111,100.3743108,-1.953695009,112.8834461,
52657777,-0.004910545447,-64.39914727,-56.86085716,98.92930127,-1.946963383,111.4828056,
52715555,-0.002559618729,-64.48780243,-56.82872868,99.42726869,-1.941486006,110.1117097,
52773333,0.0006195632354,-64.57510591,-57.04362796,98.20237299,-1.937718481,108.7178217,
52831111,0.002699488618,-64.6772014,-56.82119953,98.67578801,-1.933718005,107.3612026,
52888888,0.005828910956,-64.77423779,-56.95892142,99.56344651,-1.929523088,106.0112786,
52946666,0.007816772573,-64.83876969,-56.97353936,96.62444589,-1.924378055,104.6250453,
53004444,0.009716006235,-64.91958962,-57.00603185,95.33049416,-1.917341234,103.2508574,
53062222,0.01123020985,-65.00290709,-56.98067273,94.49529016,-1.911580001,101.8747964,
53120000,0.01239948205,-65.07197493,-56.97526937,93.3793995,-1.905625527,100.4919372,
53177777,0.01398427676,-65.15670723,-57.01432736,93.46144774,-1.897660141,99.09293577,
53235555,0.01515705342,-65.2055775,-57.08322855,92.23396713,-1.889228998,97.69532528,
53293333,0.01541888364,-65.27855593,-56.93799082,91.79211408,-1.880902185,96.29423172,
53351111,0.01556321719,-65.34167971,-57.10722137,91.5351103,-1.874661897,94.89778624,
53408888,0.01528942351,-65.39942263,-56.99754213,91.97840305,-1.86655702,93.49880471,
53466666,0.01540432414,-65.46014347,-57.1223066,88.66774486,-1.856435568,92.09387178,
53524444,0.01600434348,-65.52701969,-57.03556519,90.37332028,-1.848850466,90.69921233,
53582222,0.01589801075,-65.59593738,-57.11930335,88.51838669,-1.839757718,89.29255595,
53640000,0.01751530128,-65.66280999,-57.17817036,86.65288011,-1.829304793,87.88079846,
53697777,0.01715731631,-65.74157007,-57.24146516,88.02206181,-1.820016099,86.48571655,
53755555,0.01821639866,-65.8007284,-57.15014166,86.5907864,-1.811198454,85.07105259,
53813333,0.01822659018,-65.86532332,-57.13119789,86.76967358,-1.800879509,83.66205278,
53871111,0.01768941747,-65.93021938,-57.04995216,86.32438417,-1.790293481,82.22333406,
53928888,0.01748702916,-65.99122497,-57.01875386,85.13321116,-1.780464448,80.79608963,
53986666,0.01808478126,-66.04614572,-56.96514095,86.87380176,-1.769754605,79.37103822,
54044444,0.01766976144,-66.1040072,-57.11430295,85.75800765,-1.759637676,77.93258965,
54102222,0.01713821833,-66.16747426,-56.63628453,85.68153855,-1.747121741,76.48439848,
54160000,0.01761289521,-66.2335729,-56.91600944,85.02672095,-1.736203971,75.04622271,
54217777,0.01792526107,-66.29543568,-56.70529354,83.92011344,-1.723750732,73.59449211,
54275555,0.01772286619,-66.3657575,-57.16551083,84.29704988,-1.712513629,72.13768815,
54333333,0.01755377477,-66.41750478,-57.14687547,81.80143488,-1.70119377,70.68788443,
54391111,0.01817051086,-66.4814604,-57.2946104,84.17679765,-1.688688453,69.23159993,
54448888,0.016794672,-66.55118218,-56.95427384,82.59889431,-1.67649823,67.76816047,
54506666,0.01737275698,-66.61696824,-56.86379695,83.68603537,-1.664521846,66.29736353,
54564444,0.018667979,-66.66805268,-57.09135564,81.31611869,-1.652860123,64.83520708,
54622222,0.01733845496,-66.74643976,-56.80765168,82.34982423,-1.63935877,63.35727026,
54680000,0.01695977639,-66.8135124,-56.81101837,79.97920267,-1.628073863,61.88459515,
54737777,0.01687153879,-66.8688836,-56.69022813,79.84563181,-1.614871179,60.41555527,
54795555,0.01689056066,-66.93549677,-56.59314938,77.91813034,-1.600189464,58.94865569,
54853333,0.01638497578,-67.00875995,-56.55096089,78.0551037,-1.586690327,57.47626135,
54911111,0.01737555361,-67.07205853,-56.58141584,78.5190658,-1.573183885,55.98276702,
54968888,0.01720651156,-67.14173599,-56.57477115,79.10173432,-1.559962523,54.49997595,
55026666,0.01802952044,-67.19469849,-56.638435,76.67177783,-1.546258928,52.99884729,
55084444,0.01687787165,-67.26255021,-56.44441414,76.3781218,-1.532366376,51.50927067,
55142222,0.0190075449,-67.33969066,-56.46517352,76.86944003,-1.51856468,50.0072046,
55200000,0.02593952784,-67.41946777,-56.1369349,74.63266659,-1.497177508,48.50545498,
55257777,0.0204274931,-67.49583496,-56.40251565,75.72594615,-1.490070362,47.00106144,
55315555,0.02111690086,-67.56782509,-56.24179365,74.85283674,-1.475857777,45.50311807,
55373333,0.02469882733,-67.66218607,-56.28424178,74.14971379,-1.461527163,43.96333196,
55431111,0.02795613258,-67.79029654,-56.17497598,73.23874388,-1.445091604,42.36656507,
55488888,0.02167199165,-67.79805411,-56.22810265,72.26710004,-1.434408348,40.89748053,
55546666,0.02150509657,-67.84032458,-56.36529193,73.56721695,-1.420838886,39.41712505,
55604444,0.0215989613,-67.90089629,-56.03601997,71.88045379,-1.407232514,37.88678308,
55662222,0.02244701397,-67.97769948,-55.92366444,73.12958239,-1.389773856,36.36688842,
55720000,0.02295089621,-68.05190722,-55.83343995,71.6115181,-1.373219642,34.8063433,
55777777,0.02468754866,-68.12744807,-56.00431417,70.76037455,-1.358458106,33.24474199,
55835555,0.02642920351,-68.22131028,-55.74134583,71.22197163,-1.340364665,31.66398294,
55893333,0.02752166827,-68.31088159,-55.92397938,70.7979195,-1.324460267,30.06832512,
55951111,0.02765113816,-68.39490159,-55.54004042,69.07054446,-1.308052372,28.47892493,
56008888,0.02818290913,-68.47077459,-55.52636602,69.020265,-1.291636294,26.88978836,
56066666,0.02805350655,-68.53884373,-55.47866848,68.58937024,-1.277664419,25.31275056,
56124444,0.02961833102,-68.60681471,-55.58205144,65.347469,-1.262276417,23.73628178,
56182222,0.02880427177,-68.66997788,-55.52485909,63.8198883,-1.24883732,22.18317542,
56240000,0.02843359262,-68.73779523,-55.48003341,64.90657476,-1.23499066,20.59890191,
56297777,0.02812168318,-68.79126993,-55.52806455,63.62019274,-1.220307026,19.05330189,
56355555,0.02842184149,-68.85663666,-55.474131,63.6635114,-1.204993021,17.45771798,
56413333,0.02667448543,-68.91681802,-55.31006938,63.61784246,-1.189238378,15.88090399,
56471111,0.02650506548,-68.99660977,-55.04308541,62.24764567,-1.173710832,14.29107746,
56528888,0.02725407596,-69.06618901,-55.21989732,62.86719878,-1.158819379,12.68698972,
56586666,0.02723678098,-69.13542264,-55.09190414,63.84991008,-1.143658653,11.05990006,
56644444,0.02681157038,-69.21229891,-54.90127833,63.51394473,-1.127428238,9.468479492,
56702222,0.02781886551,-69.27649237,-54.80792901,61.85706871,-1.113239029,7.857506923,
56760000,0.02874962874,-69.36388735,-54.52520913,61.29223992,-1.098480529,6.248542534,
56817777,0.02980487042,-69.41711444,-54.73049473,60.94403358,-1.084583025,4.638415065,
56875555,0.03021869565,-69.49246348,-54.74297892,57.70626729,-1.072048909,3.016420678,
56933333,0.02944770324,-69.56485403,-54.74130606,57.90707541,-1.058409937,1.402691135,
56991111,0.03073037544,-69.63998155,-54.6918894,56.76735237,-1.04271714,-0.2106589037,
57048888,0.03122426748,-69.70304604,-54.60167638,56.24419566,-1.03099132,-1.821948783,
57106666,0.03141897298,-69.76274641,-54.45336055,54.47306641,-1.017266447,-3.437807117,
57164444,0.03028456984,-69.83588076,-54.42677816,54.22945436,-1.004692591,-5.066551356,
57222222,0.02780730797,-69.92949873,-54.49569753,52.63818309,-0.9890096898,-6.712364554,
57280000,0.0275223313,-69.98794074,-54.27476807,54.52488355,-0.9755508213,-8.364145535,
57337777,0.02752365475,-70.06106549,-54.23748576,52.4162992,-0.9617900178,-10.01999271,
57395555,0.02701245678,-70.12989211,-54.32980476,50.26516359,-0.9483363305,-11.67698015,
57453333,0.02757418904,-70.20094722,-53.81796896,50.42982999,-0.9356675911,-13.34510915,
57511111,0.02901643765,-70.26477328,-53.95771306,48.17786108,-0.9247000497,-14.99800255,
57568888,0.02883246524,-70.33923556,-53.94670855,47.36498513,-0.9133625848,-16.65608865,
57626666,0.02949622596,-70.38503756,-53.94922586,46.82978653,-0.8993051824,-18.29901157,
57684444,0.02733193706,-70.4499014,-53.79135536,45.98410223,-0.8877873018,-19.97147145,
57742222,0.02512915299,-70.50863028,-53.71514166,45.27886102,-0.8755900593,-21.62262643,
57800000,0.02208749884,-70.55301822,-53.56446821,43.65414079,-0.8657037314,-23.28816026,
57857777,0.01785453018,-70.62339004,-53.60069444,43.70612293,-0.8531947534,-24.98369801,
57915555,0.01487110667,-70.68166594,-53.38581813,43.18544305,-0.8419966746,-26.68903479,
57973333,0.01262388316,-70.75148803,-53.30352256,42.3922005,-0.8312623731,-28.3890365,
58031111,0.01355704562,-70.82283449,-53.25666219,41.84906198,-0.8200815202,-30.10699878,
58088888,0.01532997912,-70.90867889,-53.25856772,40.36483636,-0.8092914603,-31.82839148,
58146666,0.01833456245,-71.0045723,-53.07269993,40.26920358,-0.7971116411,-33.55570643,
58204444,0.02089755641,-71.08331896,-53.13051444,39.08123031,-0.78931525,-35.29722682,
58262222,0.01415706958,-71.1212594,-53.01556807,37.90950041,-0.7792775416,-37.02828198,
58320000,0.009611396004,-71.20424988,-52.8135814,37.24570674,-0.7687517729,-38.77998469,
58377777,0.009242421473,-71.26443053,-52.90654199,36.2847098,-0.7590659068,-40.54406374,
58435555,0.008790676118,-71.34878028,-52.75848466,35.14753921,-0.749920963,-42.28742021,
58493333,0.007700905186,-71.42455331,-52.85228165,34.84807623,-0.7412568894,-44.04201672,
58551111,0.005517641835,-71.46984917,-52.737272,33.55114613,-0.7346419882,-45.75598389,
58608888,0.006389241014,-71.53681367,-52.80181429,33.77045083,-0.7273008127,-47.52367688,
58666666,0.004853727482,-71.61905351,-52.75403233,33.43042963,-0.721189411,-49.28179223,
58724444,0.00419870795,-71.68144039,-52.71003927,32.52478536,-0.7150129658,-51.04066529,
58782222,0.002682155372,-71.75210227,-52.52420852,31.0933684,-0.7099520392,-52.81017215,
58840000,0.001062828952,-71.8224363,-52.43490133,31.92221175,-0.7059560349,-54.58320138,
58897777,-5.630274137e-05,-71.88462892,-52.29726205,28.82743019,-0.7009123894,-56.35504426,
58955555,-0.0008712474962,-71.95824502,-52.2599235,28.85743334,-0.6981535692,-58.14707375,
59013333,-0.001215240349,-72.02215391,-52.28875288,27.87037447,-0.6944258174,-59.95218198,
59071111,-0.0001316032612,-72.08440405,-52.13198675,26.7446039,-0.6916903061,-61.76725291,
59128888,-0.001341424132,-72.16242327,-51.99518264,26.14223119,-0.690420897,-63.58152014,
59186666,-0.004791848793,-72.23660339,-51.93707547,25.53989579,-0.689895988,-65.43919215,
59244444,-0.006828313486,-72.30438953,-51.94899585,24.16875901,-0.6892482851,-67.28453697,
59302222,-0.005787828569,-72.36879063,-51.77598781,24.79176307,-0.688663647,-69.15320211,
59360000,-0.004443571372,-72.45085804,-51.8802043,23.86383448,-0.6884614517,-71.02625998,
59417777,-0.005955554218,-72.52104779,-51.80447837,22.50760849,-0.691183289,-72.88694887,
59475555,-0.008357869786,-72.59276032,-51.78035887,22.27254396,-0.694261719,-74.74972877,
59533333,-0.01023121731,-72.65471778,-51.80386118,20.93559418,-0.6993288647,-76.63041669,
59591111,-0.01381271208,-72.7090276,-51.77316103,20.54608448,-0.7049854117,-78.52884942,
59648888,-0.01671765757,-72.79194971,-51.51543492,24.12495957,-0.7107764637,-80.42064366,
59706666,-0.01557392964,-72.85005216,-51.57666409,18.60460222,-0.7176335246,-82.3470886,
59764444,-0.01636908252,-72.92224911,-51.6193078,18.04897676,-0.7250098339,-84.28062161,
59822222,-0.0169657903,-73.00921829,-51.54883838,16.50373294,-0.7336834409,-86.22651128,
59880000,-0.0168261251,-73.06802319,-51.5292955,16.02090629,-0.7435947793,-88.19738189,
59937777,-0.01875556637,-73.14098801,-51.58080871,15.61869251,-0.7547396852,-90.16148665,
59995555,-0.02250873412,-73.19701057,-51.43405401,15.00350368,-0.7668146766,-92.15949346,
60053333,-0.02570116166,-73.27448794,-51.34570168,14.25961777,-0.7846671632,-94.15770777,
60111111,-0.02799209371,-73.34678685,-51.2277457,13.18401408,-0.8018505243,-96.17502075,
60168888,-0.03018830377,-73.42781672,-51.14421955,12.73799765,-0.8193175619,-98.21144473,
60226666,-0.03239881357,-73.49219813,-51.13002624,11.48411625,-0.8377163962,-100.2605729,
60284444,-0.03277498151,-73.56488578,-51.13046247,10.33633633,-0.8558051619,-102.3088775,
60342222,-0.03381587882,-73.63318578,-51.09671442,10.16531476,-0.8772924473,-104.3931725,
60400000,-0.01088051473,-72.95000676,-43.60166382,151.4915511,-1.044728427,-105.5002903,
60457777,-0.03905732281,-73.77643453,-50.96896012,8.325507563,-0.9294962661,-108.6052788,
60515555,-0.04105354418,-73.85442673,-50.95982498,7.433544105,-0.9595774942,-110.7373712,
60573333,-0.04484506798,-73.92580866,-50.79562768,6.182466694,-0.9940594814,-112.8954871,
60631111,-0.04640103398,-73.98689631,-50.76781838,5.580737157,-1.029520652,-115.0895909,
60688888,-0.04958866699,-74.06314046,-50.62906685,4.477064751,-1.068853963,-117.3071037,
60746666,-0.05150273385,-74.13981303,-50.61042685,3.627845882,-1.110218301,-119.542438,
60804444,-0.05375580536,-74.20032847,-50.58948662,2.526426276,-1.156030993,-121.8150386,
60862222,-0.05582860535,-74.27700182,-50.39609476,1.636951553,-1.204141069,-124.106826,
60920000,-0.05781291295,-74.34762679,-50.36675532,1.381412648,-1.256814032,-126.414859,
60977777,-0.06069600806,-74.41264373,-50.31140365,0.2212447775,-1.313507318,-128.776625,
61035555,-0.06144033952,-74.48668056,-50.22191132,-0.9425531836,-1.370641508,-131.1477025,
61093333,-0.06239596013,-74.57270134,-50.17276705,-1.358544334,-1.431451428,-133.5318508,
61151111,-0.06304897048,-74.636015,-49.90843449,-2.512765445,-1.498324785,-136.0138643,
61208888,-0.06085613367,-74.70708351,-49.92927303,-3.924986122,-1.572319891,-138.5081427,
61266666,-0.06142167397,-74.78314698,-49.86123604,-4.728648857,-1.652572289,-141.0134471,
61324444,-0.06609629773,-74.85421838,-49.83452375,-5.769799922,-1.743321236,-143.6098189,
61382222,-0.0617284892,-74.94131489,-49.75878071,-7.68114816,-1.831340661,-146.1695605,
61440000,-0.06110626568,-75.01891407,-49.6503468,-9.493800322,-1.932835477,-148.8014006,
61497777,-0.05838168442,-75.10295151,-49.73251483,-10.01766794,-2.043806128,-151.4918456,
61555555,-0.06084257966,-75.18299221,-49.66715991,-10.69441169,-2.15893531,-154.2109815,
61613333,-0.0603202482,-75.26459459,-49.64555703,-11.0319671,-2.289817708,-156.9708834,
61671111,-0.05852006523,-75.33436277,-49.50236129,-12.68369531,-2.430667045,-159.7758956,
61728888,-0.05639484282,-75.44396249,-49.46341449,-13.3928743,-2.587859264,-162.6644521,
61786666,-0.05808707181,-75.50288491,-49.52867878,-15.79421926,-2.750273894,-165.569826,
61844444,-0.05614384548,-75.57616316,-49.37418698,-16.06016313,-2.93221534,-168.5479467,
61902222,-0.0543179071,-75.66015348,-49.30194189,-17.55472565,-3.129876163,-171.5829747,
61960000,-0.05461826223,-75.73845133,-49.34577755,-18.38179016,-3.345971347,-174.6585435,
62017777,-0.05318679757,-75.83049866,-49.27707376,-20.59047978,-3.579059246,-177.8578235,
62075555,-0.04420570245,-76.03651986,-48.73164365,-22.00994382,-3.815300169,179.0129402,
62133333,0.02901145085,-76.35138105,-49.18566943,-26.01604664,-4.086578023,175.5630935,
62191111,-0.05012136453,-76.05660334,-49.23427326,-23.06288037,-4.422200485,172.2500159,
62248888,-0.0741349266,-75.92263489,-48.56749039,-23.73216051,-4.718348634,168.625907,
62306666,-0.04546762535,-76.19945085,-49.19551166,-26.03733477,-5.134758012,165.296101,
62364444,-0.04365704784,-76.27993678,-49.07948127,-27.09427473,-5.543128555,161.7056799,
62422222,-0.04308937187,-76.34279573,-49.15573887,-27.84754117,-5.994418008,158.0209255,
62480000,-0.03911065868,-76.41474236,-49.143263,-29.43556038,-6.497004564,154.2370496,
62537777,-0.03782676125,-76.49667022,-49.21521195,-30.20711214,-7.049899145,150.3632389,
62595555,-0.03557737893,-76.57764056,-49.27624317,-30.71688821,-7.666844481,146.3677826,
62653333,-0.03176291241,-76.66206546,-49.20239116,-31.51818414,-8.356402195,142.2745823,
62711111,-0.03084137178,-76.70404899,-49.36627643,-32.252469,-9.132545726,138.0300733,
62768888,-0.02881801383,-76.78298299,-49.3734762,-33.51944665,-10.00995841,133.5862579,
62826666,-0.02736544738,-76.86037827,-49.39958155,-33.61579909,-11.00944591,128.9244724,
62884444,-0.02483135483,-76.92846407,-49.49523579,-34.10969121,-12.16654848,123.9437596,
62942222,-0.02280296118,-76.9946256,-49.59064784,-34.54305158,-13.51642879,118.4551467,
63000000,-0.01561080911,-77.08466873,-49.38092884,-35.22760933,-15.12677616,112.2081303,
