Frequency,S11_Magnitude,S11_Phase,S11_VSWR,
10000000,-0.3102150331,40.28178657,56.00510592,
10108888,-0.3113019315,39.28626942,55.80960792,
10217777,-0.3093812137,38.34378767,56.15601434,
10326666,-0.3039967372,37.41030627,57.15045714,
10435555,-0.3002859527,36.47719646,57.85655079,
10544444,-0.2976791169,35.55428182,58.36311175,
10653333,-0.2947888925,34.63295475,58.93521483,
10762222,-0.2921736127,33.72252507,59.46264995,
10871111,-0.2897102503,32.81161764,59.96815692,
10980000,-0.2873252656,31.91313688,60.46583933,
11088888,-0.2849006068,31.01776531,60.980343,
11197777,-0.2826813462,30.12568239,61.45899892,
11306666,-0.2830048975,29.23621404,61.38874706,
11415555,-0.2807553064,28.36023532,61.88054628,
11524444,-0.2789769713,27.48318952,62.27493456,
11633333,-0.2790168185,26.61608607,62.26604244,
11742222,-0.2776432529,25.74684357,62.57403414,
11851111,-0.2769495488,24.88122769,62.73074314,
11960000,-0.2773161139,24.02170984,62.64783775,
12068888,-0.2780949547,23.17103338,62.47241423,
12177777,-0.2780595426,22.32010087,62.48036901,
12286666,-0.2778152164,21.46912573,62.53530834,
12395555,-0.2783813956,20.60927669,62.40814415,
12504444,-0.2805270234,19.78020317,61.93089372,
12613333,-0.2818515794,18.93953355,61.63990141,
12722222,-0.2836899573,18.10575564,61.24053061,
12831111,-0.285971648,17.2718214,60.75199614,
12940000,-0.2880796463,16.44350984,60.30752918,
13048888,-0.2902570232,15.61273895,59.85521262,
13157777,-0.292732564,14.78669328,59.34913182,
13266666,-0.295024495,13.96014434,58.88815901,
13375555,-0.2983482825,13.1405413,58.23223473,
13484444,-0.3030692558,12.33416066,57.32531876,
13593333,-0.3064336131,11.51356463,56.69606824,
13702222,-0.3097475341,10.71909772,56.08961593,
13811111,-0.3140932048,9.912720536,55.31374756,
13920000,-0.3186206562,9.102889204,54.52793742,
14028888,-0.3232546399,8.309949701,53.74643433,
14137777,-0.3282546302,7.521358527,52.92795646,
14246666,-0.3338816755,6.741229411,52.03615395,
14355555,-0.3390804322,5.962565279,51.23853736,
14464444,-0.3439247631,5.179100527,50.51700471,
14573333,-0.3509855088,4.401983255,49.50102665,
14682222,-0.3570157597,3.634781586,48.66514844,
14791111,-0.3635606122,2.880131427,47.78932274,
14900000,-0.3702387397,2.118510054,46.92758372,
15008888,-0.3764043323,1.369779844,46.15913338,
15117777,-0.3839519032,0.617868643,45.25204264,
15226666,-0.3909956362,-0.1311349309,44.43710112,
15335555,-0.3987065396,-0.8762066855,43.57798966,
15444444,-0.4060372214,-1.626055627,42.79150219,
15553333,-0.4124033176,-2.354843994,42.13119021,
15662222,-0.4189709775,-3.094829356,41.47100471,
15771111,-0.4267986457,-3.819461696,40.71070651,
15880000,-0.4342374656,-4.559568077,40.01358398,
15988888,-0.4422280413,-5.276752884,39.29088625,
16097777,-0.4485860583,-6.013160909,38.73424066,
16206666,-0.4557416028,-6.727437715,38.12635139,
16315555,-0.4639241711,-7.441888778,37.4542004,
16424444,-0.4719098702,-8.152094288,36.82070106,
16533333,-0.4782370063,-8.860272933,36.33379972,
16642222,-0.485509822,-9.56295739,35.78980546,
16751111,-0.4916335757,-10.27734233,35.34424365,
16860000,-0.4977643748,-10.98617451,34.9091541,
16968888,-0.5052157248,-11.68295721,34.39456811,
17077777,-0.5113276928,-12.36352574,33.98367838,
17186666,-0.518315373,-13.08151085,33.52579299,
17295555,-0.5249752807,-13.77564637,33.10073416,
17404444,-0.5291758158,-14.4651059,32.83814498,
17513333,-0.5345075389,-15.1473143,32.51078742,
17622222,-0.5404662834,-15.84205697,32.15257713,
17731111,-0.5459175626,-16.53408205,31.83172456,
17840000,-0.5493778507,-17.22926566,31.63136296,
17948888,-0.5552581034,-17.92269837,31.29660731,
18057777,-0.5592652893,-18.60331088,31.07251753,
18166666,-0.5646236505,-19.30362167,30.77783941,
18275555,-0.5678257935,-19.9892868,30.6043963,
18384444,-0.5712479055,-20.6777924,30.42118883,
18493333,-0.575691855,-21.35549331,30.1865278,
18602222,-0.5786160896,-22.04781573,30.03408177,
18711111,-0.5823007429,-22.74507917,29.84417455,
18820000,-0.5845687238,-23.42231797,29.72847346,
18928888,-0.5882912405,-24.11620831,29.54050367,
19037777,-0.5895729814,-24.79645368,29.47633128,
19146666,-0.5931275414,-25.49559819,29.29981826,
19255555,-0.593952482,-26.18896935,29.25915537,
19364444,-0.5959756068,-26.88059465,29.15990847,
19473333,-0.597891899,-27.57151097,29.06652199,
19582222,-0.5987291176,-28.27495395,29.02590962,
19691111,-0.6007556923,-28.96654244,28.92807195,
19800000,-0.6016728147,-29.6661298,28.88401241,
19908888,-0.6020443844,-30.35076769,28.86620003,
20017777,-0.6033058701,-31.06532453,28.80589045,
20126666,-0.6041435413,-31.76805218,28.76598195,
20235555,-0.6040555028,-32.48143263,28.77017109,
20344444,-0.6046806829,-33.17739529,28.74044955,
20453333,-0.6041295241,-33.89113538,28.76664885,
20562222,-0.6036591738,-34.59481715,28.78904477,
20671111,-0.6037546312,-35.31227686,28.78449671,
20780000,-0.6030269391,-36.02765994,28.81920395,
20888888,-0.6023254713,-36.74731151,28.85273984,
20997777,-0.6004833082,-37.47084449,28.9411835,
21106666,-0.5999071989,-38.19344985,28.96895449,
21215555,-0.5978844184,-38.91447385,29.06688538,
21324444,-0.5965966859,-39.64217015,29.12957575,
21433333,-0.5947461807,-40.37001921,29.22013898,
21542222,-0.5950365297,-41.10658649,29.2058921,
21651111,-0.5932293372,-41.85296554,29.29479443,
21760000,-0.5903464409,-42.59358602,29.43774167,
21868888,-0.5881898233,-43.34330904,29.54559323,
21977777,-0.5860173208,-44.09142896,29.6550421,
22086666,-0.5841790803,-44.83411777,29.74828719,
22195555,-0.5829987443,-45.5889598,29.80847007,
22304444,-0.5816132193,-46.34695684,29.87942689,
22413333,-0.5775530682,-47.10998009,30.08932049,
22522222,-0.5763931002,-47.87147839,30.14982948,
22631111,-0.5732603168,-48.64588336,30.31447334,
22740000,-0.5704096172,-49.41356631,30.46586438,
22848888,-0.5687708879,-50.20557173,30.55357894,
22957777,-0.5659044228,-50.98088647,30.70823115,
23066666,-0.5630346646,-51.75984531,30.864639,
23175555,-0.5607074283,-52.54524682,30.99265431,
23284444,-0.5578538694,-53.35190953,31.15107953,
23393333,-0.5552695511,-54.14860351,31.29596253,
23502222,-0.5529780713,-54.94792686,31.42556142,
23611111,-0.5491514288,-55.74511119,31.64439627,
23720000,-0.5477831425,-56.56541677,31.72338701,
23828888,-0.5443938057,-57.37246315,31.92076293,
23937777,-0.5418401561,-58.18994626,32.07110472,
24046666,-0.5378081049,-59.01460774,32.31139269,
24155555,-0.5357538624,-59.84455515,32.43520538,
24264444,-0.5338309949,-60.68142879,32.55196358,
24373333,-0.5316127064,-61.51111544,32.68770959,
24482222,-0.528203432,-62.34391409,32.89856025,
24591111,-0.5261806374,-63.18376217,33.02495432,
24700000,-0.5242495227,-64.04564529,33.14653012,
24808888,-0.5218727766,-64.90610109,33.29739675,
24917777,-0.5191421678,-65.75491766,33.47243093,
25026666,-0.5165054347,-66.66749211,33.6432045,
25135555,-0.5165438104,-67.51829871,33.64070651,
25244444,-0.5133669043,-68.3809749,33.84876548,
25353333,-0.5147090545,-69.26070903,33.76055321,
25462222,-0.5140755304,-70.13598037,33.80213391,
25571111,-0.5133538115,-71.02076653,33.84962828,
25680000,-0.5128568124,-71.90826864,33.88241218,
25788888,-0.5113474586,-72.81514075,33.98236552,
25897777,-0.5107311768,-73.71430701,34.02334721,
26006666,-0.5094666037,-74.64035719,34.10774972,
26115555,-0.5084828295,-75.5685093,34.17370104,
26224444,-0.5089322587,-76.48978366,34.14354007,
26333333,-0.5073393464,-77.41812241,34.2506806,
26442222,-0.5085210453,-78.33917832,34.17113432,
26551111,-0.5082528365,-79.25937857,34.18915639,
26660000,-0.5089963681,-80.19044073,34.13924207,
26768888,-0.5089667361,-81.13305091,34.14122851,
26877777,-0.5100364842,-82.08497116,34.06966186,
26986666,-0.5115691156,-83.03309178,33.96764986,
27095555,-0.512989099,-83.99180918,33.87367986,
27204444,-0.5138864396,-84.93154432,33.81456456,
27313333,-0.5163607099,-85.89565235,33.65262841,
27422222,-0.5172598732,-86.87614424,33.59416384,
27531111,-0.5204014733,-87.838301,33.39148016,
27640000,-0.5211293957,-88.81285922,33.34486629,
27748888,-0.5241552558,-89.80151046,33.15248776,
27857777,-0.5257058992,-90.78198739,33.05475925,
27966666,-0.5300873146,-91.78040486,32.78171389,
28075555,-0.5343053388,-92.78389328,32.52308289,
28184444,-0.537573287,-93.80128783,32.32549765,
28293333,-0.539612443,-94.8144129,32.20342005,
28402222,-0.5433966895,-95.81772264,31.97929825,
28511111,-0.5471752042,-96.83411669,31.7586099,
28620000,-0.5499765625,-97.88289914,31.5969516,
28728888,-0.5540773279,-98.91464187,31.3632571,
28837777,-0.5576867012,-99.9516002,31.16041074,
28946666,-0.5620516126,-100.9730469,30.9185848,
29055555,-0.5665992454,-102.0136649,30.67060018,
29164444,-0.5707900339,-103.0487018,30.44557427,
29273333,-0.5746447759,-104.091329,30.24149145,
29382222,-0.5786047621,-105.1492017,30.03466932,
29491111,-0.5836979849,-106.2093894,29.77278785,
29600000,-0.5963962079,-107.2611361,29.13935993,
29708888,-0.5921551414,-108.340856,29.34789524,
29817777,-0.5954984381,-109.4095756,29.18325578,
29926666,-0.6000051793,-110.4964294,28.96422765,
30035555,-0.6051949987,-111.5795519,28.71604464,
30144444,-0.6100643908,-112.6597583,28.48702594,
30253333,-0.6137892819,-113.7567077,28.31428978,
30362222,-0.6368238908,-114.7625675,27.29099914,
30471111,-0.6283392136,-115.9448974,27.65919099,
30580000,-0.6322596511,-117.0528147,27.48783525,
30688888,-0.6355970418,-118.1585701,27.34362995,
30797777,-0.638792495,-119.2782468,27.20697029,
30906666,-0.6395387131,-120.3901839,27.17525363,
31015555,-0.6457090456,-121.5069174,26.91580518,
31124444,-0.6522337983,-122.5238147,26.64679658,
31233333,-0.6535392423,-123.7564305,26.59361967,
31342222,-0.6561361563,-124.8855153,26.48846452,
31451111,-0.6603563481,-126.0185985,26.31934399,
31560000,-0.66373326,-127.1488353,26.18556687,
31668888,-0.6679134992,-128.2936935,26.02184037,
31777777,-0.6715444437,-129.4458809,25.88128295,
31886666,-0.6742804277,-130.5915924,25.7763709,
31995555,-0.6787833319,-131.7443818,25.60554814,
32104444,-0.6819414909,-132.8997366,25.48708644,
32213333,-0.6861644017,-134.0580028,25.33039096,
32322222,-0.6901881605,-135.213978,25.18287012,
32431111,-0.6930468653,-136.3820663,25.07910436,
32540000,-0.6948134569,-137.5608445,25.01540741,
32648888,-0.6978369104,-138.7272248,24.90714122,
32757777,-0.7002052028,-139.912246,24.82298892,
32866666,-0.703541304,-141.0819937,24.70540924,
32975555,-0.7062963475,-142.2703612,24.60914658,
33084444,-0.7085493999,-143.4599177,24.53098048,
33193333,-0.7104804091,-144.6495072,24.46438191,
33302222,-0.7124045756,-145.8397143,24.39837865,
33411111,-0.7141815495,-147.0407843,24.3377405,
33520000,-0.7159217451,-148.229673,24.27864928,
33628888,-0.7178302155,-149.4266118,24.2141736,
33737777,-0.7180060867,-150.6401937,24.20824924,
33846666,-0.7206995683,-151.8788495,24.11787852,
33955555,-0.7215399705,-153.0309913,24.08981983,
34064444,-0.7226441644,-154.2315955,24.05305313,
34173333,-0.7243952162,-155.4360782,23.99497775,
34282222,-0.7238996359,-156.6440914,24.01138564,
34391111,-0.7255764799,-157.8492699,23.95595838,
34500000,-0.726023472,-159.0666261,23.94122651,
34608888,-0.7280762636,-160.2780788,23.87380351,
34717777,-0.7283975697,-161.4988241,23.86328478,
34826666,-0.7282291734,-162.710286,23.86879648,
34935555,-0.728369206,-163.9251701,23.86421296,
35044444,-0.7288045974,-165.1375605,23.84997306,
35153333,-0.7285555417,-166.3536435,23.85811658,
35262222,-0.7297861893,-167.6338618,23.81793152,
35371111,-0.7298921497,-168.8282794,23.81447787,
35480000,-0.7289819381,-170.0324388,23.84417784,
35588888,-0.7284488845,-171.2538102,23.86160572,
35697777,-0.7282961007,-172.4598513,23.86660561,
35806666,-0.728298075,-173.6812932,23.86654099,
35915555,-0.7287499144,-174.902487,23.85176059,
36024444,-0.7275298005,-176.1251182,23.89171466,
36133333,-0.7260543785,-177.3516903,23.94020858,
36242222,-0.7265540406,-178.5689108,23.9237637,
36351111,-0.7267582087,-179.796419,23.91705063,
36460000,-0.7259688212,178.9892242,23.94302671,
36568888,-0.7262019185,177.7687138,23.93535038,
36677777,-0.7255906544,176.5485207,23.95549094,
36786666,-0.7250905162,175.3182707,23.97199527,
36895555,-0.725128085,174.0926481,23.97075473,
37004444,-0.7249924261,172.8749165,23.97523487,
37113333,-0.724852157,171.647358,23.97986904,
37222222,-0.7250649131,170.4220085,23.97284077,
37331111,-0.7255648824,169.2060379,23.95634084,
37440000,-0.7284626846,168.0033387,23.86115422,
37548888,-0.7273200826,166.7547293,23.89859563,
37657777,-0.728300847,165.4940413,23.86645025,
37766666,-0.7285931753,164.2462167,23.8568857,
37875555,-0.7294816459,163.0103462,23.82786332,
37984444,-0.7315856739,161.8256424,23.7594154,
38093333,-0.7340220036,160.6106336,23.68064764,
38202222,-0.7360306779,159.394755,23.61609862,
38311111,-0.7385303157,158.1892585,23.53626305,
38420000,-0.7410077912,157.0197157,23.45766712,
38528888,-0.7451023758,155.8423543,23.32891613,
38637777,-0.7480754709,154.6680508,23.23631328,
38746666,-0.7513518832,153.4743465,23.13511236,
38855555,-0.7552359911,152.2851945,23.01627928,
38964444,-0.7591784029,151.0966435,22.89690666,
39073333,-0.7638101804,149.9076255,22.75823601,
39182222,-0.7675038629,148.7184325,22.64885129,
39291111,-0.772305425,147.5357857,22.50822294,
39400000,-0.7779769074,146.3588697,22.34435391,
39508888,-0.7825816065,145.188635,22.21305619,
39617777,-0.7870813621,144.0154272,22.08623597,
39726666,-0.7938172143,142.8389634,21.89908287,
39835555,-0.7990101928,141.6742537,21.75695353,
39944444,-0.8054919967,140.5056409,21.58212273,
40053333,-0.8115511065,139.3603658,21.42122036,
40162222,-0.8192303442,138.1880087,21.22071702,
40271111,-0.8256102832,137.0590786,21.05697684,
40380000,-0.8341022232,135.9417923,20.84292127,
40488888,-0.8416315625,134.8019696,20.6567455,
40597777,-0.8499604332,133.6610574,20.45464539,
40706666,-0.8571673202,132.5273972,20.28294225,
40815555,-0.8663711273,131.3862529,20.06781966,
40924444,-0.8747457505,130.2531349,19.87601451,
41033333,-0.8843798628,129.1536924,19.65986003,
41142222,-0.8954757994,128.0653355,19.41667563,
41251111,-0.9043241731,126.9787077,19.22703066,
41360000,-0.9157379321,125.8947497,18.98782005,
41468888,-0.9263847404,124.8077966,18.77000181,
41577777,-0.9377286812,123.7224034,18.5433689,
41686666,-0.9487442167,122.6415372,18.32848848,
41795555,-0.9596361466,121.5735401,18.12087445,
41904444,-0.9723896614,120.4971991,17.88369357,
42013333,-0.9844421318,119.431137,17.66520401,
42122222,-0.9972576777,118.3482502,17.43868068,
42231111,-1.007947066,117.1764163,17.25414943,
42340000,-1.023457325,116.2040974,16.99325725,
42448888,-1.037301797,115.1804991,16.76698222,
42557777,-1.053684947,114.1618315,16.50690545,
42666666,-1.067180276,113.1261945,16.2986771,
42775555,-1.082165939,112.0920314,16.07354642,
42884444,-1.096611965,111.0662763,15.86235481,
42993333,-1.114710465,110.0118542,15.6055013,
43102222,-1.131440201,109.0015191,15.37539168,
43211111,-1.146849506,107.9807474,15.16939181,
43320000,-1.164984762,106.9527338,14.93394083,
43428888,-1.182080907,105.9262608,14.71860587,
43537777,-1.198992736,104.8974621,14.51164353,
43646666,-1.217771222,103.8824452,14.28858321,
43755555,-1.235985122,102.8796711,14.07871513,
43864444,-1.256639685,101.887626,13.84809811,
43973333,-1.276786435,100.9282338,13.63035183,
44082222,-1.298547923,99.98019876,13.40275749,
44191111,-1.319355819,99.02145306,13.19217083,
44300000,-1.341835685,98.0661749,12.97201628,
44408888,-1.364359621,97.12111844,12.75872046,
44517777,-1.388309544,96.1867845,12.5395284,
44626666,-1.411162581,95.24530868,12.33732649,
44735555,-1.43616484,94.29898582,12.12349571,
44844444,-1.459759502,93.3792329,11.92843625,
44953333,-1.485248391,92.45019794,11.72469685,
45062222,-1.511878125,91.53251847,11.51919378,
45171111,-1.538259693,90.62585715,11.32263921,
45280000,-1.565995826,89.72851777,11.12315217,
45388888,-1.594088498,88.86163807,10.92819593,
45497777,-1.622311087,87.9856618,10.73915564,
45606666,-1.651959975,87.11994037,10.54753873,
45715555,-1.68205593,86.21987057,10.35996158,
45824444,-1.712101124,85.36440856,10.1792989,
45933333,-1.742668519,84.50930812,10.00190947,
46042222,-1.775413655,83.67950301,9.818680952,
46151111,-1.807440822,82.85237026,9.645914115,
46260000,-1.840990378,82.02139797,9.471404306,
46368888,-1.874580781,81.19745627,9.302962857,
46477777,-1.908843999,80.38218012,9.137278305,
46586666,-1.943268161,79.58716518,8.976722571,
46695555,-1.978232345,78.77905523,8.819391554,
46804444,-2.0138962,77.99931477,8.66456412,
46913333,-2.051191312,77.22153307,8.508439184,
47022222,-2.088265439,76.46911612,8.358791655,
47131111,-2.126762542,75.73478924,8.208948053,
47240000,-2.163750393,75.0035376,8.070026105,
47348888,-2.202895217,74.31127174,7.928109789,
47457777,-2.241591203,73.60227283,7.792717955,
47566666,-2.281789018,72.90185716,7.656960832,
47675555,-2.320771741,72.21965708,7.529824474,
47784444,-2.360312444,71.520903,7.405183555,
47893333,-2.4002694,70.85549145,7.283427322,
48002222,-2.43946592,70.22370336,7.167887943,
48111111,-2.480511294,69.61085183,7.050837857,
48220000,-2.520359223,68.99874722,6.940874127,
48328888,-2.559551978,68.43399032,6.836081356,
48437777,-2.599015063,67.87088368,6.733781792,
48546666,-2.637747174,67.3247074,6.636375422,
48655555,-2.676385007,66.79348386,6.542036392,
48764444,-2.714423943,66.2654138,6.45180364,
48873333,-2.753033587,65.7567477,6.362787435,
48982222,-2.788213208,65.25380089,6.283843485,
49091111,-2.824079226,64.77719931,6.205401131,
49200000,-2.858567137,64.30126181,6.131845351,
49308888,-2.889988674,63.85326902,6.066371506,
49417777,-2.921983026,63.41186905,6.001164135,
49526666,-2.950022502,62.99293981,5.94519094,
49635555,-2.978496838,62.56913104,5.889438419,
49744444,-3.004518124,62.17790448,5.839422013,
49853333,-3.027369803,61.7919513,5.796214111,
49962222,-3.049307637,61.41463349,5.755349487,
50071111,-3.068368455,61.0527898,5.720323257,
50180000,-3.086023119,60.69894073,5.688270938,
50288888,-3.10102393,60.36060719,5.661326514,
50397777,-3.113008811,60.00749854,5.639987878,
50506666,-3.124099322,59.70286874,5.620389038,
50615555,-3.130099415,59.39375689,5.609844356,
50724444,-3.134425762,59.0883764,5.602266469,
50833333,-3.136671666,58.78124057,5.598340947,
50942222,-3.135955462,58.48193155,5.599592153,
51051111,-3.132449787,58.16775943,5.605724897,
51160000,-3.125855896,57.85282134,5.617297764,
51268888,-3.117370495,57.54526191,5.632263217,
51377777,-3.106480461,57.21800556,5.65159073,
51486666,-3.093556397,56.90650131,5.674706673,
51595555,-3.075637656,56.57192164,5.707080879,
51704444,-3.055880433,56.20159867,5.743221425,
51813333,-3.035679513,55.84942052,5.78066503,
51922222,-3.011224136,55.51546722,5.826673633,
52031111,-2.98609315,55.16724349,5.874746305,
52140000,-2.958316446,54.79563856,5.928839613,
52248888,-2.928638891,54.40233897,5.987779575,
52357777,-2.898377523,54.02000028,6.049133733,
52466666,-2.86488357,53.62885831,6.118567254,
52575555,-2.831020718,53.21980975,6.190450988,
52684444,-2.796343615,52.80502032,6.265883618,
52793333,-2.759016791,52.36350745,6.349217691,
52902222,-2.720944821,51.86770467,6.43659071,
53011111,-2.683102447,51.41497572,6.525914344,
53120000,-2.642326062,50.94083086,6.625050276,
53228888,-2.602292506,50.44248151,6.72542629,
53337777,-2.561581183,49.93407449,6.830743643,
53446666,-2.519181322,49.40481146,6.944074405,
53555555,-2.476849564,48.86306883,7.061121442,
53664444,-2.434277003,48.29966635,7.182968227,
53773333,-2.392134657,47.7259788,7.307883577,
53882222,-2.348781432,47.12450725,7.441095741,
53991111,-2.305028267,46.51062946,7.580648792,
54100000,-2.263252973,45.88028962,7.718958719,
54208888,-2.219349293,45.23980393,7.869959179,
