Frequency,S11_Magnitude,S11_Phase,S11_VSWR,
10000000,-0.3526174501,40.45501949,49.27199448,
10108888,-0.3534525114,39.54630434,49.15561726,
10217777,-0.3492534823,38.60532706,49.74644673,
10326666,-0.3434585579,37.6701662,50.5855578,
10435555,-0.3380861002,36.74137781,51.38919484,
10544444,-0.3342632197,35.80981512,51.976772,
10653333,-0.3298267223,34.88667177,52.67573987,
10762222,-0.3262228672,33.97445384,53.25752119,
10871111,-0.3230713397,33.0575164,53.77692128,
10980000,-0.3185406568,32.14925085,54.54162869,
11088888,-0.3146662705,31.25370544,55.21303293,
11197777,-0.3108189857,30.35835937,55.89630549,
11306666,-0.3088703016,29.46619382,56.24888413,
11415555,-0.3059360082,28.58459935,56.78826529,
11524444,-0.3031325798,27.70586387,57.31334602,
11633333,-0.3011569043,26.82792406,57.6892619,
11742222,-0.2983273716,25.95711157,58.23631565,
11851111,-0.2955387774,25.09005577,58.78570439,
11960000,-0.2943523398,24.21588822,59.02260463,
12068888,-0.2930435655,23.36910305,59.28615765,
12177777,-0.2916300337,22.50837493,59.57346348,
12286666,-0.2893230691,21.63780772,60.04839332,
12395555,-0.2877339637,20.78840221,60.37996916,
12504444,-0.287831681,19.94078647,60.35947424,
12613333,-0.286883691,19.08899712,60.55889207,
12722222,-0.2864699959,18.2531217,60.64633008,
12831111,-0.2860306389,17.40890517,60.73946892,
12940000,-0.286438065,16.56685017,60.65308944,
13048888,-0.2860509743,15.71773306,60.73515173,
13157777,-0.2858724578,14.89122951,60.77307168,
13266666,-0.287169468,14.05479083,60.49863778,
13375555,-0.2873262233,13.22164926,60.46563782,
13484444,-0.288589009,12.39932795,60.20110526,
13593333,-0.2891659609,11.57630525,60.08101248,
13702222,-0.2908730814,10.75289086,59.72846514,
13811111,-0.2909412339,9.941954951,59.71447648,
13920000,-0.2938918559,9.112583276,59.11506639,
14028888,-0.295737215,8.308914334,58.7462672,
14137777,-0.297809688,7.499198758,58.33752814,
14246666,-0.2994217435,6.69827848,58.02350667,
14355555,-0.3019138545,5.903198265,57.54465397,
14464444,-0.3040121794,5.096663445,57.14755478,
14573333,-0.3082857384,4.301265834,56.35551933,
14682222,-0.310856773,3.507525489,55.88951228,
14791111,-0.314395635,2.721588463,55.26055057,
14900000,-0.317362692,1.937474349,54.74402723,
15008888,-0.3219215109,1.160655182,53.96895574,
15117777,-0.3259041219,0.3820536888,53.30959662,
15226666,-0.3301266768,-0.3909485814,52.62788998,
15335555,-0.3349438054,-1.165539641,51.87118441,
15444444,-0.3399970025,-1.945672921,51.10044268,
15553333,-0.3430788038,-2.707312351,50.64153639,
15662222,-0.3476401043,-3.485993625,49.97725511,
15771111,-0.3523730129,-4.25076084,49.30616452,
15880000,-0.357325539,-5.025533743,48.62297063,
15988888,-0.3621488944,-5.775834306,47.97555934,
16097777,-0.3669844344,-6.539014868,47.34359769,
16206666,-0.3726676484,-7.290720983,46.62182014,
16315555,-0.3784901161,-8.048237881,45.9048394,
16424444,-0.3838893948,-8.808015897,45.25940859,
16533333,-0.3905406782,-9.562321859,44.48885038,
16642222,-0.3957684788,-10.30001462,43.90138579,
16751111,-0.4009846656,-11.06577188,43.33049591,
16860000,-0.4060762668,-11.80776008,42.78738916,
16968888,-0.4138164125,-12.5727877,41.9873753,
17077777,-0.4191974099,-13.31447869,41.44861254,
17186666,-0.4254469635,-14.07339257,40.83999603,
17295555,-0.4314570145,-14.8159028,40.27133765,
17404444,-0.4365294487,-15.54746532,39.80358172,
17513333,-0.4433885735,-16.30301069,39.18809015,
17622222,-0.4492082757,-17.03960158,38.68061208,
17731111,-0.456147958,-17.78903911,38.09240247,
17840000,-0.4617501113,-18.52672821,37.63046254,
17948888,-0.4685989147,-19.2781192,37.08073571,
18057777,-0.4747003559,-20.00526262,36.60436046,
18166666,-0.4808977898,-20.75752044,36.13286843,
18275555,-0.4863889322,-21.49040773,35.72515188,
18384444,-0.4933135646,-22.23982362,35.2239425,
18493333,-0.4998008347,-22.97950324,34.76699324,
18602222,-0.5053738362,-23.72081167,34.38381348,
18711111,-0.5124120441,-24.45601882,33.91180468,
18820000,-0.5181517991,-25.18627087,33.53637038,
18928888,-0.5253297838,-25.93838195,33.07841072,
19037777,-0.5305322858,-26.67899379,32.75423608,
19146666,-0.5382115633,-27.41462949,32.28718665,
19255555,-0.5441497848,-28.1549715,31.93506825,
19364444,-0.550953122,-28.90636043,31.54098372,
19473333,-0.5584836301,-29.63975601,31.11597692,
19582222,-0.5635903127,-30.37819489,30.83423062,
19691111,-0.5702498471,-31.12169063,30.47439404,
19800000,-0.5765237505,-31.85856452,30.14300202,
19908888,-0.5816843869,-32.59765211,29.87577395,
20017777,-0.5882510588,-33.33786424,29.54251995,
20126666,-0.5940250465,-34.07648262,29.25558394,
20235555,-0.5990762344,-34.82528664,29.00910474,
20344444,-0.60638279,-35.5592,28.65984077,
20453333,-0.6107732892,-36.29757073,28.45398946,
20562222,-0.616988367,-37.0508193,28.16760259,
20671111,-0.622729326,-37.79694159,27.90814394,
20780000,-0.6276551934,-38.54356247,27.68930779,
20888888,-0.6327421147,-39.28084262,27.46689439,
20997777,-0.6378987885,-40.03977113,27.24505338,
21106666,-0.6435617645,-40.78671169,27.0055288,
21215555,-0.6476350787,-41.53953343,26.83583276,
21324444,-0.6523803956,-42.28894048,26.64081436,
21433333,-0.6562838254,-43.04480829,26.48251007,
21542222,-0.6624948286,-43.79720634,26.23446917,
21651111,-0.6662619514,-44.56000882,26.08628055,
21760000,-0.6701710775,-45.31735121,25.93426811,
21868888,-0.6728083876,-46.08075489,25.83271059,
21977777,-0.6769410681,-46.84269664,25.67516167,
22086666,-0.6810350326,-47.60784553,25.52097497,
22195555,-0.6850776755,-48.38625356,25.37053037,
22304444,-0.6889640604,-49.15455054,25.22756616,
22413333,-0.6899536005,-49.94389598,25.19142241,
22522222,-0.6934517214,-50.71329888,25.06447802,
22631111,-0.6944449406,-51.50387088,25.02866802,
22740000,-0.6970055661,-52.28014906,24.93681697,
22848888,-0.7000721708,-53.07900478,24.82770084,
22957777,-0.7023212461,-53.86721615,24.74828011,
23066666,-0.703718694,-54.65746008,24.69918843,
23175555,-0.7047616605,-55.46112907,24.66267644,
23284444,-0.7065259499,-56.26700111,24.60115806,
23393333,-0.7071139267,-57.0699738,24.58072435,
23502222,-0.7089093485,-57.88309724,24.51853869,
23611111,-0.7079245655,-58.68464963,24.55260824,
23720000,-0.7100302374,-59.50949253,24.47987548,
23828888,-0.7103608486,-60.33217739,24.46849491,
23937777,-0.7105634976,-61.15294517,24.4615244,
24046666,-0.7095434744,-61.98776887,24.49665055,
24155555,-0.7101963835,-62.82300869,24.47415494,
24264444,-0.710168323,-63.67031065,24.47512089,
24373333,-0.7104477348,-64.50379583,24.4655058,
24482222,-0.7092293872,-65.34367995,24.50748701,
24591111,-0.7088095789,-66.19864894,24.52198601,
24700000,-0.7086837976,-67.06037079,24.52633348,
24808888,-0.7088480895,-67.92365041,24.52065524,
24917777,-0.7069047646,-68.78985345,24.58798937,
25026666,-0.7065601315,-69.73562311,24.59996923,
25135555,-0.7078402313,-70.59961075,24.55553028,
25244444,-0.7069439111,-71.46897896,24.58662933,
25353333,-0.7084787862,-72.365051,24.53342276,
25462222,-0.7096956924,-73.25671863,24.49140226,
25571111,-0.7091375336,-74.15010482,24.51065791,
25680000,-0.7083132868,-75.056064,24.53914872,
25788888,-0.7079378262,-75.97052901,24.55214884,
25897777,-0.7067068341,-76.88687573,24.59486825,
26006666,-0.7058836535,-77.81324842,24.62351845,
26115555,-0.7057759275,-78.74742883,24.62727272,
26224444,-0.7057964152,-79.69906473,24.62655863,
26333333,-0.7044788435,-80.64260326,24.67256656,
26442222,-0.7043502667,-81.58367615,24.67706552,
26551111,-0.7029479096,-82.53957155,24.72624157,
26660000,-0.7040284659,-83.49105775,24.68833269,
26768888,-0.7033499559,-84.46042126,24.71212307,
26877777,-0.7047684514,-85.42412026,24.66243906,
26986666,-0.7060588847,-86.39308161,24.61741406,
27095555,-0.7082990003,-87.37155316,24.53964313,
27204444,-0.7102790242,-88.34496718,24.47131055,
27313333,-0.7123065331,-89.34052848,24.40173311,
27422222,-0.7138377887,-90.32983316,24.34944756,
27531111,-0.7138914706,-91.33771489,24.34761864,
27640000,-0.7146248657,-92.35585844,24.32265963,
27748888,-0.7158866954,-93.37299714,24.27983662,
27857777,-0.7169714439,-94.38351981,24.2431438,
27966666,-0.7191770142,-95.43012161,24.16887948,
28075555,-0.7227887113,-96.45916261,24.04824843,
28184444,-0.7251866736,-97.48735219,23.96882035,
28293333,-0.726112163,-98.52868434,23.93830562,
28402222,-0.7288144276,-99.57079759,23.84965175,
28511111,-0.7319392374,-100.6179282,23.74795197,
28620000,-0.7342763899,-101.6806121,23.67245336,
28728888,-0.7367382427,-102.7332744,23.5934448,
28837777,-0.7389527083,-103.809674,23.5228257,
28946666,-0.7419035482,-104.8926949,23.42937923,
29055555,-0.7447512947,-105.9774064,23.33990008,
29164444,-0.7482962542,-107.0448303,23.22946592,
29273333,-0.7509956314,-108.1299458,23.14607335,
29382222,-0.7532105556,-109.2250773,23.07809384,
29491111,-0.7569009026,-110.3216368,22.9657155,
29600000,-0.7599425899,-111.3964283,22.87391117,
29708888,-0.7624446561,-112.5392267,22.79894315,
29817777,-0.7644924559,-113.6547383,22.73795146,
29926666,-0.7680589777,-114.7738122,22.63250312,
30035555,-0.7712955878,-115.9042446,22.5376536,
30144444,-0.7746821945,-117.0275935,22.43925747,
30253333,-0.7776323085,-118.1641378,22.35424233,
30362222,-0.7867788854,-119.2543998,22.0947154,
30471111,-0.7876023528,-120.4445234,22.07164614,
30580000,-0.7903651473,-121.5943738,21.99459847,
30688888,-0.7932817938,-122.7472568,21.91384297,
30797777,-0.7940464653,-123.9126899,21.89276913,
30906666,-0.7937880222,-125.0864675,21.89988711,
31015555,-0.7982367496,-126.238512,21.77800501,
31124444,-0.8017060042,-127.3180931,21.68389699,
31233333,-0.8023213355,-128.5660298,21.66729037,
31342222,-0.8032262277,-129.7415797,21.6429153,
31451111,-0.8048934323,-130.927136,21.59814945,
31560000,-0.8066519979,-132.108917,21.55113116,
31668888,-0.808696597,-133.2988073,21.49672254,
31777777,-0.810814035,-134.491389,21.44066505,
31886666,-0.8122525862,-135.6920842,21.40274741,
31995555,-0.8136833053,-136.8899461,21.36516928,
32104444,-0.8151087282,-138.0958318,21.32786154,
32213333,-0.8167596466,-139.3058918,21.28481475,
32322222,-0.8182461725,-140.5124576,21.24620314,
32431111,-0.8186822538,-141.7240626,21.23490281,
32540000,-0.8191652585,-142.9413881,21.22240059,
32648888,-0.8195151493,-144.1710086,21.21335314,
32757777,-0.8196506467,-145.396884,21.20985153,
32866666,-0.8198160796,-146.6232765,21.20557788,
32975555,-0.8201250237,-147.8498863,21.19760152,
33084444,-0.819174111,-149.0770157,21.22217159,
33193333,-0.8199444792,-150.3194418,21.20226211,
33302222,-0.8195596519,-151.5597727,21.21220295,
33411111,-0.8185029202,-152.8070693,21.23954848,
33520000,-0.8181889057,-154.0463789,21.24768801,
33628888,-0.8176618382,-155.2887156,21.26136411,
33737777,-0.8163095785,-156.5538857,21.29653275,
33846666,-0.8158940113,-157.8100516,21.30736397,
33955555,-0.8137307115,-159.0748385,21.36392641,
34064444,-0.8139117263,-160.3546226,21.35918199,
34173333,-0.8123441997,-161.5863156,21.40033719,
34282222,-0.809944891,-162.8357839,21.46363946,
34391111,-0.8074989062,-164.0873473,21.52856072,
34500000,-0.8073685443,-165.3557232,21.53203183,
34608888,-0.8049398198,-166.6152393,21.59690656,
34717777,-0.8022591474,-167.8806775,21.66896755,
34826666,-0.7995444295,-169.1366821,21.74243654,
34935555,-0.7979710235,-170.4078382,21.78524694,
35044444,-0.7953006564,-171.6700908,21.85829226,
35153333,-0.7934666427,-172.9550435,21.90874493,
35262222,-0.79175583,-174.2292564,21.95601927,
35371111,-0.7889012285,-175.489471,22.03535637,
35480000,-0.7857833213,-176.753383,22.12267053,
35588888,-0.7826196855,-178.0237461,22.21197686,
35697777,-0.78004111,-179.2783772,22.28530371,
35806666,-0.7772818047,179.4437173,22.3643092,
35915555,-0.7748325611,178.176847,22.4349086,
36024444,-0.7719672305,176.9054473,22.51807069,
36133333,-0.7717905113,175.6404456,22.52321994,
36242222,-0.767029561,174.3543084,22.66283827,
36351111,-0.7645186248,173.0815885,22.73717416,
36460000,-0.761748746,171.8155487,22.81974485,
36568888,-0.7596829066,170.5460988,22.88172022,
36677777,-0.7572039584,169.2644419,22.95653555,
36786666,-0.7554675139,167.987795,23.00923453,
36895555,-0.7528731403,166.7209194,23.08842381,
37004444,-0.7520044332,165.4420466,23.11506195,
37113333,-0.7490797182,164.168175,23.20520022,
37222222,-0.748197474,162.8772682,23.23252898,
37331111,-0.7477852305,161.6159681,23.24532093,
37440000,-0.7512122599,160.4323812,23.13940698,
37548888,-0.7467485626,159.115629,23.27755126,
37657777,-0.7468973378,157.8377151,23.27292029,
37766666,-0.7471503562,156.563346,23.26504875,
37875555,-0.7480169053,155.3062609,23.2381303,
37984444,-0.748361927,154.0351798,23.22742992,
38093333,-0.7500898707,152.7576466,23.1739883,
38202222,-0.7518166871,151.4932218,23.12082711,
38311111,-0.7539043117,150.2163479,23.05688358,
38420000,-0.7553536268,148.9545397,23.01269933,
38528888,-0.7587577839,147.7065703,22.90958347,
38637777,-0.7618765496,146.4738591,22.81592177,
38746666,-0.7655972436,145.2449905,22.70518203,
38855555,-0.7701360744,144.0315454,22.57154167,
38964444,-0.7741985306,142.8096523,22.45325735,
39073333,-0.780319784,141.5787671,22.2773557,
39182222,-0.7848213113,140.3471516,22.14975089,
39291111,-0.7914882821,139.1292592,21.96343083,
39400000,-0.7972312179,137.8921774,21.80543457,
39508888,-0.8036147556,136.6626371,21.63246639,
39617777,-0.8103020153,135.4427336,21.45419349,
39726666,-0.8189584036,134.2058005,21.22775307,
39835555,-0.8261823576,132.985748,21.04241827,
39944444,-0.8351240222,131.7715458,20.81745852,
40053333,-0.8430441178,130.5723862,20.62218842,
40162222,-0.853938309,129.3616684,20.35951437,
40271111,-0.8630701674,128.1636997,20.1444456,
40380000,-0.8749305787,126.9650265,19.87182281,
40488888,-0.8852174134,125.7755829,19.64129092,
40597777,-0.8974005217,124.5636212,19.37510499,
40706666,-0.9085599527,123.3709978,19.13755481,
40815555,-0.9222939199,122.1976901,18.85309859,
40924444,-0.9361694501,121.0204455,18.57419383,
41033333,-0.9506344675,119.8752461,18.29211638,
41142222,-0.9668661395,118.723591,17.98564721,
41251111,-0.981475363,117.5879479,17.71848778,
41360000,-0.9986896839,116.453896,17.41373051,
41468888,-1.016660415,115.3192425,17.10660453,
41577777,-1.035237005,114.1875343,16.80034488,
41686666,-1.053001733,113.0589,16.51758934,
41795555,-1.072959623,111.9397186,16.21110763,
41904444,-1.093558644,110.8187469,15.90652676,
42013333,-1.114911982,109.6902024,15.60268838,
42122222,-1.135506043,108.5278677,15.32049355,
42231111,-1.156962311,107.3668016,15.03718499,
42340000,-1.180697993,106.2578419,14.73579224,
42448888,-1.205578168,105.1720461,14.43262601,
42557777,-1.232579369,104.1039707,14.11748538,
42666666,-1.258412742,103.0238635,13.8286546,
42775555,-1.285232173,101.9383232,13.54110454,
42884444,-1.312314275,100.8829202,13.26268591,
42993333,-1.343288607,99.8058023,12.95804123,
43102222,-1.374655077,98.74194598,12.66355754,
43211111,-1.405391864,97.68415222,12.38776339,
43320000,-1.437313209,96.62007844,12.11385342,
43428888,-1.470711782,95.570324,11.84002443,
43537777,-1.50631555,94.52427105,11.5615186,
43646666,-1.540548931,93.46724499,11.3059016,
43755555,-1.576883611,92.38475534,11.04676695,
43864444,-1.616589103,91.40179979,10.7769476,
43973333,-1.655729022,90.4139063,10.52367296,
44082222,-1.695621907,89.40777967,10.27759364,
44191111,-1.738146137,88.3963035,10.02775932,
44300000,-1.781680027,87.4128365,9.784387251,
44408888,-1.826610756,86.42978429,9.545412819,
44517777,-1.872215623,85.46328758,9.314624544,
44626666,-1.91972231,84.50944248,9.085916561,
44735555,-1.968460798,83.56361257,8.862796215,
44844444,-2.018363324,82.63782321,8.645558288,
44953333,-2.069155857,81.73518906,8.435253502,
45062222,-2.123337156,80.82517598,8.222059503,
45171111,-2.175411626,79.93790432,8.027212349,
45280000,-2.230857483,79.06139973,7.829800436,
45388888,-2.287460777,78.19869196,7.638192288,
45497777,-2.34514318,77.34333562,7.452500454,
45606666,-2.404630972,76.52043079,7.270383288,
45715555,-2.464354314,75.71007272,7.096444671,
45824444,-2.525286416,74.89402145,6.927519867,
45933333,-2.587736156,74.10792001,6.762699152,
46042222,-2.651812785,73.33117284,6.601711795,
46151111,-2.715336211,72.60192653,6.449670927,
46260000,-2.780936515,71.8629483,6.300007339,
46368888,-2.846531879,71.15720273,6.157309867,
46477777,-2.913208855,70.46753523,6.018902823,
46586666,-2.979456501,69.77647625,5.887578149,
46695555,-3.047263848,69.11147547,5.759131441,
46804444,-3.11543262,68.50389294,5.635692548,
46913333,-3.184089767,67.91973386,5.516767589,
47022222,-3.252589385,67.34250144,5.403173561,
47131111,-3.321497399,66.80220086,5.29368353,
47240000,-3.389092523,66.26761058,5.190657004,
47348888,-3.457359239,65.76548108,5.090746354,
47457777,-3.523956053,65.28879836,4.997057897,
47566666,-3.591142962,64.82395181,4.906107714,
47675555,-3.656587938,64.38916936,4.820773764,
47784444,-3.720122479,63.97724763,4.740844592,
47893333,-3.78263834,63.59700003,4.664857019,
48002222,-3.844641301,63.2259511,4.591971549,
48111111,-3.905192441,62.85074928,4.523062232,
48220000,-3.962381284,62.49646663,4.459945185,
48328888,-4.017151485,62.19288443,4.401210878,
48437777,-4.070873401,61.93086898,4.345162978,
48546666,-4.121320486,61.71123244,4.293885924,
48655555,-4.169395705,61.50211477,4.246195774,
48764444,-4.214993966,61.29838082,4.201986998,
48873333,-4.258117126,61.10974367,4.161065869,
48982222,-4.297334668,60.93594592,4.12457807,
49091111,-4.332116442,60.77296776,4.092781185,
49200000,-4.365175978,60.63716937,4.06303806,
49308888,-4.393410841,60.48322028,4.037997385,
49417777,-4.419555529,60.3450274,4.015101742,
49526666,-4.439365681,60.22962372,3.997936849,
49635555,-4.458115043,60.11663222,3.981834645,
49744444,-4.472756342,60.0230964,3.969356414,
49853333,-4.48223725,59.91419699,3.96132063,
49962222,-4.489639206,59.81705657,3.955071026,
50071111,-4.492273236,59.72114312,3.952852146,
50180000,-4.493674885,59.61194134,3.951672495,
50288888,-4.489993397,59.52685996,3.954772505,
50397777,-4.482439038,59.41219539,3.961149977,
50506666,-4.473602655,59.30947676,3.968637685,
50615555,-4.459862355,59.18827819,3.980341076,
50724444,-4.442784783,59.07969342,3.994990126,
50833333,-4.425024675,58.95379058,4.010347204,
50942222,-4.403655687,58.82116666,4.028992598,
51051111,-4.379404194,58.66883741,4.050378261,
51160000,-4.353680724,58.51069213,4.073327861,
51268888,-4.324610821,58.35382502,4.099598529,
51377777,-4.294249182,58.17632253,4.12742415,
51486666,-4.261604898,57.95574099,4.15779311,
51595555,-4.22660859,57.72671909,4.190881674,
51704444,-4.191053043,57.52775624,4.22507612,
51813333,-4.154990026,57.30070725,4.260368077,
51922222,-4.115352322,57.07385607,4.299885502,
52031111,-4.077257815,56.85255149,4.3386021,
52140000,-4.037864587,56.60218682,4.379421129,
52248888,-3.996509123,56.3251655,4.42315493,
52357777,-3.95471787,56.03975862,4.468295267,
52466666,-3.911151006,55.73482543,4.516398395,
52575555,-3.867659567,55.40305323,4.565517544,
52684444,-3.824076444,55.0793462,4.615879717,
52793333,-3.780802839,54.73159205,4.667051696,
52902222,-3.735810346,54.3627938,4.72153338,
53011111,-3.693005585,54.00944757,4.774617359,
53120000,-3.646936684,53.62517932,4.833162762,
53228888,-3.604164762,53.24362589,4.888878003,
53337777,-3.560932336,52.84415037,4.946572932,
53446666,-3.516237894,52.43269518,5.007731556,
53555555,-3.472142514,51.98885734,5.069634715,
53664444,-3.429587086,51.58593655,5.130905727,
53773333,-3.388045358,51.16478578,5.192221325,
53882222,-3.346036323,50.71110266,5.255794769,
53991111,-3.302911636,50.25242407,5.322759722,
54100000,-3.262721155,49.7860738,5.386781422,
54208888,-3.221075741,49.31136046,5.454826229,
54317777,-3.18014431,48.83684464,5.523461154,
