Frequency,S11_Magnitude,S11_Magnitude (linear),S11_Phase,
500000000,-0.567423055,0.9367610986,102.5546506,
501833944,-0.5887910898,0.9344594181,99.97187169,
503667889,-0.6372816508,0.929257163,96.02589614,
505501833,-1.141119386,0.8768878057,85.54322389,
507335778,-1.924635988,0.8012502917,116.7387357,
509169723,-0.6752375975,0.9252053174,100.5377636,
511003667,-1.397565856,0.8513765955,94.26904091,
512837612,-0.6373270067,0.9292523106,94.06043505,
514671557,-0.7338327963,0.9189848676,90.43882753,
516505501,-1.39021384,0.8520975331,82.03865344,
518339446,-2.410997539,0.7576177185,101.1597226,
520173391,-0.7251513355,0.9199038431,92.68801748,
522007335,-0.6507574252,0.9278165793,87.87243904,
523841280,-0.6735152098,0.9253888013,84.72906267,
525675225,-0.7014508967,0.9224173331,81.70577856,
527509169,-1.156857981,0.8753003476,77.17884583,
529343114,-1.896723783,0.8038292601,82.89826264,
531177059,-0.6322396228,0.9297967394,80.30937862,
533011003,-0.6131904551,0.9318381296,76.55947231,
534844948,-0.615497246,0.9315906857,73.76318265,
536678892,-0.6114617728,0.9320236043,71.03588608,
538512837,-0.6205168474,0.9310524722,68.32622982,
540346782,-0.643212113,0.9286229109,65.41499362,
542180726,-0.6935157656,0.923260407,62.15723887,
544014671,-0.7789552269,0.9142232012,58.15899873,
545848616,-1.084754511,0.8825966495,51.80711284,
547682560,-3.384928071,0.6772571465,40.50256838,
549516505,-3.296889069,0.6841566404,74.25563329,
551350450,-1.161763129,0.8748061823,64.66122764,
553184394,-0.970801556,0.8942520043,55.89659829,
555018339,-1.353857045,0.8556716589,53.59185583,
556852284,-2.715619309,0.7315079233,59.76758221,
558686228,-1.224876456,0.8684727121,58.42527679,
560520173,-0.9178904383,0.8997160711,53.25009011,
562354118,-0.8165258617,0.9102772879,47.51548381,
564188062,-0.9570849568,0.8956653064,41.58649963,
566022007,-3.168059809,0.6943796899,36.19840021,
567855951,-0.9202033121,0.8994765271,44.4044283,
569689896,-0.7626424603,0.9159417958,37.09050757,
571523841,-0.7661293131,0.9155741751,30.79411937,
573357785,-0.8445825369,0.9073417049,22.74911297,
575191730,-1.187808519,0.8721869294,8.3736265,
577025675,-6.52726321,0.4716684634,-37.29222528,
578859619,-10.73486319,0.2905740592,131.8479865,
580693564,-2.07361894,0.7876242027,65.22382671,
582527509,-1.566559526,0.8349722146,47.04887636,
584361453,-1.401157423,0.8510246288,40.03924309,
586195398,-2.17946348,0.7780846112,43.53986613,
588029343,-1.090226393,0.8820408119,35.18897451,
589863287,-0.9686995014,0.8944684466,30.05172533,
591697232,-0.9153373126,0.899980572,25.82039637,
593531177,-0.8996915121,0.9016031584,21.87373688,
595365121,-0.8987779243,0.9016979946,17.62380138,
597199066,-1.233353541,0.8676255305,10.00928209,
599033011,-1.2920035,0.8617867748,18.19321035,
600866955,-1.001868024,0.8910592825,11.77925407,
602700900,-1.009376158,0.8902893785,7.387412089,
604534844,-1.159374746,0.8750467632,2.491609298,
606368789,-2.064785748,0.7884255915,-1.708689759,
608202734,-1.153233246,0.8756656981,5.511543543,
610036678,-0.9317086874,0.8982858645,-1.623026003,
611870623,-0.9470814883,0.8966974311,-7.342310169,
613704568,-1.864195797,0.8068451823,-17.50924129,
615538512,-1.129906169,0.878020572,-5.965661358,
617372457,-1.035318562,0.8876342918,-12.60497228,
619206402,-1.048840639,0.8862535097,-17.23367195,
621040346,-1.078201135,0.883262807,-21.62223195,
622874291,-1.123917215,0.8786261793,-26.26707265,
624708236,-1.203116654,0.8706511285,-31.96113073,
626542180,-1.722308626,0.8201335318,-35.94302454,
628376125,-2.117319295,0.7836714681,-44.68388191,
630210070,-2.847701155,0.7204684083,-31.23923516,
632044014,-1.607599651,0.8310363441,-45.76277632,
633877959,-2.108049699,0.78450825,-65.30442756,
635711903,-9.419634138,0.3380790763,-95.86849793,
637545848,-4.734919517,0.5797677105,-16.54689406,
639379793,-2.984953174,0.7091732429,-53.17702917,
641213737,-8.291276314,0.3849782414,-92.61474744,
643047682,-6.047173003,0.4984726675,10.03218257,
644881627,-2.344924957,0.7634028064,-31.52170719,
646715571,-4.04532222,0.6276736382,-58.18333881,
648549516,-8.666011546,0.3687223157,-23.52210951,
650383461,-2.746364029,0.7289232428,-24.37432627,
652217405,-1.392909609,0.8518331156,-41.15960305,
654051350,-1.188813639,0.8720860069,-53.67464865,
655885295,-1.347212033,0.8563265283,-63.79726355,
657719239,-1.388047331,0.8523100971,-76.35967951,
659553184,-2.284361476,0.7687443311,-93.31144437,
661387129,-6.872815237,0.4532723611,-117.2277166,
663221073,-10.1729182,0.3099945723,-53.5858118,
665055018,-5.973333667,0.5027282804,-58.07674415,
666888962,-3.122400688,0.6980394467,-87.5229055,
668722907,-26.37423125,0.04800521706,172.6307635,
670556852,-2.487820107,0.7509464951,-38.24801004,
672390796,-1.590865893,0.8326389164,-69.76632729,
674224741,-3.590932006,0.6613835664,-109.8845709,
676058686,-2.437803064,0.7552832385,-51.47476387,
677892630,-5.814528797,0.5120042432,-64.80238761,
679726575,-1.121256348,0.8788953821,-78.0724387,
681560520,-1.030073893,0.8881704204,-90.06971093,
683394464,-1.107449276,0.8802935833,-99.63984934,
685228409,-1.158201325,0.8751649857,-108.174225,
687062354,-1.180164103,0.8729548754,-116.8954855,
688896298,-1.497790198,0.8416092306,-131.5037556,
690730243,-4.867092145,0.5710122072,-149.9481125,
692564188,-2.879104323,0.7178683131,-121.7161637,
694398132,-10.63080491,0.2940761165,-152.2297988,
696232077,-3.595893323,0.6610058969,-106.0459636,
698066022,-1.473790528,0.8439378664,-129.6529427,
699899966,-1.485903927,0.8427617255,-147.4929998,
701733911,-2.826636764,0.7222177565,-158.3479717,
703567855,-2.901370668,0.7160304089,-179.264351,
705401800,-7.064228398,0.4433927424,140.2020903,
707235745,-5.943798669,0.5044406383,-124.7937367,
709069689,-10.03048597,0.3151198066,118.2859341,
710903634,-5.781756825,0.5139396906,-90.79202052,
712737579,-2.836161224,0.721426247,-136.9132415,
714571523,-4.23202415,0.6143258532,-174.5818401,
716405468,-4.749131116,0.5788198871,-116.5601653,
718239413,-1.504487388,0.8409605642,-158.1096388,
720073357,-4.154854147,0.6198081643,177.0560869,
721907302,-2.565934226,0.7442233445,-173.372402,
723741247,-1.296536541,0.861337138,168.3999807,
725575191,-1.770124972,0.8156310518,153.8481437,
727409136,-1.432249524,0.8479837381,139.8537189,
729243081,-1.533822581,0.8381251462,120.7747185,
731077025,-1.871719804,0.8061465688,98.13720927,
732910970,-3.33408327,0.6812332491,70.09453354,
734744914,-2.776347765,0.726411334,29.6479059,
736578859,-3.31735815,0.6825462619,-36.380101,
738412804,-3.114682457,0.6986599962,-111.9907007,
740246748,-3.702693676,0.6529280346,178.244454,
742080693,-21.49330552,0.08420438805,156.7644745,
743914638,-3.26344386,0.6867960789,165.411129,
745748582,-4.934414111,0.5666035542,128.8452974,
747582527,-2.209378887,0.7754093896,104.0794136,
749416472,-2.233945194,0.7732193971,55.46620182,
751250416,-3.038518057,0.7048133104,-8.239743912,
753084361,-3.339122376,0.6808381472,-92.44054807,
754918306,-2.777746606,0.7262943567,-171.3747822,
756752250,-6.699539575,0.4624055321,124.8199264,
758586195,-3.375220917,0.6780144569,142.0430762,
760420140,-2.061390993,0.7887337965,96.30640114,
762254084,-2.861315628,0.7193400133,61.75772988,
764088029,-2.997283379,0.708167238,35.28166673,
765921973,-6.676254304,0.4636468193,0.2681903567,
767755918,-2.675142105,0.7349247863,-1.066296368,
769589863,-3.154858575,0.695435844,-38.47684549,
771423807,-2.727528249,0.7305056639,-76.28196718,
773257752,-3.314494652,0.6827713157,-95.92569719,
775091697,-7.555207907,0.4190246815,-168.1436712,
776925641,-3.97025042,0.6331221081,-142.7332957,
778759586,-10.33074632,0.3044126418,66.81146827,
780593531,-3.272604061,0.6860721606,-97.57744231,
782427475,-2.08211814,0.7868538842,-153.2429368,
784261420,-1.991910718,0.7950683475,171.3432846,
786095365,-2.23415887,0.7732003759,137.3484757,
787929309,-3.595229705,0.6610564008,94.33081034,
789763254,-11.06852299,0.279623618,99.43796966,
791597199,-12.89385292,0.2266247584,-11.27548537,
793431143,-4.88954245,0.5695382251,62.53652137,
795265088,-5.973486632,0.5027194271,-20.38526499,
797099033,-12.03393787,0.2502091034,-116.1912654,
798932977,-10.04894546,0.3144508165,1.819356256,
800766922,-4.725463928,0.5803991979,-77.4520282,
802600866,-3.608673891,0.6600339966,-121.7726023,
804434811,-7.652169108,0.4143730907,175.9855015,
806268756,-2.769944815,0.7269470178,-135.0723556,
808102700,-2.495026325,0.7503237334,-179.640194,
809936645,-5.475489837,0.5323846291,166.7149704,
811770590,-2.951865075,0.7118799254,159.1434965,
813604534,-3.876665578,0.6399804701,141.1679697,
815438479,-2.744469612,0.7290822403,123.5769482,
817272424,-2.613229054,0.7401820473,97.55198438,
819106368,-3.741894313,0.6499879185,60.97502482,
820940313,-6.467781698,0.4749095633,20.50457276,
822774258,-6.990029296,0.4471966435,-108.6103108,
824608202,-4.929923801,0.5668965447,163.3507063,
826442147,-4.308630006,0.6089315828,110.4604964,
828276092,-7.710834769,0.4115837896,37.86210913,
830110036,-9.524932133,0.334005327,101.4338041,
831943981,-9.114090939,0.3501833177,27.44467653,
833777925,-7.877553059,0.4037591218,-97.41058409,
835611870,-3.772143956,0.6477281955,-169.4780511,
837445815,-2.287437804,0.768472109,150.9442012,
839279759,-1.796519377,0.8131563001,126.449241,
841113704,-1.526760097,0.8388069016,105.1960814,
842947649,-1.371142757,0.8539704876,86.79972809,
844781593,-1.353314653,0.8557250931,67.58065361,
846615538,-1.638132147,0.8281202273,45.69059645,
848449483,-2.542974042,0.7461932187,24.16097149,
850283427,-2.654001424,0.7367157063,-10.76959177,
852117372,-6.607839835,0.4673131567,-89.67049791,
853951317,-14.90435525,0.1797969157,22.92801717,
855785261,-21.26017465,0.08649505271,175.0625413,
857619206,-21.44107569,0.08471224972,150.3170225,
859453151,-12.06223488,0.249395295,38.49563394,
861287095,-15.51545993,0.1675818589,-140.9597274,
863121040,-13.61016377,0.2086852777,-131.5683791,
864954984,-4.878874739,0.5702381421,142.0166033,
866788929,-3.243735326,0.6883562083,91.85658003,
868622874,-3.697029238,0.6533539756,48.56999345,
870456818,-6.439022003,0.4764846341,3.811577922,
872290763,-13.19385381,0.2189310247,-69.88053737,
874124708,-11.41492454,0.2686914043,96.20989596,
875958652,-13.7043998,0.2064334212,18.5871786,
877792597,-9.857789055,0.3214478662,-83.24182985,
879626542,-3.723018824,0.6514019567,169.0026513,
881460486,-2.75428723,0.7282586278,114.7284172,
883294431,-2.640453264,0.7378657244,88.42502771,
885128376,-2.700722318,0.7327635941,46.27244513,
886962320,-8.098797822,0.3936045489,70.36479259,
888796265,-4.062509652,0.6264328405,33.62575973,
890630210,-4.107798255,0.6231750931,19.54859672,
892464154,-3.332238058,0.6813779842,-26.77214051,
894298099,-14.13303918,0.1964934333,-68.12843251,
896132044,-15.0616318,0.1765706069,-118.9579546,
897965988,-11.28069903,0.2728758168,-52.94007589,
899799933,-4.540215732,0.5929105983,-140.236373,
901633877,-2.791242053,0.7251667742,162.7804615,
903467822,-2.222316223,0.7742553034,123.2376007,
905301767,-4.201026932,0.6165221062,107.240273,
907135711,-1.918482863,0.8018181022,88.48963965,
908969656,-1.662148265,0.8258336724,67.16099976,
910803601,-2.489901852,0.7507665375,45.19262263,
912637545,-4.54312194,0.5927122497,20.10951581,
914471490,-13.74940082,0.205366669,23.17642349,
916305435,-5.168100744,0.5515627939,62.24239878,
918139379,-5.592625128,0.5252532443,52.7348071,
919973324,-1.769594989,0.8156808203,42.08343622,
921807269,-2.576074889,0.7433549805,18.17938426,
923641213,-7.669038402,0.4135690972,17.65038867,
925475158,-1.406932699,0.8504589679,8.883988511,
927309103,-1.97978252,0.7961792852,-17.75254915,
929143047,-3.878662482,0.6398333542,-36.03142911,
930976992,-2.486748125,0.75103918,-70.94760259,
932810936,-4.352448837,0.6058673626,-154.1466066,
934644881,-3.350177833,0.6799721232,107.9250741,
936478826,-2.102001568,0.7850547065,53.60336669,
938312770,-2.015760294,0.792888256,19.45805885,
940146715,-2.457981988,0.7535306129,-13.64915016,
941980660,-14.64927031,0.1851554433,-114.9444114,
943814604,-3.105790714,0.6993755804,30.75260626,
945648549,-5.554917108,0.5275384811,-21.18812286,
947482494,-5.270794704,0.545080022,23.49539352,
949316438,-2.315101916,0.7660284584,-7.81980632,
951150383,-2.863894176,0.7191264972,-16.84404915,
952984328,-3.95863783,0.6339691261,-44.66633045,
954818272,-7.248081014,0.4341061608,-94.63367046,
956652217,-3.828586561,0.6435327774,-4.646990223,
958486162,-2.498372179,0.7500347601,-68.17199988,
960320106,-4.04507418,0.6276915627,-140.1478485,
962154051,-4.569286775,0.5909294866,108.8100817,
963987995,-3.686642842,0.6541357093,40.26085147,
965821940,-6.609647785,0.4672158965,-1.251133971,
967655885,-21.75614586,0.08169447889,74.35617334,
969489829,-2.677618257,0.7347153056,19.25117373,
971323774,-2.1413499,0.7815063389,-12.41493115,
973157719,-6.918700742,0.4508841439,-47.36164508,
974991663,-3.326813038,0.6818036912,5.170239453,
976825608,-1.886297963,0.8047946892,-24.28967665,
978659553,-1.46737626,0.8445613194,-33.50059474,
980493497,-1.759194878,0.8166580664,-48.92004296,
982327442,-1.864428775,0.8068235409,-61.95666385,
984161387,-1.45206616,0.8460512901,-77.68844162,
985995331,-1.811121567,0.8117904196,-102.1722169,
987829276,-3.339488602,0.6808094415,-142.3881466,
989663221,-11.81546606,0.2565823019,160.0862371,
991497165,-7.335592243,0.4297544554,108.7370785,
993331110,-5.351343734,0.5400485611,24.70760091,
995165055,-5.319050764,0.5420601261,-26.21296592,
996998999,-5.219771472,0.5482913904,-71.26675706,
998832944,-11.18918597,0.2757659884,60.77819597,
1000666888,-4.776324861,0.5770105542,-72.09492837,
1002500833,-8.898644087,0.3589779686,113.1120597,
1004334778,-4.907730203,0.5683468926,18.10155621,
1006168722,-2.410540212,0.7576576095,-6.880555682,
1008002667,-2.350006855,0.762956289,-30.51332032,
1009836612,-3.307487437,0.6833223537,-69.59510845,
1011670556,-15.29161135,0.1719568309,-68.12360444,
1013504501,-7.131782058,0.4399576738,-15.56237579,
1015338446,-6.438455483,0.4765157129,-66.8259691,
1017172390,-4.702471944,0.5819375788,-35.77526183,
1019006335,-8.622875893,0.3705580099,0.8618595696,
1020840280,-4.916605999,0.5677664161,-7.244835922,
1022674224,-2.374898797,0.760772946,-51.26206921,
1024508169,-3.435540307,0.6733222789,-35.15394393,
1026342114,-5.206141699,0.5491524368,-67.08196907,
1028176058,-2.443133835,0.7548198425,-46.49450925,
1030010003,-2.144129436,0.7812562923,-58.20940215,
1031843947,-1.372207473,0.8538658144,-64.40069189,
1033677892,-2.855081121,0.7198565223,-75.55627194,
1035511837,-1.214015202,0.8695593713,-77.81976026,
1037345781,-1.421926585,0.8489921424,-90.28498926,
1039179726,-1.724558671,0.8199211069,-107.4915406,
1041013671,-15.27593492,0.1722674614,-66.53102976,
1042847615,-2.228686615,0.7736876585,-99.96081536,
1044681560,-3.016683662,0.7065872831,-134.1279286,
1046515505,-11.4516835,0.2675566966,14.08489905,
1048349449,-1.923942537,0.8013142632,-62.80580733,
1050183394,-1.54633282,0.836918868,-89.33780633,
1052017339,-5.097713969,0.5560505845,-116.4143747,
1053851283,-2.321304767,0.76548161,-96.48537028,
1055685228,-2.638675079,0.7380167965,-117.3984569,
1057519173,-4.260458743,0.6123180514,-138.3547972,
1059353117,-2.269915163,0.7700239653,-145.6997207,
1061187062,-4.718380753,0.5808726953,151.0484015,
1063021007,-6.319825397,0.4830685125,38.19194302,
1064854951,-5.031618704,0.5602979904,-36.5188027,
1066688896,-2.927089497,0.713913386,-63.53780242,
1068522840,-4.056755176,0.6268479952,-85.21804978,
1070356785,-6.247499949,0.4871077087,-102.2268423,
1072190730,-3.556571344,0.6640051271,-83.0830513,
1074024674,-4.728298001,0.5802098535,-87.36183915,
1075858619,-2.040258057,0.7906551374,-105.9603935,
1077692564,-8.14392008,0.3915651177,-111.1894702,
1079526508,-5.339784395,0.540767746,-94.26822603,
1081360453,-5.393202623,0.5374522296,-93.85578656,
1083194398,-4.011447783,0.6301263064,-103.9457608,
1085028342,-1.559068583,0.8356926275,-99.42356938,
1086862287,-3.542770596,0.6650609835,-110.4802105,
1088696232,-1.800793344,0.812756278,-105.5293576,
1090530176,-1.202526331,0.870710303,-116.9303855,
1092364121,-1.660105062,0.8260279581,-124.8431878,
1094198066,-1.548818402,0.836679407,-136.2612399,
1096032010,-1.713858491,0.8209317932,-138.8102508,
1097865955,-1.9392779,0.7999007519,-153.8573134,
1099699899,-2.758635306,0.7278941595,-171.5447391,
1101533844,-8.173369128,0.3902397849,178.449544,
1103367789,-5.935959365,0.5048961182,-163.5307426,
1105201733,-22.22759811,0.07737846223,55.84574125,
1107035678,-4.289267273,0.6102905376,-103.5537271,
1108869623,-6.436599823,0.4766175269,-53.80694344,
1110703567,-2.260223569,0.7708836267,-102.1864145,
1112537512,-1.512718459,0.8401640163,-109.2133314,
1114371457,-1.238886191,0.8670730551,-124.3679139,
1116205401,-1.17398279,0.8735763348,-135.7559367,
1118039346,-1.229106923,0.868049825,-145.6467237,
1119873291,-1.442474721,0.8469860626,-159.0542298,
1121707235,-3.620281971,0.6591524967,172.9301072,
1123541180,-16.31407891,0.1528607742,87.7262744,
1125375125,-6.041963905,0.498771701,-121.9576266,
1127209069,-3.886055355,0.6392890007,-146.9045382,
1129043014,-5.480720409,0.532064128,-153.0391354,
1130876958,-6.365578197,0.480530646,-112.2145212,
1132710903,-10.43411144,0.3008114948,-138.172386,
1134544848,-4.781890036,0.5766409736,-149.0594103,
1136378792,-2.942143336,0.7126771477,-134.8990562,
1138212737,-2.963303029,0.7109431082,-170.118186,
1140046682,-24.36268037,0.0605154102,-166.1622481,
1141880626,-7.332312749,0.4299167466,-83.52879049,
1143714571,-3.428239296,0.6738884846,-123.3051631,
1145548516,-2.467494247,0.7527058436,-130.4759499,
1147382460,-4.325499491,0.6077500811,-163.3823301,
1149216405,-4.828668337,0.5735437917,-111.3688868,
1151050350,-1.569849442,0.8346560157,-134.6244936,
1152884294,-5.436480086,0.5347810329,-143.3282051,
1154718239,-1.31967932,0.8590452365,-137.4033555,
1156552184,-1.328579681,0.8581654307,-148.9360023,
1158386128,-1.852504012,0.8079319809,-142.6117539,
1160220073,-2.169750194,0.7789552169,-151.1843748,
1162054018,-1.028859765,0.888294579,-150.4018683,
1163887962,-0.8359429611,0.9082446575,-156.6041313,
1165721907,-0.9399921684,0.8974296037,-159.052175,
1167555851,-0.7834504098,0.9137501884,-163.739127,
1169389796,-0.7383474629,0.9185073308,-167.5423191,
1171223741,-0.7260450807,0.9198091934,-171.8811011,
1173057685,-0.7815073347,0.9139546216,-176.9369368,
1174891630,-1.061430679,0.8849698318,176.8155855,
1176725575,-2.184563315,0.7776279005,176.1687157,
1178559519,-3.203608378,0.6915436233,176.271429,
1180393464,-3.359263782,0.6792612045,-163.7202314,
1182227409,-1.293169373,0.8616711083,178.7102099,
1184061353,-1.351204033,0.8559330545,174.2146685,
1185895298,-3.74519818,0.6497407285,164.3897322,
1187729243,-1.838780437,0.8092095102,167.1874304,
1189563187,-3.518729087,0.6669043431,151.2941902,
1191397132,-6.603053072,0.4675707622,174.618697,
1193231077,-3.928993777,0.6361364942,-179.5781093,
1195065021,-2.519524508,0.7482104587,164.4618056,
1196898966,-3.979617893,0.6324396729,179.3533549,
1198732910,-2.231917299,0.7733999418,159.2787573,
1200566855,-7.969704061,0.3994981725,176.7274036,
1202400800,-4.177436986,0.61819879,156.6674844,
1204234744,-4.374956996,0.6042993821,-162.254318,
1206068689,-3.778796471,0.647232291,176.8222399,
1207902634,-2.062202134,0.7886601433,175.9096079,
1209736578,-1.445711646,0.8466704796,168.1408392,
1211570523,-1.854249557,0.8077696325,159.8378565,
1213404468,-4.356606197,0.6055774434,157.7078572,
1215238412,-2.022080974,0.792311485,166.3564235,
1217072357,-2.117732266,0.7836342093,162.8978781,
1218906302,-1.900208849,0.8035068019,158.7722777,
