Frequency,S11_Magnitude,S11_Magnitude (linear),S11_Phase,
500000000,-0.6719207989,0.9255586843,98.63278193,
501833944,-0.8157371341,0.91035995,92.73807487,
503667889,-2.954335866,0.7116774526,72.15364927,
505501833,-1.725428749,0.8198389784,122.734977,
507335778,-0.7183090924,0.9206287758,106.4455513,
509169723,-0.6204489673,0.9310597484,100.6182625,
511003667,-0.6062742322,0.9325804101,96.27327045,
512837612,-0.6669537554,0.9260881183,90.5893562,
514671557,-1.643510436,0.8276076152,105.911665,
516505501,-0.6715540445,0.9255977661,91.68092803,
518339446,-1.960806742,0.7979205732,80.37246745,
520173391,-0.862899938,0.9054302565,94.07429841,
522007335,-0.7036261241,0.9221863589,88.78660316,
523841280,-0.6859568785,0.9240642232,85.76530978,
525675225,-0.6953503086,0.9230654262,83.21920015,
527509169,-0.7314498574,0.919237022,80.93040809,
529343114,-0.8199058336,0.9099231373,78.81225692,
531177059,-0.7301546283,0.9193741077,78.4492684,
533011003,-0.6170713436,0.9314218738,75.54860004,
534844948,-0.607968316,0.9323985387,72.83665657,
536678892,-0.6054875007,0.9326648832,70.28188146,
538512837,-0.6173600347,0.9313909168,67.5686005,
540346782,-0.6449016179,0.9284423007,64.61361116,
542180726,-0.6806630032,0.9246275934,61.27125054,
544014671,-0.7864759003,0.9134319641,56.94286684,
545848616,-1.127036287,0.8783107244,50.43735299,
547682560,-3.080470385,0.7014173121,41.12916785,
549516505,-4.44000714,0.5997905832,59.58799001,
551350450,-2.228078411,0.7737418356,74.0493153,
553184394,-1.198448345,0.8711191936,65.73204065,
555018339,-1.038998221,0.8872583373,60.74388861,
556852284,-0.8020500601,0.9117956102,56.37575051,
558686228,-0.7904224222,0.9130170313,52.0541885,
560520173,-0.734001039,0.9189670674,48.53351016,
562354118,-0.746993247,0.9175935194,44.27140407,
564188062,-0.8049568129,0.9114905268,38.96144063,
566022007,-1.216003985,0.8693602936,29.47283442,
567855951,-5.814577046,0.5120013991,41.31697679,
569689896,-1.405421818,0.8506069152,47.99993538,
571523841,-1.009368412,0.8902901724,36.39501031,
573357785,-2.415652034,0.7572118439,25.09574419,
575191730,-1.373207755,0.8537674874,23.32325662,
577025675,-4.274077117,0.6113587666,-3.289095094,
578859619,-7.283513344,0.4323389195,74.39248883,
580693564,-1.942087743,0.7996420297,53.68110619,
582527509,-1.253508281,0.865614626,42.78553848,
584361453,-1.067385388,0.8843633387,36.3225903,
586195398,-0.9844069443,0.8928523639,31.57140965,
588029343,-0.9419462719,0.8972277276,27.51975768,
589863287,-0.9214018807,0.8993524166,23.84384967,
591697232,-0.9039964009,0.9011564177,20.3503662,
593531177,-0.9052218807,0.9010292838,16.77105375,
595365121,-0.9126004961,0.9002641894,12.92516569,
597199066,-0.9540920096,0.8959739842,7.889867175,
599033011,-3.171940492,0.6940695241,-6.511942244,
600866955,-1.190232872,0.8719435238,10.22169485,
602700900,-1.071194694,0.8839755751,4.067385963,
604534844,-1.109016808,0.8801347321,-0.6232474874,
606368789,-1.176624662,0.8733106711,-5.202752743,
608202734,-1.295486156,0.8614413058,-11.46822643,
610036678,-1.859365059,0.8072940415,-23.79759037,
611870623,-11.56096968,0.2642113778,30.02147768,
613704568,-1.243811425,0.8665815307,8.28777891,
615538512,-0.9386538792,0.8975678869,-5.878852448,
617372457,-0.9617494122,0.8951844496,-12.84464932,
619206402,-1.003586356,0.8908830215,-18.30259189,
621040346,-1.023600651,0.8888325846,-23.24111799,
622874291,-1.121806366,0.8788397295,-28.61865522,
624708236,-1.180499286,0.8729211893,-34.0430325,
626542180,-1.324593126,0.8585593925,-40.1995204,
628376125,-1.610463287,0.8307624065,-48.07592141,
630210070,-5.050866684,0.5590577416,-53.76767723,
632044014,-3.307311617,0.6833361857,-60.92409889,
633877959,-1.844748288,0.8086537141,-65.2788434,
635711903,-2.548040538,0.7457580897,-84.7999277,
637545848,-4.717456467,0.5809345106,-121.0149816,
639379793,-13.45408167,0.2124691676,68.94574351,
641213737,-11.23351687,0.2743621241,-97.14888744,
643047682,-8.293923736,0.3848609196,74.97103047,
644881627,-2.880486938,0.7177540523,19.82142087,
646715571,-1.576884885,0.8339802304,-6.65877012,
648549516,-1.186698037,0.8722984448,-23.38511759,
650383461,-0.9929978182,0.8919697151,-34.98845431,
652217405,-0.9753800115,0.8937807556,-46.15044364,
654051350,-1.047688875,0.8863710363,-57.02206596,
655885295,-1.309724547,0.8600303403,-70.13773881,
657719239,-2.759226899,0.7278445846,-93.16988674,
659553184,-14.11037351,0.1970068489,-98.35802127,
661387129,-5.344130446,0.5404972364,-32.46744387,
663221073,-1.922410855,0.8014555805,-52.35622068,
665055018,-1.372130551,0.8538733762,-71.42043381,
666888962,-1.551142295,0.8364555849,-92.42850372,
668722907,-4.674099802,0.5838415647,-149.75246,
670556852,-3.30604878,0.6834355428,-26.16710781,
672390796,-2.270039518,0.770012941,-59.76835468,
674224741,-3.188113586,0.6927783717,-93.99609508,
676058686,-1.889322719,0.804514478,-64.25630533,
677892630,-1.176113783,0.8733620383,-83.18413916,
679726575,-1.122220016,0.8787978773,-94.72741759,
681560520,-1.498382988,0.8415517949,-107.4433749,
683394464,-1.913341798,0.8022928283,-111.6131247,
685228409,-1.629147039,0.8289773185,-117.5512391,
687062354,-1.583676186,0.8333284149,-130.459481,
688896298,-3.226040816,0.6897599264,-160.7139924,
690730243,-9.395432646,0.3390223795,-63.11640693,
692564188,-2.345112029,0.7633863648,-112.9034004,
694398132,-1.941747839,0.7996733226,-121.4765411,
696232077,-1.408338285,0.8503213543,-140.2333173,
698066022,-1.565065486,0.8351158486,-155.4996991,
699899966,-2.052705621,0.7895228778,-175.4114652,
701733911,-3.427679359,0.6739319283,-179.838394,
703567855,-4.780348184,0.5767433435,142.6848439,
705401800,-10.67927054,0.2924397964,59.08688026,
707235745,-5.704405215,0.5185369863,-78.21889493,
709069689,-3.034921349,0.7051052244,-135.8390895,
710903634,-2.417214576,0.757075638,-174.0370527,
712737579,-4.092975854,0.6242394443,124.7626911,
714571523,-4.97769846,0.5637870253,-48.35457545,
716405468,-1.915269334,0.8021148067,-137.3496144,
718239413,-6.698741294,0.4624480317,147.5096289,
720073357,-3.101718098,0.6997035786,171.0316588,
721907302,-3.289493128,0.6847394404,-142.6098808,
723741247,-1.887246651,0.804706793,171.3573274,
725575191,-5.895197934,0.5072710798,165.2754992,
727409136,-1.800753828,0.8127599755,150.4278589,
729243081,-1.588489884,0.8328667144,124.8915944,
731077025,-2.0084661,0.7935543835,97.74411828,
732910970,-2.343166646,0.76355736,57.97834625,
734744914,-3.54059103,0.6652278893,-12.14497027,
736578859,-3.670490342,0.6553532883,-114.5320791,
738412804,-2.442398112,0.7548837808,164.9252576,
740246748,-2.528659449,0.7474239802,103.636803,
742080693,-5.016903054,0.5612480528,13.91590502,
743914638,-6.886899786,0.4525379558,142.4761532,
745748582,-32.61149191,0.02341129322,-136.7548891,
747582527,-3.985321577,0.6320245108,107.5101104,
749416472,-2.728541847,0.7304204227,52.79046286,
751250416,-2.492879607,0.7505091988,8.308198079,
753084361,-2.350985623,0.7628703202,-35.1271301,
754918306,-2.208635256,0.7754757781,-80.62898369,
756752250,-2.359650371,0.7621096863,-134.3989028,
758586195,-6.834216466,0.4552911166,114.7835983,
760420140,-3.183859072,0.6931177909,-127.2222978,
762254084,-2.516593253,0.7484630023,155.5226279,
764088029,-5.725023755,0.5173075444,90.86166782,
765921973,-6.127864561,0.4938633204,34.78511616,
767755918,-4.248380559,0.613170104,-68.60435678,
769589863,-3.54694981,0.6647410665,-153.0132081,
771423807,-4.500242962,0.5956454819,141.5843875,
773257752,-6.281054699,0.4852295768,80.25109227,
775091697,-7.811955809,0.4068199195,-12.0888375,
776925641,-11.18905284,0.2757702151,119.9099604,
778759586,-8.612797694,0.3709882163,-48.45310146,
780593531,-5.776242458,0.5142660765,-116.0326717,
782427475,-3.596632921,0.660949615,-171.7976752,
784261420,-3.037201367,0.7049201608,134.5431544,
786095365,-3.749225992,0.6494395012,74.84893228,
787929309,-6.176817626,0.4910877701,29.6210438,
789763254,-9.31732308,0.342084854,60.58738044,
791597199,-3.889355219,0.639046174,-34.25825111,
793431143,-4.174580549,0.618402124,-113.5812543,
795265088,-9.048354322,0.352843632,37.28599456,
797099033,-5.250580616,0.5463500274,-89.50600318,
798932977,-10.60856161,0.2948301676,-101.7431114,
800766922,-3.523366866,0.6665483485,-118.1622175,
802600866,-5.44784186,0.5340819578,-167.9987285,
804434811,-2.410884985,0.7576275361,-162.9062774,
806268756,-6.468813782,0.4748531364,-169.011511,
808102700,-7.738127742,0.4102925327,154.7540427,
809936645,-2.133184772,0.7822413355,157.926268,
811770590,-3.197226786,0.6920518926,160.7620597,
813604534,-4.079391493,0.625216492,129.4371653,
815438479,-5.626943995,0.5231820078,141.0241566,
817272424,-2.702693814,0.7325972925,118.5545512,
819106368,-2.541352132,0.7463325678,98.31942682,
820940313,-3.923826428,0.6365150528,55.34786744,
822774258,-8.02496931,0.396964376,-15.98518204,
824608202,-6.685155396,0.4631719285,-156.4257877,
826442147,-3.718515845,0.6517397471,139.5475511,
828276092,-3.365926268,0.678740379,98.42000582,
830110036,-5.583361145,0.5258137549,39.39113769,
831943981,-6.214098177,0.488984498,-169.3699198,
833777925,-5.042354706,0.5596058743,94.18606891,
835611870,-5.422517264,0.5356414004,147.545745,
837445815,-3.741840549,0.6499919418,98.32094743,
839279759,-2.011714853,0.7932576287,84.60942582,
841113704,-3.019352067,0.7063702447,53.62364972,
842947649,-2.954333649,0.7116776342,52.12177765,
844781593,-3.234252667,0.6891081189,14.39095833,
846615538,-20.36243834,0.09591313426,-62.09982755,
848449483,-5.516831075,0.5298567194,40.04959928,
850283427,-2.848396103,0.7204107667,-8.375822058,
852117372,-3.5991695,0.6607566231,-75.83055198,
853951317,-7.87696797,0.4037863202,179.2186297,
855785261,-12.82704637,0.2283745379,-54.05072752,
857619206,-6.349374271,0.4814279347,163.4809923,
859453151,-4.37850422,0.6040526432,78.71732777,
861287095,-14.63939496,0.1853660741,-37.03415772,
863121040,-7.842782033,0.4053786745,52.52917842,
864954984,-8.537620139,0.3742131055,-41.98098496,
866788929,-8.107565854,0.3932074225,167.3076543,
868622874,-13.1931811,0.2189479811,-31.51580353,
870456818,-9.857215723,0.3214690848,-150.1806816,
872290763,-13.02520886,0.2232233168,152.215804,
874124708,-10.33409406,0.3042953368,160.5039043,
875958652,-8.690862084,0.3676689,118.5021472,
877792597,-3.627866393,0.6585771834,122.0974649,
879626542,-2.568213168,0.7440281061,69.80617369,
881460486,-5.251886424,0.5462678971,9.541806439,
883294431,-7.144327061,0.439322703,-22.21304529,
885128376,-7.903314819,0.4025633737,134.1740961,
886962320,-6.747807176,0.459843065,44.67677004,
888796265,-21.25459486,0.08655063474,67.94796567,
890630210,-5.583060547,0.5258319524,28.35622465,
892464154,-4.636547528,0.5863711893,-46.60258566,
894298099,-4.080567178,0.6251318711,-154.2599679,
896132044,-3.918972558,0.636870851,120.2895604,
897965988,-8.709188282,0.36689398,-25.77425169,
899799933,-4.192425289,0.6171329509,150.6910386,
901633877,-4.292392133,0.6100710172,85.90559868,
903467822,-6.155266046,0.4923077785,112.0005002,
905301767,-2.851637189,0.7201420001,102.4742719,
907135711,-1.838506659,0.8092350168,79.8478681,
908969656,-2.246850319,0.7720714337,59.49125412,
910803601,-3.199962177,0.6918339835,59.01553369,
912637545,-3.480398999,0.669853838,53.66443162,
914471490,-2.17905293,0.7781213892,44.7780518,
916305435,-1.920988187,0.8015868623,28.23821784,
918139379,-5.179282682,0.5508531864,20.6172724,
919973324,-3.201499992,0.6917115069,-1.873773105,
921807269,-11.47600601,0.2668085235,81.69534819,
923641213,-1.936417386,0.8001642257,17.59339718,
925475158,-4.838902851,0.5728683877,-30.44196002,
927309103,-4.716045745,0.581028871,-7.533942445,
929143047,-5.621446807,0.5235132278,34.8702233,
930976992,-2.022599852,0.7922641553,-10.33588275,
932810936,-4.810129357,0.5747692588,-84.60389148,
934644881,-9.113862093,0.3501925441,-166.8020413,
936478826,-2.831998198,0.7217720994,68.48024587,
938312770,-1.821042514,0.810863729,24.36733576,
940146715,-2.312041649,0.7662983979,-10.33761963,
941980660,-8.22981458,0.387712025,-57.55425574,
943814604,-6.090398421,0.4959981755,41.08010342,
945648549,-1.646913198,0.8272834573,-9.654050975,
947482494,-5.832755752,0.5109309514,-59.65483083,
949316438,-8.077674132,0.3945629422,-9.191175056,
951150383,-7.007401326,0.4463031311,-21.95611868,
952984328,-4.560542077,0.5915247166,-56.71090188,
954818272,-5.794919429,0.5131614558,-29.3300175,
956652217,-3.41271501,0.6750940021,-79.23383112,
958486162,-15.33308774,0.1711376693,-163.3020418,
960320106,-4.741747259,0.5793121499,-168.5999808,
962154051,-4.043367867,0.6278148826,115.548343,
963987995,-2.572399058,0.7436696316,64.17122858,
965821940,-2.59617054,0.7416371444,36.80928289,
967655885,-1.710678042,0.8212324429,11.06571119,
969489829,-1.924399147,0.8012721399,-14.71436775,
971323774,-8.843911706,0.3612471377,-73.79291035,
973157719,-7.107148864,0.4412071652,17.84218743,
974991663,-1.672788224,0.8248226698,1.390095525,
976825608,-1.334209108,0.8576094238,-19.35456531,
978659553,-3.285978037,0.6850166036,-21.18612272,
980493497,-1.37281335,0.8538062557,-38.42931358,
982327442,-1.552221818,0.8363516327,-45.12744233,
984161387,-2.366923237,0.7614718239,-70.54203183,
985995331,-1.880850642,0.8052995713,-46.52529496,
987829276,-1.08570259,0.8825003179,-72.21215414,
989663221,-1.231517749,0.8678089254,-92.02036256,
991497165,-1.43920555,0.8473049088,-114.49761,
993331110,-1.830438775,0.8099870234,-146.1878407,
995165055,-2.401010928,0.7584892913,169.6805404,
996998999,-3.315208216,0.6827152269,112.2271516,
998832944,-3.452483821,0.6720101133,69.19272414,
1000666888,-2.006095981,0.7937709503,41.9425359,
1002500833,-1.628289404,0.8290591748,13.2010277,
1004334778,-1.472913576,0.8440230772,-8.549715692,
1006168722,-1.516499012,0.8397984126,-27.58264786,
1008002667,-3.835532019,0.6430183979,-64.31914818,
1009836612,-2.940352138,0.7128241307,-60.21791488,
1011670556,-10.24770888,0.3073367935,-62.57615641,
1013504501,-2.638956735,0.7379928654,-58.33095343,
1015338446,-10.27304317,0.306441685,16.55955982,
1017172390,-5.650537753,0.5217628004,-45.15958805,
1019006335,-4.16751521,0.6189053537,5.121949525,
1020840280,-1.969020054,0.7971664222,-45.03573513,
1022674224,-5.869640698,0.5087658649,24.63433034,
1024508169,-2.847998521,0.7204437431,-45.43566404,
1026342114,-1.323765683,0.8586411853,-46.75081294,
1028176058,-1.182834727,0.8726865119,-59.5219853,
1030010003,-2.23489149,0.7731351623,-63.09106101,
1031843947,-1.646686141,0.8273050835,-71.85097517,
1033677892,-1.199859282,0.8709777004,-80.56921585,
1035511837,-1.494970257,0.8418825099,-91.03174507,
1037345781,-7.505458628,0.4214315725,-57.73307021,
1039179726,-1.214345549,0.8695263003,-85.9931686,
1041013671,-1.198757207,0.8710882179,-101.06184,
1042847615,-2.084581746,0.7866307381,-126.1949466,
1044681560,-3.774667563,0.6475400312,-116.3173233,
1046515505,-5.708072569,0.5183180959,-85.25906972,
1048349449,-2.675781736,0.7348706682,-68.56699003,
1050183394,-4.757370388,0.5782710898,-114.3683114,
1052017339,-1.839573054,0.8091356704,-98.92995167,
1053851283,-5.720799337,0.5175592003,-120.2982139,
1055685228,-2.545867383,0.745944697,-107.2876042,
1057519173,-3.405450646,0.6756588469,-115.9900397,
1059353117,-1.875357189,0.8058090499,-146.7464173,
1061187062,-3.133589327,0.6971408533,168.0939774,
1063021007,-4.97258545,0.5641190001,68.61566872,
1064854951,-3.269654034,0.686305214,-31.41228804,
1066688896,-5.699585042,0.5188248246,-87.33579438,
1068522840,-5.377318037,0.5384360111,-60.75405095,
1070356785,-2.728123566,0.7304555979,-83.07810563,
1072190730,-6.772203513,0.4585533012,-129.068725,
1074024674,-2.972112622,0.7102224054,-84.1921202,
1075858619,-6.943974477,0.4495740924,-117.3971349,
1077692564,-4.946822783,0.5657946816,-82.9518847,
1079526508,-2.97640659,0.7098713857,-99.37737326,
1081360453,-7.957503903,0.4000596999,-105.7664054,
1083194398,-6.250655468,0.4869307783,-99.21563447,
1085028342,-1.460805841,0.8452004274,-98.26185882,
1086862287,-1.067121884,0.884390168,-117.3126632,
1088696232,-1.635979241,0.8283255126,-138.7590536,
1090530176,-9.088907536,0.3512000938,-82.61335832,
1092364121,-4.62171873,0.5873731139,-141.5510591,
1094198066,-2.46795544,0.7526658784,-112.2661445,
1096032010,-4.18091421,0.6179513559,-129.2267167,
1097865955,-7.341906349,0.4294421639,-106.9590721,
1099699899,-2.711945433,0.7318173951,-168.5009513,
1101533844,-8.923359247,0.357957971,-18.68796022,
1103367789,-3.504992863,0.6679598475,-79.27462602,
1105201733,-2.201394979,0.7761224591,-116.1739123,
1107035678,-7.201127781,0.4364591584,-132.9443707,
1108869623,-2.575547469,0.7434001195,-110.0526799,
1110703567,-2.495714942,0.7502642501,-109.522606,
1112537512,-2.605245231,0.7408627143,-128.3004355,
1114371457,-1.307349679,0.8602655192,-130.1737898,
1116205401,-2.714585635,0.7315949824,-141.639017,
1118039346,-5.37728392,0.5384381259,-169.8718816,
1119873291,-1.522607678,0.8392080017,-153.5354299,
1121707235,-6.523037218,0.4718980026,170.8830895,
1123541180,-3.126094611,0.6977426485,-149.609785,
1125375125,-4.270080468,0.6116401366,-161.0797655,
1127209069,-5.16901782,0.5515045617,137.0799554,
1129043014,-4.91378885,0.5679505932,-48.08694949,
1130876958,-1.898363982,0.8036774835,-114.3698392,
1132710903,-1.586495202,0.833058001,-134.2340958,
1134544848,-4.296317473,0.6097953753,-175.9758609,
1136378792,-2.438129192,0.7552548805,-145.5179225,
1138212737,-6.326805605,0.482680462,-132.5914927,
1140046682,-14.78422995,0.1823007697,14.21541995,
1141880626,-1.950879672,0.798833035,-123.8144843,
1143714571,-5.41324837,0.5362132996,-157.2346894,
1145548516,-4.959499285,0.5649695427,-102.3393651,
1147382460,-7.053301105,0.4439509041,-154.4820633,
1149216405,-1.673195254,0.8247840187,-127.575725,
1151050350,-1.656110424,0.8264079355,-152.1692687,
1152884294,-7.047809522,0.4442316772,-143.800324,
1154718239,-1.629627443,0.8289314702,-135.7795857,
1156552184,-3.668072359,0.6555357513,-137.2424173,
1158386128,-1.29941644,0.8610515999,-139.6773558,
1160220073,-0.9570105422,0.8956729799,-149.3763973,
1162054018,-1.190111422,0.8719557159,-156.7586492,
1163887962,-1.106115069,0.8804288124,-162.9429182,
1165721907,-3.41980713,0.6745430057,-148.9118493,
1167555851,-2.083382948,0.7867393137,-158.0017348,
1169389796,-1.086758956,0.8823929959,-168.7541296,
1171223741,-1.465808186,0.8447138028,176.0900521,
1173057685,-4.695440767,0.5824088446,-136.5820371,
1174891630,-1.175841234,0.8733894434,-158.5898086,
1176725575,-0.8976463367,0.9018154744,-169.1408413,
1178559519,-1.028306921,0.8883511195,-174.1202355,
1180393464,-1.585898494,0.8331152329,174.794944,
1182227409,-1.656502896,0.8263705951,-175.4739444,
1184061353,-1.58102061,0.8335832311,176.6541816,
1185895298,-1.480745408,0.8432623874,170.7643255,
1187729243,-1.8924181,0.8042278252,157.2994213,
1189563187,-8.80482883,0.3628762614,177.8802408,
1191397132,-1.572493996,0.8344019304,-173.1189102,
1193231077,-1.06344927,0.8847641897,170.6552573,
1195065021,-2.31692714,0.7658675046,152.3781877,
1196898966,-2.309568938,0.7665165798,161.3686661,
1198732910,-11.39584299,0.2692823265,138.8949441,
1200566855,-2.101192657,0.7851278216,171.1781415,
1202400800,-4.945027526,0.5659116359,162.290817,
1204234744,-6.262429158,0.4862711926,-178.1031496,
1206068689,-5.059594768,0.5584962503,-173.8176886,
1207902634,-1.302634504,0.8607326451,173.2844661,
1209736578,-1.594354404,0.8323045711,162.3876105,
1211570523,-2.616816783,0.7398763763,-176.0313485,
1213404468,-1.509809825,0.8404454082,163.1877355,
1215238412,-2.109554666,0.7843723334,159.3472507,
1217072357,-3.133024264,0.6971862074,-169.7136552,
1218906302,-0.9512925195,0.896262806,169.8973665,
