Frequency,S11_Magnitude,S11_Magnitude (linear),S11_Phase,
500000000,-0.5669596454,0.936811078,103.2485263,
501833944,-0.5797673598,0.9354307281,100.6809477,
503667889,-0.7268978967,0.9197188872,96.10091447,
505501833,-0.6185221034,0.9312663161,98.70456,
507335778,-0.6036475616,0.9328624713,94.23970639,
509169723,-0.6810040666,0.9245912874,88.74169691,
511003667,-2.248871743,0.7718917743,67.95530998,
512837612,-0.9564128735,0.8957346125,103.4283703,
514671557,-0.7082286242,0.921697838,91.0864633,
516505501,-8.178022447,0.3900307765,96.12296779,
518339446,-0.7933153101,0.9127129961,94.95843884,
520173391,-1.348438831,0.856205589,90.01015088,
522007335,-0.6277791332,0.9302743432,88.92030817,
523841280,-0.5886721771,0.9344722113,85.39930842,
525675225,-0.5854555851,0.9348183327,82.46921758,
527509169,-0.5881917516,0.9345238993,79.50597912,
529343114,-0.6174856366,0.9313774486,75.75700323,
531177059,-1.131460194,0.8778634961,65.08765384,
533011003,-0.8260056625,0.9092843511,82.02967353,
534844948,-0.6381527564,0.9291639727,75.37804575,
536678892,-0.6161496487,0.931520716,71.89388218,
538512837,-0.617491194,0.9313768527,68.82607536,
540346782,-0.6424588636,0.9287034456,65.53171641,
542180726,-0.8622299925,0.9055000953,60.61948685,
544014671,-0.9900520628,0.8922722713,65.73864544,
545848616,-0.6807190755,0.9246216245,59.74846559,
547682560,-0.6998176815,0.9225907923,54.75281614,
549516505,-0.8836110886,0.9032738668,47.35840168,
551350450,-3.615777087,0.6594944509,25.98476652,
553184394,-1.95117085,0.7988062561,72.32297315,
555018339,-1.141306863,0.8768688791,56.29087022,
556852284,-0.7962271226,0.9124070742,54.57687958,
558686228,-0.7238923528,0.9200371889,48.20720475,
560520173,-0.8775485369,0.9039045513,44.89291702,
562354118,-0.7892573778,0.9131395031,38.27828044,
564188062,-0.8603997125,0.9056909213,30.10828933,
566022007,-1.173113999,0.8736637172,16.15334988,
567855951,-3.166619364,0.6944948535,-21.86751832,
569689896,-7.053530008,0.4439392046,146.0827687,
571523841,-1.966621433,0.7973865913,79.51139564,
573357785,-1.508007671,0.8406198024,62.83520193,
575191730,-1.036184146,0.8875458399,53.15574545,
577025675,-0.9321396895,0.8982412918,46.70376862,
578859619,-0.8765973125,0.9040035467,41.56265195,
580693564,-0.8425402871,0.9075550666,36.88058256,
582527509,-0.846161704,0.9071767576,31.56349354,
584361453,-0.891338111,0.902470666,25.97106768,
586195398,-9.349129835,0.3408344684,23.21492604,
588029343,-1.136679192,0.8773361821,33.48618205,
589863287,-0.9719973361,0.8941289017,26.7288445,
591697232,-1.00137974,0.8911093756,21.3753619,
593531177,-2.469419091,0.752539058,28.92223656,
595365121,-0.861021507,0.9056260882,18.79384161,
597199066,-1.29584328,0.861405888,11.82398497,
599033011,-0.9725264524,0.8940744359,12.80428358,
600866955,-0.9397536074,0.8974542522,9.060376273,
602700900,-0.9474861885,0.8966556524,5.540853052,
604534844,-0.9725885833,0.8940680406,1.88924934,
606368789,-1.02036182,0.889164078,-2.233554077,
608202734,-1.171867885,0.8737890656,-8.063950926,
610036678,-4.301439763,0.6094358695,4.621614883,
611870623,-1.448574099,0.8463915035,-13.90006136,
613704568,-1.024447595,0.8887459205,-1.9066017,
615538512,-1.009146688,0.8903128991,-11.85373101,
617372457,-1.082616869,0.8828138877,-17.744577,
619206402,-1.187495966,0.8722183148,-23.84394143,
621040346,-1.448514711,0.8463972905,-33.04075432,
622874291,-5.266111857,0.5453739717,10.38022577,
624708236,-1.627081864,0.8291744413,-30.56091397,
626542180,-2.3830982,0.7600551219,-43.6201128,
628376125,-6.564337866,0.4696594949,-55.91203753,
630210070,-2.843421735,0.7208234608,-20.82703938,
632044014,-4.748858752,0.5788380375,-76.57997132,
633877959,-2.34607261,0.7633019459,6.771356777,
635711903,-1.082915447,0.8827835415,-23.7767675,
637545848,-4.205059186,0.6162359643,-42.7211232,
639379793,-1.02686425,0.8884986811,-39.47557456,
641213737,-1.273301769,0.863644301,-51.64874507,
643047682,-1.68615622,0.8235542049,-47.6925853,
644881627,-1.329571101,0.858067484,-63.28100961,
646715571,-1.75440048,0.8171089661,-77.00593505,
648549516,-2.883658415,0.7174920267,-96.92636399,
650383461,-7.256351699,0.4336930026,-137.6536907,
652217405,-10.5036703,0.2984121386,40.35644532,
654051350,-2.945141622,0.7124311808,-28.26816585,
655885295,-2.398498688,0.7587087026,-80.55415894,
657719239,-9.311817789,0.342301743,53.58297404,
659553184,-1.856354851,0.8075738682,-14.23260712,
661387129,-1.204408878,0.870521609,-38.54576416,
663221073,-1.030479469,0.8881289495,-51.78565766,
665055018,-0.9665850954,0.8946862135,-61.68599999,
666888962,-0.9485902979,0.896541681,-70.40141455,
668722907,-1.006635401,0.8905703459,-79.48447942,
670556852,-1.40609753,0.8505407455,-81.34468587,
672390796,-1.072649568,0.8838275228,-92.82726007,
674224741,-1.413915686,0.8497755195,-107.1638191,
676058686,-1.790458906,0.8137238677,-103.4636907,
677892630,-1.546272954,0.8369246364,-125.4496737,
679726575,-6.183923615,0.4906861719,163.8247713,
681560520,-2.903044177,0.7158924647,-100.5125984,
683394464,-10.76502168,0.2895668995,-117.6922609,
685228409,-9.182369782,0.3474413557,-151.4996665,
687062354,-4.085604149,0.6247694605,-77.71713787,
688896298,-2.162010693,0.7796496089,-118.4232642,
690730243,-3.87106071,0.6403935727,-168.484673,
692564188,-7.063526009,0.443428599,0.0137896213,
694398132,-1.707199913,0.8215613584,-77.44433621,
696232077,-1.166943114,0.8742846316,-103.682058,
698066022,-1.14951721,0.8760404094,-120.3848438,
699899966,-1.24031566,0.8669303695,-134.5517923,
701733911,-2.48612017,0.7510934791,-133.8695591,
703567855,-3.506226202,0.6678650083,-137.7090949,
705401800,-1.313655983,0.8596411586,-154.7526723,
707235745,-1.559267518,0.8356734877,-172.0437056,
709069689,-3.641426835,0.6575498125,155.0234513,
710903634,-11.00198319,0.2817739501,138.4440765,
712737579,-2.008109858,0.793586931,-149.2057118,
714571523,-1.449818653,0.8462702373,-178.4357147,
716405468,-2.070241557,0.7879305186,156.4591959,
718239413,-4.925440095,0.5671892555,173.0469753,
720073357,-2.531891498,0.7471459129,131.194964,
721907302,-7.719765435,0.4111608245,42.29637787,
723741247,-3.119310194,0.6982878577,-168.8221453,
725575191,-2.108824766,0.7844382492,134.1917506,
727409136,-3.297058327,0.6841433086,82.29422419,
729243081,-3.830165345,0.6434158168,-1.401807614,
731077025,-2.774271422,0.7265850018,-113.5492558,
732910970,-1.796511447,0.8131570425,-176.1549042,
734744914,-1.645801961,0.8273893034,143.9506515,
736578859,-1.891256971,0.8043353414,107.334387,
738412804,-2.55841105,0.7448682236,58.98706647,
740246748,-3.762751967,0.648428958,-25.97021616,
742080693,-2.93499048,0.7132642812,-135.6871728,
743914638,-1.97303531,0.7967979985,156.4347996,
745748582,-1.78297205,0.8144255644,112.9526114,
747582527,-1.868395694,0.806455142,76.11108392,
749416472,-2.575886183,0.7433711304,41.25548706,
751250416,-2.254764602,0.7713682693,-1.644645755,
753084361,-2.408526865,0.7578332512,-52.87026079,
754918306,-3.061250685,0.7029710915,-126.7825979,
756752250,-6.254232984,0.4867302641,-47.29887,
758586195,-5.04041302,0.5597309853,-139.3101375,
760420140,-1.861325161,0.807111884,154.2843312,
762254084,-1.885170029,0.8048992052,100.2678106,
764088029,-2.388109761,0.7596167139,42.61401845,
765921973,-4.786916838,0.5763073495,-47.39530219,
767755918,-4.515037533,0.5946317897,18.1025013,
769589863,-3.405510816,0.6756541664,-77.25238262,
771423807,-4.273989983,0.6113648996,-167.9578013,
773257752,-5.43427474,0.5349168309,-174.0911519,
775091697,-7.79698686,0.4075216228,35.68023206,
776925641,-4.479413382,0.5970756099,21.51836757,
778759586,-2.862388946,0.7192511297,-55.93439372,
780593531,-2.293928544,0.7678980643,-104.2299203,
782427475,-2.007417881,0.793650156,-141.0403804,
784261420,-1.957886027,0.7981889269,-174.4333271,
786095365,-4.253299657,0.6128229445,165.0353492,
787929309,-2.990337372,0.7087337777,126.0630177,
789763254,-3.326496074,0.6818285719,125.3406394,
791597199,-3.750914494,0.649313265,63.51956777,
793431143,-8.523193295,0.3748351719,-18.87707724,
795265088,-10.32507731,0.3046113874,122.6898609,
797099033,-5.489880682,0.5315033007,-5.120244781,
798932977,-26.16013518,0.04920318782,-110.7445812,
800766922,-4.913955277,0.567939711,-116.3484821,
802600866,-5.884159533,0.5079161514,-143.4105022,
804434811,-4.609821289,0.5881782157,156.5214871,
806268756,-9.604179557,0.3309718231,-179.9206975,
808102700,-10.5174538,0.2979389686,55.12799279,
809936645,-5.449156757,0.5340011129,-143.5596014,
811770590,-4.016256811,0.6297775273,166.8411372,
813604534,-3.966704959,0.6333805926,96.05647696,
815438479,-13.02003599,0.2233562969,-105.9509433,
817272424,-5.498281849,0.5309894686,124.0624377,
819106368,-7.183405592,0.4373505937,32.18262113,
820940313,-6.461576782,0.4752489444,-76.17767484,
822774258,-4.793782488,0.5758519948,-102.9278889,
824608202,-2.572588109,0.7436534457,-154.3126551,
826442147,-1.851294994,0.8080444474,173.2929771,
828276092,-1.661090873,0.8259342128,147.5859862,
830110036,-2.947138221,0.7122674353,133.1977201,
831943981,-1.389442182,0.8521732372,111.7147561,
833777925,-1.510106063,0.8404167447,83.56101487,
835611870,-2.972375239,0.7102009322,33.39775994,
837445815,-9.718309672,0.3266513944,-141.5464192,
839279759,-8.807832389,0.3627508014,149.4308839,
841113704,-3.238402643,0.6887789529,111.0832165,
842947649,-4.052218143,0.6271755118,66.70154084,
844781593,-6.945053733,0.4495182345,83.74065986,
846615538,-2.305490603,0.7668765712,90.25864049,
848449483,-3.14420699,0.6962891864,36.98986301,
850283427,-6.211310569,0.4891414555,120.9538567,
852117372,-2.078812868,0.7871533654,52.39965522,
853951317,-2.648074655,0.7372185717,6.637452403,
855785261,-5.493618594,0.5312746212,44.35756214,
857619206,-3.557873333,0.6639056022,-61.4134947,
859453151,-11.02336623,0.2810811286,163.5469168,
861287095,-6.091912952,0.4959116974,131.6204818,
863121040,-2.956614478,0.7114907792,43.2403984,
864954984,-3.358884541,0.6792908629,-31.97434295,
866788929,-3.516957103,0.6670404102,-119.4275313,
868622874,-5.198428764,0.5496402921,131.4608876,
870456818,-8.496822096,0.375974937,174.1612119,
872290763,-3.84790973,0.6421027257,113.408042,
874124708,-6.805559885,0.4567956986,87.8281815,
875958652,-3.896131833,0.6385477932,87.26463972,
877792597,-2.679530924,0.7345535362,57.14703612,
879626542,-2.037975685,0.7908629234,22.42308887,
881460486,-4.684438824,0.5831470176,-22.45572091,
883294431,-3.652440672,0.656716558,-24.16961967,
885128376,-4.740691519,0.5793825676,-61.06057434,
886962320,-5.731399189,0.5169279806,-121.4588454,
888796265,-6.606500134,0.46738524,175.3291072,
890630210,-4.53877997,0.5930086134,132.6683563,
892464154,-5.30093205,0.5431920405,54.20810144,
894298099,-10.53175549,0.2974488029,-112.9918091,
896132044,-5.549829863,0.5278475461,131.4999071,
897965988,-7.281527853,0.4324377583,57.24384614,
899799933,-7.190370297,0.4370000485,144.3990831,
901633877,-5.710939897,0.5181470205,43.26864287,
903467822,-14.92142711,0.1794438773,-151.399854,
905301767,-4.744844964,0.5791055829,101.5647344,
907135711,-3.715268987,0.6519834184,112.7602571,
908969656,-2.693659608,0.7333596644,82.07476526,
910803601,-3.370965627,0.6783467032,63.45792689,
912637545,-3.647576242,0.6570844473,67.10133177,
914471490,-1.693368342,0.8228706702,56.0232577,
916305435,-1.282933156,0.8626871759,40.17381415,
918139379,-2.376173888,0.7606612725,19.87308988,
919973324,-1.584056085,0.8332919681,23.79768892,
921807269,-1.34616878,0.856429387,2.652535563,
923641213,-5.13068569,0.5539438122,-24.15234626,
925475158,-2.191288345,0.7770260569,-43.88306989,
927309103,-6.143685347,0.492964599,-99.92191509,
929143047,-3.516265306,0.6670935395,113.9714498,
930976992,-1.92765573,0.8009717769,50.57309582,
932810936,-2.039046315,0.7907654469,12.37492423,
934644881,-3.237098438,0.6888823823,-11.23099274,
936478826,-4.303477076,0.6092929404,-38.55506527,
938312770,-4.300251142,0.6095192735,61.63586618,
940146715,-2.952816348,0.7118019651,3.914339895,
941980660,-2.761037154,0.7276929079,-11.313841,
943814604,-8.026600466,0.3968898356,-24.50053618,
945648549,-2.902983495,0.7158974661,-12.19316186,
947482494,-3.035059127,0.7050940399,-5.746566206,
949316438,-3.061062568,0.7029863165,-57.23202474,
951150383,-4.01062165,0.6301862419,-91.02366919,
952984328,-6.624954883,0.4663932495,118.4339078,
954818272,-3.023877387,0.706002324,18.24632947,
956652217,-2.709063367,0.7320602598,-39.27045467,
958486162,-12.19419641,0.245634961,158.323497,
960320106,-4.406899755,0.6020811247,-41.72311046,
962154051,-7.316944399,0.4306780917,160.0275432,
963987995,-3.136022253,0.6969456108,43.20554185,
965821940,-2.952012932,0.7118678074,1.174332924,
967655885,-2.484709238,0.7512154963,0.7746373408,
969489829,-3.065476472,0.702629171,-53.59183308,
971323774,-5.561328738,0.5271492137,-37.54489322,
973157719,-6.778695611,0.4582106926,178.6327075,
974991663,-3.28488061,0.6851031581,31.46608523,
976825608,-18.19208631,0.1231390176,74.46884169,
978659553,-1.970020076,0.7970746483,0.9103204872,
980493497,-1.48307911,0.8430358522,-18.13801662,
982327442,-1.354331791,0.8556248916,-37.39896496,
984161387,-1.639286897,0.8280101398,-58.7867397,
985995331,-9.273185795,0.3438275798,-79.8788692,
987829276,-2.370993877,0.7611150439,-95.05847979,
989663221,-5.325916399,0.5416318319,160.3793709,
991497165,-3.003497673,0.707660763,24.01812796,
993331110,-1.695011582,0.8227150101,-28.9761139,
995165055,-1.624904533,0.8293823203,-66.40232474,
996998999,-3.245504296,0.6882160319,-126.1908533,
998832944,-6.739722881,0.4602712581,34.47645904,
1000666888,-4.8732011,0.5706107444,-93.03382164,
1002500833,-10.50041041,0.2985241562,3.798445365,
1004334778,-3.799555561,0.6456872666,-8.35563382,
1006168722,-4.985871109,0.5632568013,57.77862633,
1008002667,-2.788137982,0.725425973,-12.73807496,
1009836612,-10.01835534,0.3155602076,-6.257552614,
1011670556,-1.677058547,0.8244172544,-35.65738176,
1013504501,-2.130166932,0.782513166,-68.43032298,
1015338446,-15.12111659,0.1753655051,-139.187571,
1017172390,-3.71068072,0.6523279156,13.16259238,
1019006335,-1.885377149,0.8048800122,-25.12785526,
1020840280,-1.131602593,0.8778491043,-44.9351362,
1022674224,-1.8516374,0.8080125942,-52.48522943,
1024508169,-1.040845809,0.8870696273,-63.65185413,
1026342114,-1.003306385,0.8909117376,-74.39354082,
1028176058,-1.08267188,0.8828082966,-87.30404877,
1030010003,-2.692915672,0.7334224785,-108.0023593,
1031843947,-6.818065968,0.4561384701,-149.6076594,
1033677892,-3.912909601,0.6373155572,-62.39735935,
1035511837,-2.514626952,0.7486324576,-110.8397444,
1037345781,-11.29485111,0.272431577,140.2299305,
1039179726,-3.266724994,0.6865366876,-57.76215751,
1041013671,-12.86038324,0.2274997051,15.40826843,
1042847615,-1.688351947,0.8233460431,-56.13667678,
1044681560,-1.211171515,0.8698441044,-77.56426043,
1046515505,-1.123556675,0.8786626507,-92.81368726,
1048349449,-1.380477038,0.8530532621,-107.6844955,
1050183394,-1.738769999,0.8185806984,-133.887151,
1052017339,-10.42452224,0.3011437735,-134.1592624,
1053851283,-6.258877952,0.4864700441,16.96420025,
1055685228,-12.48652778,0.237505467,-14.53728664,
1057519173,-3.372000302,0.6782659024,-66.85981367,
1059353117,-2.098298399,0.7853894805,-92.40605199,
1061187062,-3.360185526,0.6791891254,-116.4206769,
1063021007,-13.67132906,0.2072208959,-151.4278331,
1064854951,-3.561374413,0.6636380513,-83.38709317,
1066688896,-2.35000858,0.7629561375,-117.3168798,
1068522840,-5.283986633,0.5442527954,-170.7270031,
1070356785,-7.432090254,0.425006417,44.86835286,
1072190730,-3.016204355,0.7066262752,-50.250853,
1074024674,-1.778559464,0.8148394121,-79.21260211,
1075858619,-2.095582962,0.7856350523,-97.75210727,
1077692564,-3.378755252,0.6777386253,-120.1626119,
1079526508,-2.294267001,0.7678681427,-98.05622379,
1081360453,-2.922476826,0.7142926129,-137.5362759,
1083194398,-3.666351317,0.6556656535,-66.34209373,
1085028342,-2.491632428,0.7506169697,-109.178265,
1086862287,-3.561226427,0.6636493581,-99.69441096,
1088696232,-1.608462006,0.8309538411,-115.4800733,
1090530176,-1.669250198,0.8251587135,-130.245962,
1092364121,-4.576365769,0.5904480757,-137.3744191,
1094198066,-5.02541585,0.5606982589,-117.5158038,
1096032010,-2.305577951,0.7668688593,-143.0037301,
1097865955,-14.05656689,0.1982310381,156.4732915,
1099699899,-10.73460412,0.2905827263,153.8341137,
1101533844,-3.291441478,0.6845858623,-102.3180283,
1103367789,-1.812674132,0.8116453285,-122.19194,
1105201733,-4.231369649,0.6143721458,-156.8004138,
1107035678,-11.18473039,0.2759074839,-39.54531296,
1108869623,-2.079641174,0.7870783043,-102.869123,
1110703567,-2.907981504,0.715485645,-135.6138394,
1112537512,-1.613060631,0.8305140204,-120.386726,
1114371457,-1.53066412,0.8384299702,-131.7374238,
1116205401,-2.000657247,0.7942681315,-154.8109164,
1118039346,-1.564128761,0.8352059161,-161.1898438,
1119873291,-6.281157449,0.4852238368,122.656087,
1121707235,-2.184481074,0.7776352634,-120.1167539,
1123541180,-6.55662702,0.4700766174,-157.4337091,
1125375125,-3.264928439,0.6866787028,-140.0329397,
1127209069,-5.048320258,0.5592216636,-137.9720679,
1129043014,-6.733058726,0.4606245317,-131.1465566,
1130876958,-1.795104749,0.8132887457,-110.524125,
1132710903,-1.501327814,0.8412665272,-134.3760516,
1134544848,-1.077098693,0.8833749208,-147.4990129,
1136378792,-1.749809012,0.8175410141,-158.3590901,
1138212737,-3.391112757,0.6767750851,-137.5779371,
1140046682,-1.598039912,0.831951491,-174.0013637,
1141880626,-8.179483214,0.3899651878,100.9953587,
1143714571,-2.484387198,0.751243349,-144.1122929,
1145548516,-4.704941996,0.5817721137,160.3789552,
1147382460,-2.603516041,0.7410102202,-122.0918788,
1149216405,-2.188205913,0.7773018554,-174.5669938,
1151050350,-10.5743834,0.295992584,26.79281668,
1152884294,-2.336915969,0.7641070409,-119.2665454,
1154718239,-8.719724209,0.3664492098,-118.8443279,
1156552184,-2.558451356,0.7448647672,-114.3888647,
1158386128,-1.177244464,0.8732483562,-138.9123475,
1160220073,-1.218286237,0.8691318958,-154.4112492,
1162054018,-3.673513641,0.6551252191,178.630136,
1163887962,-1.960134827,0.7979823005,-144.9846598,
1165721907,-2.144428897,0.7812293576,-135.5808547,
1167555851,-1.24893822,0.866070187,-160.556717,
1169389796,-2.011115969,0.7933123249,-159.4062986,
1171223741,-1.173992247,0.8735753837,-158.4937712,
1173057685,-1.499521678,0.8414414775,-175.7747404,
1174891630,-2.502797044,0.7496527661,-151.2321579,
1176725575,-2.275097165,0.769564706,-175.2586119,
1178559519,-1.07767837,0.8833159682,-170.1383736,
1180393464,-4.619762928,0.5875053876,-156.3818632,
1182227409,-1.63797376,0.8281353282,-164.2132427,
1184061353,-0.9500720489,0.8963887504,-175.3568331,
1185895298,-1.199957499,0.8709678516,177.2340071,
1187729243,-3.05956897,0.7031072101,-170.8934622,
1189563187,-1.539887225,0.8375401565,176.9769591,
1191397132,-1.051909318,0.8859404563,174.993737,
1193231077,-1.014807439,0.8897328551,167.9105119,
1195065021,-1.709832607,0.8213123808,155.0303101,
1196898966,-3.298321987,0.6840437839,-172.6160044,
1198732910,-1.827985682,0.8102158145,177.1930309,
1200566855,-1.570790132,0.8345656266,160.6246716,
1202400800,-2.355302732,0.7624912484,177.8298795,
1204234744,-1.395536663,0.851575517,168.1241495,
1206068689,-1.226987183,0.8682616932,151.2516782,
1207902634,-6.059194977,0.4977832183,111.614975,
1209736578,-3.675658424,0.6549634708,-172.8773643,
1211570523,-5.220834541,0.548224289,141.9184359,
1213404468,-2.393667987,0.7591307796,-165.7060998,
1215238412,-2.611296102,0.7403467852,176.7077881,
1217072357,-1.228890175,0.8680714866,167.3936283,
1218906302,-4.112514865,0.6228367885,144.3355251,
1220740246,-1.000531006,0.8911964537,170.5872706,
