Frequency,S11_Magnitude,S11_Magnitude (linear),S11_Phase,
500000000,-0.6192962655,0.9311833173,103.6164258,
501833944,-1.0989698,0.881153377,100.6969018,
503667889,-1.248014375,0.8661623085,103.127757,
505501833,-0.9096261081,0.9005725279,102.1290014,
507335778,-0.7836868154,0.913725319,99.87636973,
509169723,-0.7386349073,0.9184769349,97.59025602,
511003667,-0.7310136384,0.9192831887,95.28459084,
512837612,-0.7510754753,0.9171623665,92.83504942,
514671557,-0.8244613705,0.90944603,90.04202038,
516505501,-1.120160871,0.8790062367,86.22025681,
518339446,-2.614475106,0.7400758705,88.59340795,
520173391,-0.9376160363,0.8976751402,93.79057974,
522007335,-0.6834534647,0.9243305918,88.93652996,
523841280,-0.6329756021,0.9297179585,85.90525974,
525675225,-0.6194890877,0.9311626457,83.36319348,
527509169,-0.6238333701,0.9306970375,81.04554452,
529343114,-0.6350717972,0.9294936136,78.91751079,
531177059,-0.6170302402,0.9314262815,76.71781652,
533011003,-0.6054229528,0.9326718142,74.26628322,
534844948,-0.6257493204,0.9304917652,71.40336108,
536678892,-1.050828814,0.886050672,68.08960267,
538512837,-0.8877430933,0.9028442684,69.93651623,
540346782,-0.7153458335,0.9209429091,66.92210567,
542180726,-0.6770626497,0.9250109366,63.95531501,
544014671,-0.6739569431,0.9253417405,60.7688737,
545848616,-0.7000699593,0.9225639965,56.91345768,
547682560,-0.8091750834,0.9110479722,51.26571501,
549516505,-1.739790906,0.8184844912,37.39631422,
551350450,-3.081443621,0.7013387241,78.80274949,
553184394,-1.046112177,0.8865319485,60.17733938,
555018339,-1.05425739,0.8857009908,51.63911277,
556852284,-2.312589168,0.7662500954,42.67706272,
558686228,-1.797598164,0.8130553125,60.48243134,
560520173,-0.8056921749,0.9114133618,49.78284195,
562354118,-0.7403610889,0.9182944205,42.62763712,
564188062,-0.8617468229,0.9055504669,33.63293331,
566022007,-1.867695916,0.8065201165,16.90964043,
567855951,-14.11954432,0.1967989532,21.09213447,
569689896,-3.37261179,0.6782181541,68.77702179,
571523841,-1.597218374,0.8320301832,54.22541289,
573357785,-1.983358232,0.7958515902,40.89691181,
575191730,-1.700478834,0.8221973228,42.15134686,
577025675,-1.604470861,0.8313357501,30.62700553,
578859619,-2.279822471,0.7691461605,47.72939952,
580693564,-1.606318561,0.8311589236,40.48668928,
582527509,-1.364343536,0.8546392282,36.5113648,
584361453,-1.223712796,0.8685890702,32.9220893,
586195398,-1.165766398,0.8744030828,29.80196779,
588029343,-1.091901396,0.8818707339,26.48110369,
589863287,-1.049376488,0.8861988367,23.18715263,
591697232,-1.009300843,0.8902970982,19.39242276,
593531177,-1.249825921,0.8659816789,11.79617793,
595365121,-1.682298634,0.8239200439,18.00500401,
597199066,-1.385373811,0.8525724788,14.05492228,
599033011,-1.385377283,0.852572138,10.57491487,
600866955,-1.516439428,0.8398041735,7.254360516,
602700900,-1.863248205,0.8069332104,4.807889405,
604534844,-1.811726313,0.8117339015,4.720433466,
606368789,-2.51639434,0.7484801428,-1.313289268,
608202734,-0.9276871354,0.8987018656,8.258760127,
610036678,-0.8563855958,0.9061095761,0.1761505105,
611870623,-0.8828171797,0.9033564318,-4.33704749,
613704568,-0.9319293428,0.8982630448,-8.126797542,
615538512,-0.9276937947,0.8987011766,-11.51088867,
617372457,-0.9413940575,0.8972847716,-15.18801782,
619206402,-0.9660242873,0.8947439812,-18.89119613,
621040346,-0.9920732452,0.8920646662,-22.68025303,
622874291,-1.028579679,0.8883232234,-26.64942963,
624708236,-1.076524019,0.8834333683,-30.87915699,
626542180,-1.143418968,0.8766556812,-35.47094126,
628376125,-1.242805516,0.866681895,-40.63117719,
630210070,-1.424512093,0.8487394625,-46.70348717,
632044014,-1.803629229,0.8124909618,-53.49436094,
633877959,-2.136943229,0.7819029264,-61.63075013,
635711903,-3.74526559,0.6497356859,-78.59077826,
637545848,-11.05258838,0.2801370695,-87.36811992,
639379793,-7.127771224,0.4401608775,-1.703130511,
641213737,-1.658227298,0.8262065528,-32.7912627,
643047682,-1.644231432,0.8275389203,-52.78394647,
644881627,-2.029497231,0.7916352759,-66.52731213,
646715571,-2.689490773,0.7337117285,-81.27436768,
648549516,-4.030197561,0.6287675526,-103.1912141,
650383461,-8.648341973,0.3694731654,-158.2311799,
652217405,-7.424904164,0.4253581827,41.85103711,
654051350,-4.359435451,0.6053802208,-16.07867577,
655885295,-3.863862523,0.6409245009,-35.78408734,
657719239,-3.768621321,0.6479909403,-42.9104431,
659553184,-2.525256621,0.7477168522,-41.91262081,
661387129,-1.490382593,0.8423272881,-59.15688825,
663221073,-1.356661196,0.8553954586,-75.09990285,
665055018,-2.870847831,0.7185510171,-99.66175662,
666888962,-14.17953244,0.1954444661,-50.3669594,
668722907,-2.876468071,0.7180862261,-54.95449459,
670556852,-1.256043291,0.86536203,-77.85167483,
672390796,-4.26252159,0.6121726468,-112.1434911,
674224741,-2.186798206,0.7774278416,-85.96247564,
676058686,-1.927005309,0.8010317578,-100.7717607,
677892630,-2.227738138,0.7737721478,-126.057007,
679726575,-6.129117085,0.4937921094,-178.2407813,
681560520,-7.893887134,0.4030005541,-11.21515908,
683394464,-2.555701606,0.7451006113,-68.74760372,
685228409,-3.342503899,0.6805731402,-97.23693337,
687062354,-2.548045876,0.7457576314,-95.85555943,
688896298,-1.969020227,0.7971664063,-110.8074459,
690730243,-2.254926573,0.7713538852,-126.0501292,
692564188,-3.551954373,0.6643581718,-130.2307109,
694398132,-3.993286864,0.6314451862,-151.0331414,
696232077,-6.039152502,0.4989331669,-144.7777538,
698066022,-5.371747497,0.5387814381,-156.0432529,
699899966,-10.08930784,0.3129929878,141.4889644,
701733911,-9.701023956,0.3273021079,-56.92033402,
703567855,-4.684935108,0.5831136993,-93.92429156,
705401800,-2.268716534,0.7701302338,-113.8357938,
707235745,-1.558647884,0.8357331051,-134.063645,
709069689,-1.726151543,0.8197707585,-152.4655532,
710903634,-1.937330565,0.8000801059,-151.1532915,
712737579,-1.417447043,0.8494301028,-175.3649614,
714571523,-2.567694119,0.7440725689,158.4191657,
716405468,-9.544630028,0.3332487266,144.3896129,
718239413,-28.77617769,0.03640752156,-139.8907428,
720073357,-3.12699858,0.697670036,-173.6167734,
721907302,-3.014168536,0.7067919154,147.5232259,
723741247,-4.687911963,0.582913887,97.42993473,
725575191,-7.055668254,0.4438299315,-1.002238009,
727409136,-4.052989942,0.6271197855,-93.55028564,
729243081,-2.363118073,0.7618054869,-137.774769,
731077025,-1.880270649,0.8053533463,-164.0381682,
732910970,-2.49236187,0.7505539355,177.6303512,
734744914,-1.401491251,0.8509919218,169.9631204,
736578859,-1.193585604,0.8716070208,153.8411489,
738412804,-1.221724742,0.8687878984,139.6268974,
740246748,-2.368176438,0.7613619666,126.7598803,
742080693,-1.299561938,0.8610371764,117.5964049,
743914638,-1.349290013,0.8561216885,102.8252836,
745748582,-1.548360787,0.8367234885,86.84869494,
747582527,-2.469868487,0.7525001237,64.90711454,
749416472,-6.149465801,0.4926366405,96.31073841,
751250416,-1.675449732,0.8245699685,62.45465768,
753084361,-1.71298951,0.8210139276,40.69529276,
754918306,-1.699053715,0.8223322342,19.45215877,
756752250,-1.855522534,0.8076512569,-5.501320277,
758586195,-2.753084003,0.728359518,-30.21597334,
760420140,-2.529320249,0.7473671203,-53.97794259,
762254084,-2.739481128,0.7295010874,-86.75152864,
764088029,-2.040707074,0.7906142655,-135.8012704,
765921973,-3.830466283,0.6433935249,156.2645049,
767755918,-2.475591511,0.7520044741,129.244349,
769589863,-2.528694488,0.7474209651,68.54930011,
771423807,-2.516508403,0.7484703139,18.05019091,
773257752,-2.524341472,0.747795636,-28.27253473,
775091697,-5.882089477,0.5080372145,-97.02061821,
776925641,-4.600904863,0.5887823151,-77.49067167,
778759586,-2.609998726,0.7404573761,-105.6163082,
780593531,-2.689111556,0.7337437622,-156.568689,
782427475,-11.02136807,0.2811457976,94.23412627,
784261420,-4.288926358,0.6103144915,-170.5060431,
786095365,-4.374439424,0.604335392,77.86813138,
787929309,-4.175864944,0.6183106867,-49.78991825,
789763254,-3.414133312,0.6749837763,-122.7897611,
791597199,-3.385282572,0.6772295059,-154.7419519,
793431143,-2.499787131,0.7499125876,158.6946032,
795265088,-4.039331092,0.628106728,104.0382404,
797099033,-6.209769498,0.4892282479,55.92493868,
798932977,-20.63895948,0.09290776778,-135.054312,
800766922,-10.54263649,0.2970764159,155.2861559,
802600866,-6.989235975,0.4472374898,92.79677828,
804434811,-4.998368459,0.5624469642,25.23712475,
806268756,-4.015348271,0.6298434053,-55.66042423,
808102700,-3.915763305,0.6371062048,-82.05095772,
809936645,-2.976906117,0.7098305621,-130.2771197,
811770590,-10.6522103,0.2933522915,157.5497139,
813604534,-5.212674335,0.5487395759,-121.9446243,
815438479,-2.086783553,0.7864313584,-158.5322141,
817272424,-2.296732951,0.7676501735,175.7745374,
819106368,-5.958379624,0.5035945469,165.9325055,
820940313,-2.172984402,0.7786652254,167.6101168,
822774258,-1.795257145,0.8132744764,150.1008396,
824608202,-1.832247334,0.8098183872,135.5713238,
826442147,-2.08300965,0.7867731266,124.1298201,
828276092,-2.189302401,0.7772037366,111.3701795,
830110036,-4.535745376,0.5932158294,111.5231076,
831943981,-1.533872847,0.8381202959,93.96446033,
833777925,-2.38526624,0.7598654322,69.89769559,
835611870,-3.071167727,0.7021689381,62.64513098,
837445815,-3.23934966,0.6887038599,24.25536959,
839279759,-7.690868435,0.4125309893,-70.75713658,
841113704,-5.522863819,0.5294888377,157.5006381,
842947649,-4.870779275,0.5707698659,93.45496257,
844781593,-4.090755733,0.6243990208,114.4871042,
846615538,-2.296456211,0.767674632,72.55432382,
848449483,-3.564978321,0.6633627548,41.42403531,
850283427,-6.760770906,0.459157259,16.21926282,
852117372,-20.00992084,0.09988584737,46.09871029,
853951317,-13.89506187,0.2019514178,97.32894728,
855785261,-5.739148455,0.5164670001,81.45316086,
857619206,-6.683112276,0.4632808899,37.282733,
859453151,-5.696477986,0.5190104482,48.94623936,
861287095,-4.536242458,0.5931818814,22.03129734,
863121040,-5.189538735,0.5502031383,-0.5776679245,
864954984,-5.096654516,0.5561184123,-18.59562373,
866788929,-6.899536025,0.4518800819,-46.97107307,
868622874,-8.176884253,0.3900818893,-70.17241381,
870456818,-12.15344293,0.246790168,-84.6481711,
872290763,-8.526363742,0.3746983778,-108.2456943,
874124708,-8.560755385,0.3732176988,-134.2936897,
875958652,-6.468025549,0.4748962307,-164.5713458,
877792597,-7.435675101,0.4248310442,156.0052659,
879626542,-5.561693257,0.5271270915,140.0139295,
881460486,-5.483146872,0.531915513,87.74659738,
883294431,-5.200560537,0.5495054108,81.55030439,
885128376,-19.86445063,0.1015728103,132.2170803,
886962320,-8.377257734,0.3811861506,121.1938991,
888796265,-7.698852755,0.4121519531,115.7236277,
890630210,-3.574037077,0.662671276,85.80591133,
892464154,-5.971198219,0.5028518926,86.24165749,
894298099,-2.603848372,0.740981869,49.15423416,
896132044,-3.014257095,0.7067847092,10.51095031,
897965988,-6.126712439,0.4939288322,-62.72722546,
899799933,-7.634406447,0.4152213515,41.87517207,
901633877,-6.874934896,0.4531617604,-133.2150275,
903467822,-12.34027439,0.241538453,-129.2026912,
905301767,-3.387806646,0.6770327351,113.2860389,
907135711,-5.002404378,0.5621856826,92.615686,
908969656,-12.94866697,0.2251991005,52.10588068,
910803601,-8.603865421,0.3713699241,76.90298578,
912637545,-5.526290375,0.5292799972,105.7346609,
914471490,-2.336042777,0.7641838604,80.25966192,
916305435,-2.368359593,0.7613459123,68.60253139,
918139379,-1.616951631,0.8301420601,50.57722215,
919973324,-1.762373331,0.816359279,30.41445837,
921807269,-6.289696989,0.484747023,-8.774254646,
923641213,-4.523800405,0.5940321902,70.7227512,
925475158,-1.826939817,0.8103133782,40.04922658,
927309103,-1.812899882,0.8116242338,19.15507398,
929143047,-4.472462603,0.5975536037,13.54990944,
930976992,-2.42445091,0.7564451705,13.89520992,
932810936,-3.432757324,0.6735380478,-3.268257179,
934644881,-4.477398305,0.597214144,-7.25588288,
936478826,-2.083884435,0.7866938919,-15.00429315,
938312770,-10.21226545,0.3085934668,-58.74716353,
940146715,-3.393114879,0.6766191045,21.3914539,
941980660,-2.817670852,0.7229636425,-16.20963318,
943814604,-4.847070759,0.5723299354,-15.85128841,
945648549,-1.566786901,0.8349503574,-24.77855326,
947482494,-1.739406302,0.8185207337,-46.47257109,
949316438,-1.98428642,0.7957665488,-63.25216609,
951150383,-2.813141925,0.7233407027,-94.5872336,
952984328,-3.468151211,0.6707990509,-133.3619951,
954818272,-4.961300038,0.5648524256,148.7099525,
956652217,-4.99058068,0.562951481,70.68007345,
958486162,-9.860400383,0.3213512406,-10.20411632,
960320106,-3.596375822,0.6609691791,26.83168753,
962154051,-2.931282966,0.7135687983,-29.82345172,
963987995,-11.01429864,0.281374715,-118.1339405,
965821940,-19.58140018,0.1049373255,145.1062144,
967655885,-4.450427649,0.5990714427,42.42236223,
969489829,-3.141356013,0.6965177675,0.4619943267,
971323774,-8.622014902,0.3705947434,-20.15331423,
973157719,-4.70560449,0.5817277422,6.335608438,
974991663,-4.2041295,0.6163019261,-29.86867304,
976825608,-2.774965985,0.7265269031,9.722146948,
978659553,-2.063578359,0.7885351948,-25.18154899,
980493497,-1.31216802,0.8597884347,-37.5656675,
982327442,-1.310636772,0.8599400214,-56.83111804,
984161387,-1.807747785,0.8121057972,-83.33541561,
985995331,-7.755523535,0.4094716356,-148.9168278,
987829276,-6.502577034,0.4730108996,-12.27439246,
989663221,-3.240743306,0.6885933666,-62.98642098,
991497165,-3.308227066,0.6832641693,-99.77339154,
993331110,-4.445662192,0.5994002095,-136.7431436,
995165055,-4.509181966,0.5950327941,156.6492529,
996998999,-4.553140656,0.5920289815,93.13025606,
998832944,-2.631432261,0.738632456,46.68308267,
1000666888,-2.072767766,0.7877013898,12.65560066,
1002500833,-2.273266421,0.7697269259,3.264623776,
1004334778,-1.911363461,0.802475583,-25.13077749,
1006168722,-4.039320659,0.6281074825,-28.59615666,
1008002667,-1.749651165,0.8175558712,-42.99356516,
1009836612,-5.442367428,0.5344186783,-87.86184908,
1011670556,-3.77519124,0.6475009918,-3.388769191,
1013504501,-2.022959549,0.7922313469,-36.45842015,
1015338446,-1.839579271,0.8091350913,-55.44329699,
1017172390,-4.72765734,0.5802526506,-23.36342565,
1019006335,-1.9715752,0.7969319526,-51.36892681,
1020840280,-2.219550668,0.7745018627,-66.06736483,
1022674224,-1.730212746,0.8193875535,-73.71807909,
1024508169,-5.643807071,0.5221672702,-46.71129609,
1026342114,-1.785711815,0.814168713,-73.44155122,
1028176058,-2.335024221,0.7642734781,-98.73298002,
1030010003,-10.45520737,0.3000817829,-17.06874872,
1031843947,-1.816311545,0.8113055049,-71.74629175,
1033677892,-1.710748357,0.8212257948,-96.68251154,
1035511837,-9.787217728,0.3240702123,-78.00710377,
1037345781,-2.537399588,0.7466722663,-106.9900843,
1039179726,-9.058348115,0.3524378914,-105.2918358,
1041013671,-8.956296669,0.3566031429,-124.7389876,
1042847615,-8.738497774,0.3656580267,133.432704,
1044681560,-3.583200904,0.6619725102,-26.84904214,
1046515505,-4.341938819,0.6066009122,-95.26010336,
1048349449,-15.34942159,0.1708161467,60.28243617,
1050183394,-2.778811843,0.7262052895,-33.10207055,
1052017339,-1.54498762,0.8370484933,-60.67571829,
1053851283,-1.313981143,0.8596089782,-81.08992089,
1055685228,-2.002695808,0.7940817402,-89.07694531,
1057519173,-2.135024001,0.7820757142,-111.8625546,
1059353117,-6.592755989,0.468125394,-128.9733434,
1061187062,-5.205102204,0.5492181612,-83.03596059,
1063021007,-3.624377596,0.6588417623,-95.41512505,
1064854951,-6.183828486,0.490691546,-99.10958404,
1066688896,-8.865343976,0.360356866,-138.5750644,
1068522840,-4.722764649,0.5805795943,-118.597155,
1070356785,-14.67909872,0.1845206875,62.44629793,
1072190730,-2.922641612,0.7142790616,-65.39884628,
1074024674,-3.146434901,0.6961106127,-88.14631545,
1075858619,-2.261499607,0.7707703851,-107.6163062,
1077692564,-3.714296508,0.6520564191,-121.3133881,
1079526508,-3.239203182,0.6887154742,-133.0349709,
1081360453,-10.41245366,0.3015624875,-19.32276571,
1083194398,-4.356284953,0.6055998408,-106.1531958,
1085028342,-2.240824692,0.7726072255,-97.77646254,
1086862287,-7.401030431,0.4265289155,-122.4130134,
1088696232,-30.58734293,0.0295551286,-83.74563779,
1090530176,-2.458962557,0.7534455499,-81.44286824,
1092364121,-1.522343262,0.8392335492,-101.5825344,
1094198066,-1.838100876,0.8092728231,-117.8480423,
1096032010,-2.063342691,0.7885565899,-115.3189671,
1097865955,-3.49799786,0.6684979919,-113.5339215,
1099699899,-1.409862463,0.8501721552,-118.0186709,
1101533844,-4.680597784,0.5834049516,-141.3163588,
1103367789,-2.494487803,0.7503702546,-130.0373411,
1105201733,-2.648423362,0.7371889756,-126.812632,
1107035678,-4.779790301,0.5767803882,-163.8338682,
1108869623,-2.067909269,0.7881421178,-113.7656803,
1110703567,-2.413353219,0.7574122747,-131.0737344,
1112537512,-2.17122286,0.7788231587,-141.2728183,
1114371457,-1.275217256,0.8634538637,-150.2826805,
1116205401,-2.129421647,0.7825803117,-170.7098749,
1118039346,-11.51352317,0.2656585766,174.3758691,
1119873291,-5.20528461,0.5492066276,-97.22281911,
1121707235,-1.84032743,0.8090653995,-135.0842829,
1123541180,-2.011590514,0.7932689843,-152.0780591,
1125375125,-6.802236784,0.4569704957,-114.1428605,
1127209069,-2.028112787,0.7917614647,-140.3527119,
1129043014,-2.201504359,0.7761126856,-161.7472965,
1130876958,-1.906762861,0.8029007377,167.8788307,
1132710903,-6.499628368,0.4731715035,87.67280017,
1134544848,-8.760267875,0.364742698,-17.03801832,
1136378792,-2.606672887,0.7407409524,-103.4188922,
1138212737,-3.551308108,0.6644076046,-142.6297409,
1140046682,-4.77933634,0.5768105339,-115.8307002,
1141880626,-14.10613395,0.1971030308,-131.1093178,
1143714571,-2.969038012,0.7104738528,-133.1214469,
1145548516,-1.971455299,0.7969429537,-125.4878969,
1147382460,-1.006827452,0.890550655,-142.9098904,
1149216405,-0.9120103514,0.9003253581,-154.0101911,
1151050350,-0.9486827471,0.8965321386,-164.9064915,
1152884294,-1.219582887,0.8690021594,-179.3036873,
1154718239,-2.213657083,0.7750275592,153.9596085,
1156552184,-6.894070287,0.4521645243,91.74505172,
1158386128,-6.683708684,0.4632490804,-99.17956737,
1160220073,-5.639235849,0.5224421494,-91.52363127,
1162054018,-5.618949977,0.5236637376,-123.2734743,
1163887962,-1.236412552,0.8673200225,-134.6900003,
1165721907,-1.496588353,0.84172569,-144.2333496,
1167555851,-2.495018985,0.7503243674,-161.2531025,
1169389796,-1.077459387,0.8833382381,-155.2091895,
1171223741,-1.221851159,0.8687752539,-165.4686289,
1173057685,-3.384462973,0.6772934122,-156.2667116,
1174891630,-1.019730988,0.8892286579,-166.9686266,
1176725575,-2.41927705,0.7568958909,-178.7768856,
1178559519,-4.736234601,0.5796799376,-156.2970495,
1180393464,-2.404830462,0.7581558265,-179.210172,
1182227409,-2.90334056,0.7158680372,-171.0091893,
1184061353,-1.202436343,0.8707193238,-167.6160982,
1185895298,-0.9844510682,0.8928478283,-173.844333,
1187729243,-1.298949998,0.8610978405,-179.4407979,
1189563187,-1.02819107,0.8883629682,176.9024972,
1191397132,-3.16149718,0.6949045271,174.8582085,
1193231077,-2.814687762,0.7232119805,179.7458674,
1195065021,-1.135906038,0.8774142796,177.5630723,
1196898966,-0.9411608388,0.8973088643,170.9825796,
1198732910,-1.117281708,0.8792976544,166.0422039,
1200566855,-2.131606338,0.7823835004,171.7089099,
1202400800,-0.9234437371,0.899141024,164.5071841,
1204234744,-0.9393872321,0.8974921081,156.7766832,
1206068689,-1.634005564,0.8285137527,142.9354337,
1207902634,-6.964545201,0.4485106294,-176.3547828,
1209736578,-3.525678797,0.6663709563,-173.352638,
1211570523,-1.178001426,0.8731722573,163.3252153,
1213404468,-3.285990377,0.6850156304,154.7235567,
1215238412,-1.415818407,0.849589389,150.2408576,
1217072357,-3.734584668,0.6505351486,133.3551743,
1218906302,-3.41493963,0.6749211199,-175.2788212,
