Frequency,S11_Magnitude,S11_Magnitude (linear),S11_Phase,
500000000,-4.947747695,0.5657344365,108.7867512,
501833944,-0.7275494331,0.9196499008,108.8770736,
503667889,-0.60811879,0.932382386,104.2935831,
505501833,-0.5883724622,0.9345044567,101.232538,
507335778,-0.5949301283,0.9337991915,98.32454811,
509169723,-0.6668617238,0.9260979307,94.48905073,
511003667,-2.644359372,0.7375339754,99.53864926,
512837612,-0.661868194,0.9266304988,95.69268468,
514671557,-0.6237203482,0.9307091479,91.17880916,
516505501,-1.370894922,0.8539948543,79.58691798,
518339446,-0.7393801675,0.9183981318,94.11705789,
520173391,-0.6244003732,0.9306362848,89.46328997,
522007335,-0.6055183651,0.9326615691,86.66366365,
523841280,-0.5943353925,0.9338631323,84.22955156,
525675225,-0.5944202268,0.9338540114,81.94906526,
527509169,-0.5972992149,0.9335445314,79.69204763,
529343114,-0.6090952589,0.9322775733,77.38920561,
531177059,-0.6304150494,0.9299920746,74.98909838,
533011003,-0.6750858038,0.9252214864,72.35507056,
534844948,-0.7468996243,0.9176034099,69.74765507,
536678892,-1.361125041,0.8549559675,68.24428428,
538512837,-0.8320676581,0.9086499711,68.58267917,
540346782,-0.7329897345,0.9190740696,64.39743097,
542180726,-1.105006651,0.8805411722,59.05650959,
544014671,-0.8222848898,0.9096739445,61.18511535,
545848616,-0.7941995035,0.9126200898,53.15213475,
547682560,-2.311833893,0.766316727,33.7010089,
549516505,-1.939674732,0.7998642076,76.8953901,
551350450,-0.8779547684,0.9038622775,60.50839418,
553184394,-0.9093030051,0.9006060285,50.25371023,
555018339,-6.276163296,0.4855029076,28.31956802,
556852284,-1.265366174,0.8644337035,64.86852797,
558686228,-0.8345254286,0.9083928947,55.29978497,
560520173,-0.7570396179,0.9165328156,49.56656827,
562354118,-0.7513173811,0.9171368235,44.06639464,
564188062,-0.8234180487,0.9095552764,37.75744949,
566022007,-2.127566476,0.7827474766,21.27278956,
567855951,-1.59398996,0.8323394938,42.91309238,
569689896,-1.437024507,0.8475176954,24.2793518,
571523841,-8.094719389,0.3937894081,-18.92421614,
573357785,-3.200851318,0.6917631668,73.69584938,
575191730,-1.47422924,0.8438952415,54.11255836,
577025675,-1.144226335,0.8765741985,45.56287441,
578859619,-1.026045533,0.8885824335,39.92212336,
580693564,-0.9751898582,0.8938003226,35.33716236,
582527509,-0.9685256855,0.8944863462,31.04609641,
584361453,-1.123532953,0.8786650504,25.6988112,
586195398,-1.779167391,0.8147823834,28.74819032,
588029343,-0.9069889238,0.9008459986,23.29872678,
589863287,-0.8941120532,0.9021824973,18.65746989,
591697232,-0.867847222,0.904914691,13.47478784,
593531177,-1.118091219,0.879215709,8.560157547,
595365121,-1.283524496,0.8626284457,0.2915727979,
597199066,-2.318009622,0.765772064,-19.70054917,
599033011,-8.109289109,0.393129419,98.40852989,
600866955,-1.223962988,0.8685640515,32.24015207,
602700900,-0.9323043897,0.8982242597,18.62556833,
604534844,-0.8944050496,0.9021520649,11.58270891,
606368789,-0.8958538564,0.9020015985,6.458953082,
608202734,-0.903911115,0.9011652662,2.147875445,
610036678,-0.9221327335,0.899276746,-1.810409015,
611870623,-0.9407294158,0.8973534342,-5.643271812,
613704568,-0.9695017751,0.8943858327,-9.394154983,
615538512,-0.9975203157,0.8915054125,-13.20581383,
617372457,-1.035940491,0.8875707375,-17.18619401,
619206402,-1.102000315,0.8808459954,-21.41624433,
621040346,-1.171097524,0.8738665664,-25.79481404,
622874291,-1.278723313,0.8631054011,-30.81245882,
624708236,-1.485990184,0.8427533563,-36.90901331,
626542180,-2.077342383,0.7872866385,-45.54743557,
628376125,-6.70647048,0.4620367028,-49.23109492,
630210070,-1.376987622,0.8533960314,-34.63400228,
632044014,-1.471322509,0.8441776981,-55.31542241,
633877959,-3.572919558,0.6627565402,-93.98810139,
635711903,-3.108229369,0.6991792509,1.16995815,
637545848,-4.809410631,0.5748168209,-36.57062487,
639379793,-1.705740592,0.821699401,-37.1160914,
641213737,-1.456046732,0.8456636502,-53.90674526,
643047682,-1.780417568,0.8146651187,-68.64419018,
644881627,-2.579607269,0.7430527342,-86.74509377,
646715571,-4.69678958,0.5823184106,-116.0472851,
648549516,-11.09058784,0.2789141886,168.5566494,
650383461,-6.518827777,0.4721267538,32.94980153,
652217405,-3.874950666,0.6401068381,-22.68300146,
654051350,-4.717248072,0.5809484488,-9.994033774,
655885295,-4.436349088,0.6000432375,-38.21351777,
657719239,-2.402741432,0.7583381913,-34.66654155,
659553184,-1.376626126,0.8534315495,-50.33142557,
661387129,-1.321523422,0.858862872,-70.39617403,
663221073,-13.15684612,0.2198658068,-28.74924325,
665055018,-1.976047138,0.796521757,-51.04225914,
666888962,-1.409196402,0.8502373515,-64.93419666,
668722907,-1.289170239,0.8620679279,-75.41000523,
670556852,-2.652586613,0.7368357168,-81.53446869,
672390796,-1.420510186,0.8491305979,-87.99892484,
674224741,-1.496715165,0.8417134011,-99.15492061,
676058686,-1.876749975,0.8056798484,-112.2035767,
677892630,-2.944851138,0.7124550072,-105.302369,
679726575,-7.069724315,0.4431122784,-72.46271284,
681560520,-1.826825495,0.8103240435,-107.6757727,
683394464,-2.328473457,0.7648500988,-128.2727741,
685228409,-4.67545179,0.5837506948,-153.6509722,
687062354,-17.32930512,0.1359986959,-142.4701634,
688896298,-4.841632908,0.5726883581,-67.03039802,
690730243,-2.041251629,0.7905647001,-102.0914917,
692564188,-1.64316459,0.8276405688,-124.3628226,
694398132,-3.298594231,0.684022344,-159.6077514,
696232077,-2.637613332,0.7381070158,-133.4865596,
698066022,-2.612130372,0.7402756791,-142.6357114,
699899966,-9.840876719,0.3220743686,-172.7841071,
701733911,-3.349279312,0.6800424674,-151.9735152,
703567855,-4.978488742,0.5637357317,175.060426,
705401800,-19.77831419,0.102585101,128.3739115,
707235745,-6.030823279,0.4994118419,-101.5411555,
709069689,-2.721670967,0.7309984426,-136.0996951,
710903634,-2.287652913,0.7684530778,-161.7834471,
712737579,-5.792118204,0.5133269786,160.1747927,
714571523,-2.317456375,0.7658208414,-146.8546512,
716405468,-1.363616314,0.8547107854,-176.4990105,
718239413,-1.477265485,0.8436003005,164.7866838,
720073357,-1.975618727,0.7965610446,150.7638977,
721907302,-2.466646869,0.7527792796,131.4745238,
723741247,-2.17788604,0.7782259315,104.4996735,
725575191,-4.489841179,0.5963592241,49.41198719,
727409136,-8.747747904,0.3652688227,-111.298825,
729243081,-24.89136087,0.05694190031,29.01327549,
731077025,-2.191868777,0.7769741341,160.1031865,
732910970,-1.789858594,0.8137801089,120.4998691,
734744914,-1.986859284,0.7955308682,95.27258536,
736578859,-1.909290862,0.80266709,67.36280506,
738412804,-2.024519202,0.7920891053,38.62849144,
740246748,-2.167171042,0.7791865511,6.526330874,
742080693,-2.349574589,0.7629942596,-31.54960939,
743914638,-2.86923851,0.7186841625,-82.15500933,
745748582,-11.63050823,0.262104567,166.4943643,
747582527,-3.655964539,0.656450182,-179.5973786,
749416472,-4.269110093,0.6117084719,51.21929621,
751250416,-3.469560198,0.6706902456,-30.10963601,
753084361,-2.863220179,0.7191823012,-80.87488118,
754918306,-2.626363537,0.7390636171,-121.4454255,
756752250,-2.93470064,0.7132880825,-163.9963803,
758586195,-8.57223754,0.3727246563,172.7021751,
760420140,-5.699607199,0.5188235011,11.74335729,
762254084,-2.478733728,0.7517324773,-105.9389493,
764088029,-2.442341081,0.7548887375,-152.4314919,
765921973,-1.475242957,0.8437967575,177.4870501,
767755918,-1.380057887,0.8530944286,148.9013882,
769589863,-1.654990262,0.8265145188,117.5398489,
771423807,-17.34371034,0.1357733341,134.3985742,
773257752,-2.545484205,0.7459776051,72.87298312,
775091697,-10.74061086,0.2903818428,-176.7446797,
776925641,-2.438318647,0.7552384072,75.5068252,
778759586,-5.011723555,0.5615828315,10.17585211,
780593531,-5.339360942,0.54079411,6.900249587,
782427475,-3.890845335,0.6389365512,34.8725225,
784261420,-2.599260974,0.7413733172,-24.96645292,
786095365,-5.720993163,0.5175476511,-71.79660583,
787929309,-4.513565936,0.594732543,-51.62079639,
789763254,-2.226013744,0.7739257787,-91.33211641,
791597199,-1.911770341,0.8024379928,-120.5704091,
793431143,-1.968610293,0.7972040298,-149.6750531,
795265088,-6.883230322,0.4527291765,161.2494585,
797099033,-3.08413786,0.7011212126,-156.9278822,
798932977,-3.087377035,0.7008597966,169.2746049,
800766922,-4.055142645,0.62696438,162.6371414,
802600866,-5.770836125,0.5145862693,90.3125228,
804434811,-5.131108189,0.553916868,-164.8739832,
806268756,-2.72787384,0.7304765994,147.8828855,
808102700,-2.195325791,0.7766649573,130.2082654,
809936645,-2.220981403,0.7743742977,98.08981606,
811770590,-4.474046858,0.5974446233,90.60123657,
813604534,-5.070663266,0.5577850073,25.17387086,
815438479,-5.666850987,0.5207837814,9.423735469,
817272424,-8.393186284,0.3804877559,-149.4376072,
819106368,-7.68004705,0.4130452646,6.627094124,
820940313,-10.36791536,0.303112769,-88.75428955,
822774258,-3.748468601,0.6494961334,-130.5207798,
824608202,-2.657167336,0.7364472303,-173.0735518,
826442147,-2.768633227,0.7270567966,155.5895586,
828276092,-3.886789779,0.6392349488,142.0445248,
830110036,-3.039817762,0.7047078543,120.2770007,
831943981,-6.515872235,0.4722874315,125.1911721,
833777925,-6.600881288,0.4676876863,101.4489735,
835611870,-1.997780645,0.7945312216,90.29452559,
837445815,-2.366634492,0.7614971379,60.82881962,
839279759,-4.88414273,0.5698923976,12.49868406,
841113704,-17.8067469,0.1287249273,145.0232812,
842947649,-6.88750387,0.4525064839,124.015734,
844781593,-3.005616376,0.7074881681,58.92197309,
846615538,-7.583283304,0.4176724548,-16.72768661,
848449483,-18.10586287,0.1243674863,57.55297831,
850283427,-5.079279415,0.5572319752,15.58136094,
852117372,-8.530725922,0.3745102461,-116.141769,
853951317,-4.5193744,0.5943349639,123.4219475,
855785261,-3.031886949,0.7053515947,65.50028316,
857619206,-3.096693961,0.7001084218,26.44983438,
859453151,-3.570788469,0.6629191679,-26.22454941,
861287095,-4.636432173,0.5863789768,-55.9098249,
863121040,-4.652315667,0.5853076719,-127.0781957,
864954984,-4.423411214,0.6009376846,162.4163482,
866788929,-3.821710845,0.6440423971,104.8082852,
868622874,-4.869857488,0.5708304419,44.95402517,
870456818,-4.65177871,0.5853438564,-32.99202242,
872290763,-6.729775002,0.460798705,-126.5474042,
874124708,-5.869452182,0.5087769071,169.5196597,
875958652,-3.198155706,0.6919778845,118.2072032,
877792597,-9.300285813,0.3427565078,53.25354754,
879626542,-13.94607452,0.2007688235,-13.77251572,
881460486,-7.187797869,0.4371294903,112.1993889,
883294431,-8.001758195,0.398026594,34.67242655,
885128376,-7.014953254,0.4459152625,119.7679024,
886962320,-9.733696892,0.3260732374,32.79236486,
888796265,-10.08277675,0.3132284221,139.5515643,
890630210,-5.047610287,0.5592673753,94.09106861,
892464154,-2.884996454,0.7173815074,51.90679386,
894298099,-2.749186319,0.7286864336,7.884685305,
896132044,-5.528793728,0.5291274759,-58.22881728,
897965988,-6.554032187,0.4702170696,-118.5628947,
899799933,-5.594131598,0.525162153,150.9433967,
901633877,-8.185616729,0.3896899123,140.7624824,
903467822,-9.23676911,0.3452721463,50.31092703,
905301767,-8.992649588,0.3551137762,155.4790872,
907135711,-4.39439865,0.6029482896,144.0226035,
908969656,-2.116228955,0.7837698485,100.2384604,
910803601,-2.545011423,0.7460182105,75.51767212,
912637545,-2.328229718,0.764871562,71.25955782,
914471490,-2.750061912,0.728612981,54.67943471,
916305435,-1.662857132,0.8257662778,43.19763114,
918139379,-4.320224464,0.6081192858,31.61518812,
919973324,-2.024981365,0.7920469606,43.29183493,
921807269,-1.474992614,0.8438210776,26.86753163,
923641213,-1.488186676,0.8425402674,11.8249087,
925475158,-3.681933263,0.6544904845,-3.772779295,
927309103,-2.110716738,0.7842674004,-19.19076576,
929143047,-14.24849081,0.193898951,-59.08113821,
930976992,-14.1096902,0.1970223478,87.57622266,
932810936,-4.553397902,0.5920114479,21.55807948,
934644881,-4.768151117,0.5775537981,-3.667025108,
936478826,-4.74952652,0.5787935383,16.89112484,
938312770,-4.108149643,0.6231498831,40.67313079,
940146715,-2.013556656,0.7930894399,-9.098245385,
941980660,-7.373832828,0.427866573,-5.155889327,
943814604,-5.35244644,0.5399800043,-24.02722926,
945648549,-2.570875695,0.7438000706,-31.7321529,
947482494,-6.047784487,0.4984375764,-86.59239831,
949316438,-6.317439458,0.4832012255,-96.90482776,
951150383,-6.657540311,0.4646468363,-63.90293763,
952984328,-7.825335242,0.4061937511,122.2891166,
954818272,-3.847106549,0.6421621035,55.56810683,
956652217,-2.529023708,0.7473926363,34.79123752,
958486162,-2.312172901,0.7662868185,-4.176379945,
960320106,-7.388994216,0.427120375,11.82442258,
962154051,-2.525928965,0.7476589763,-24.62838995,
963987995,-11.38623191,0.2695804567,-13.51448912,
965821940,-4.63533838,0.5864528228,-38.1120763,
967655885,-7.362137083,0.428443093,38.02936819,
969489829,-2.653994127,0.7367163252,-24.94782165,
971323774,-2.032993109,0.7913167243,-61.07481606,
973157719,-2.935945525,0.7131858595,-102.9196274,
974991663,-8.5455067,0.3738734839,156.2720792,
976825608,-5.692214984,0.5192652391,-101.6151145,
978659553,-6.56767916,0.4694788607,93.04416949,
980493497,-6.016548372,0.5002332799,48.56667143,
982327442,-7.511791555,0.4211244165,45.30228143,
984161387,-2.495333443,0.7502972036,22.76577906,
985995331,-1.476665105,0.8436586132,-2.274095922,
987829276,-1.257477892,0.8652191146,-22.99903054,
989663221,-2.020505056,0.7924552504,-36.42629505,
991497165,-1.507082221,0.8407093722,-53.34090821,
993331110,-2.241190198,0.7725747145,-81.80248757,
995165055,-3.562052978,0.6635862081,-123.4591776,
996998999,-5.313117913,0.5424305039,144.7067755,
998832944,-2.674486747,0.7349802391,49.17356053,
1000666888,-1.802817374,0.8125669074,3.991609765,
1002500833,-1.53417175,0.8380914546,-22.85571885,
1004334778,-2.340411976,0.7637995553,-51.8597414,
1006168722,-8.166764989,0.3905366086,-15.25867285,
1008002667,-4.310919625,0.6087710883,-46.42839956,
1009836612,-6.196627792,0.4899690079,-83.87766838,
1011670556,-8.841534032,0.361346039,-117.7009608,
1013504501,-2.775688904,0.7264664374,-13.48509637,
1015338446,-2.082198278,0.7868466245,-53.0701297,
1017172390,-6.276370088,0.485491349,-53.19071263,
1019006335,-8.64478704,0.3696244131,-68.24935121,
1020840280,-2.177152198,0.7782916841,-32.56208457,
1022674224,-2.928789481,0.7137736741,-61.00427362,
1024508169,-2.331018186,0.7646260514,-55.07868103,
1026342114,-2.105223524,0.7847635512,-59.58903678,
1028176058,-1.691425869,0.8230547138,-75.16935516,
1030010003,-3.41392279,0.6750001363,-80.69301948,
1031843947,-7.313048229,0.4308713213,-97.91229137,
1033677892,-2.306074093,0.7668250566,-95.04608254,
1035511837,-3.687934511,0.6540384407,-73.3194572,
1037345781,-8.355986974,0.3821207762,-128.2664476,
1039179726,-2.287952701,0.7684265555,-70.69231443,
1041013671,-2.800268154,0.7244135953,-100.367373,
1042847615,-4.711880747,0.5813075487,-115.0440778,
1044681560,-1.888733517,0.8045690536,-91.88514482,
1046515505,-1.77693805,0.8149915342,-114.7804666,
1048349449,-2.658343424,0.7363475206,-148.4592841,
1050183394,-8.871437016,0.3601041689,16.21090274,
1052017339,-1.949583862,0.7989522183,-93.55901346,
1053851283,-1.802063597,0.8126374266,-128.9241436,
1055685228,-2.611527412,0.7403270696,-167.5521935,
1057519173,-4.590728643,0.5894725252,126.6543472,
1059353117,-5.544737273,0.528157117,45.8196587,
1061187062,-2.818770141,0.7228721498,-18.49199722,
1063021007,-2.011437564,0.7932829531,-54.74073765,
1064854951,-2.657143014,0.7364492926,-88.85934387,
1066688896,-2.888805789,0.7170669573,-53.71804893,
1068522840,-2.024859791,0.7920580468,-86.71908731,
1070356785,-3.830474736,0.6433928987,-92.65722716,
1072190730,-3.234307398,0.6891037767,-101.4231612,
1074024674,-3.717551102,0.6518121399,-103.846625,
1075858619,-7.306583596,0.4311921246,-107.979946,
1077692564,-4.936438964,0.5664714831,-89.03246903,
1079526508,-3.09785405,0.7000149215,-98.60403474,
1081360453,-2.530376123,0.7472762744,-114.1212731,
1083194398,-6.055885733,0.4979729052,-143.1835122,
1085028342,-3.333659212,0.6812665087,-106.7609663,
1086862287,-4.299430946,0.6095768322,-116.1542605,
1088696232,-4.561015514,0.5914924756,-124.4181252,
1090530176,-5.583186538,0.5258243251,-135.451269,
1092364121,-11.82358035,0.2563427167,-97.92229654,
1094198066,-8.112462902,0.3929857972,-93.27413797,
1096032010,-2.138045773,0.7818036818,-104.9273277,
1097865955,-2.474427886,0.7521052248,-125.9256399,
1099699899,-7.626641362,0.4155927205,-150.9466987,
1101533844,-9.13471291,0.3493529014,-159.485117,
1103367789,-1.958604176,0.7981229355,-112.5420531,
1105201733,-3.297822633,0.6840831108,-137.8714132,
1107035678,-7.876126295,0.4038254496,156.5423544,
1108869623,-4.224055302,0.6148897236,-99.69679498,
1110703567,-1.482620935,0.843080323,-112.5636838,
1112537512,-1.724454863,0.8199309062,-132.251477,
1114371457,-2.198677481,0.7763653175,-126.4866293,
1116205401,-1.709323634,0.8213605093,-146.7573879,
1118039346,-2.348501498,0.7630885289,-138.1224609,
1119873291,-3.134781084,0.6970452078,-138.1226423,
1121707235,-1.5371366,0.8378054285,-153.1443886,
1123541180,-7.843336796,0.405352784,-156.7200522,
1125375125,-2.152205079,0.7805302625,-169.6152029,
1127209069,-14.6411025,0.185329637,-49.62563166,
1129043014,-2.173036374,0.7786605663,-138.7139643,
1130876958,-3.670361585,0.6553630032,-168.0550445,
1132710903,-4.631753884,0.5866948903,-164.6988484,
1134544848,-7.391059422,0.4270188326,-174.7344402,
1136378792,-4.860812938,0.5714251528,-173.4180753,
1138212737,-10.201521,0.3089754334,146.2346131,
1140046682,-16.98686675,0.1414674948,139.53988,
1141880626,-16.38354102,0.151643203,-35.61312289,
1143714571,-4.064920535,0.62625899,-79.95642153,
1145548516,-4.434906769,0.6001428848,-123.0700326,
1147382460,-3.505100263,0.6679515883,-114.3869271,
1149216405,-2.383149146,0.7600506639,-128.0347656,
1151050350,-1.709850646,0.8213106752,-130.643823,
1152884294,-1.902904683,0.8032574567,-142.745988,
1154718239,-4.484812023,0.5967046179,-143.762863,
1156552184,-1.857704911,0.8074483556,-134.3591898,
1158386128,-1.070996481,0.8839957478,-145.6444108,
1160220073,-1.524481041,0.8390270217,-149.1442708,
1162054018,-1.005572128,0.8906793707,-157.4720365,
1163887962,-2.388489619,0.7595834945,-168.8976288,
1165721907,-2.027110306,0.791852851,-166.1118164,
1167555851,-1.334779427,0.8575531147,-157.6976296,
1169389796,-1.013652652,0.8898511528,-170.2800357,
1171223741,-2.835213798,0.7215049418,174.8584813,
1173057685,-1.992428376,0.7950209648,-159.3214848,
1174891630,-2.012397674,0.793195271,-178.7094466,
1176725575,-7.847479131,0.4051595158,-176.622054,
1178559519,-1.287521114,0.8622316178,-164.3758497,
1180393464,-1.254224551,0.8655432472,-175.8555513,
1182227409,-2.028487282,0.7917273283,176.3147947,
1184061353,-1.43437302,0.8477764514,179.7037323,
1185895298,-2.117193099,0.783682854,-172.6173863,
1187729243,-2.415687748,0.7572087304,173.1772637,
1189563187,-1.734353121,0.8189970623,-179.2442646,
1191397132,-1.023840893,0.8888080008,173.6953868,
1193231077,-0.9987380159,0.8913804385,165.8169918,
1195065021,-1.276054109,0.8633706771,153.555217,
1196898966,-2.692459393,0.7334610069,155.2900565,
1198732910,-7.344439569,0.4293169364,-170.8536414,
1200566855,-6.100236819,0.4954366826,174.030317,
1202400800,-2.893465861,0.7166823465,175.5875903,
1204234744,-5.915729004,0.5060734455,173.1432824,
1206068689,-3.959351598,0.6339170314,170.3211296,
1207902634,-2.065688673,0.7883436365,167.4654145,
1209736578,-1.80502938,0.8123600001,166.481495,
1211570523,-4.35124752,0.6059511639,167.2335475,
1213404468,-1.475640564,0.8437581325,162.4025027,
1215238412,-2.186524731,0.7774523192,171.7119585,
1217072357,-2.467756206,0.7526831429,159.7583812,
1218906302,-2.609914365,0.7404645677,177.3644147,
1220740246,-1.329160315,0.858108066,164.2456901,
