Frequency,S11_Magnitude,S11_Magnitude (linear),S11_Phase,
500000000,-0.6668171194,0.9261026865,107.6356118,
501833944,-0.6257897653,0.9304874324,105.6890575,
503667889,-0.6000642202,0.9332474007,103.2095762,
505501833,-0.5926365352,0.9340458028,100.9166655,
507335778,-0.6079347568,0.9324021412,98.54985976,
509169723,-0.6869782732,0.9239555666,95.89471521,
511003667,-1.025811579,0.8886063677,94.32591928,
512837612,-0.8720316747,0.9044788507,94.51110455,
514671557,-0.7380964279,0.9185338774,91.98740795,
516505501,-0.7694936082,0.9152196155,88.65838979,
518339446,-1.738076185,0.8186460879,86.51453694,
520173391,-0.8825318879,0.9033861034,89.6366546,
522007335,-0.7870445704,0.9133721632,86.4286161,
523841280,-0.8081422402,0.9111563118,84.07189071,
525675225,-0.8536747556,0.9063924143,82.34520106,
527509169,-0.8176161114,0.9101630374,80.91022982,
529343114,-0.7414790925,0.9181762299,78.98233122,
531177059,-0.6940389056,0.9232048019,76.7281848,
533011003,-0.6733613758,0.9254051908,74.35211066,
534844948,-0.6969431601,0.9228961664,71.7981987,
536678892,-0.7072802968,0.9217984747,69.74459444,
538512837,-0.7510920283,0.9171606187,66.03276472,
540346782,-0.8600887275,0.9057233488,65.14014047,
542180726,-1.423042585,0.8488830673,65.72725079,
544014671,-0.804885154,0.9114980467,61.2943516,
545848616,-0.7954883415,0.9124846826,55.45446071,
547682560,-3.37387711,0.6781193616,51.26372531,
549516505,-1.241999976,0.8667622757,62.06402534,
551350450,-0.8621523927,0.9055081851,52.37039029,
553184394,-1.158506808,0.8751342067,42.20223024,
555018339,-6.85714823,0.4540906802,19.1051009,
556852284,-1.812285684,0.8116816276,71.1919865,
558686228,-0.9463093522,0.896777147,57.20216917,
560520173,-0.8654138002,0.9051682456,49.71483841,
562354118,-0.952584425,0.8961295093,44.91156931,
564188062,-0.8758753854,0.9040786861,36.12771874,
566022007,-1.720415509,0.8203123019,27.68460126,
567855951,-5.012929659,0.5615048567,-4.608217254,
569689896,-5.638006354,0.5225161068,88.17637706,
571523841,-1.844247509,0.8087003378,62.7768481,
573357785,-1.259262875,0.8650413271,52.30749383,
575191730,-1.067625739,0.8843388674,45.92691671,
577025675,-0.984347212,0.892858504,41.01250224,
578859619,-0.9459598798,0.8968132291,36.68464312,
580693564,-0.9429612734,0.897122887,32.41930109,
582527509,-1.105392729,0.8805020341,27.40554019,
584361453,-1.25006104,0.8659582379,24.00983138,
586195398,-1.832341773,0.8098095822,27.46608233,
588029343,-1.204983443,0.8704640265,22.49876999,
589863287,-1.200239733,0.8709395514,17.50804977,
591697232,-1.112901164,0.8797412212,11.34046549,
593531177,-1.60366081,0.8314132845,1.184031016,
595365121,-4.197399653,0.6167796232,-20.98867491,
597199066,-6.255991974,0.4866317058,66.5009229,
599033011,-1.454401114,0.8458238838,34.46148847,
600866955,-1.012390264,0.8899804912,22.67570676,
602700900,-0.9203300257,0.8994634052,15.9952938,
604534844,-0.8975138181,0.9018292333,11.04987331,
606368789,-0.8964217448,0.901942627,6.828945086,
608202734,-0.9045386431,0.9011001622,2.875270057,
610036678,-0.9989630855,0.8913573413,0.2620994032,
611870623,-0.9346927942,0.8979773042,-3.813983068,
613704568,-0.9524988832,0.8961383347,-7.43640201,
615538512,-0.979542783,0.8933525077,-11.0778833,
617372457,-1.018665383,0.8893377571,-14.83469602,
619206402,-1.076434607,0.8834424624,-18.85587718,
621040346,-1.167289034,0.8742498134,-23.34558992,
622874291,-1.42965269,0.848237299,-27.534482,
624708236,-2.684679031,0.734118297,-34.90207283,
626542180,-1.404746895,0.8506730129,-26.95522528,
628376125,-1.339865255,0.8570511407,-31.27174117,
630210070,-1.194411206,0.8715241776,-41.9576258,
632044014,-1.49659431,0.8417251128,-52.28891285,
633877959,-2.573106051,0.7436091027,-71.21521861,
635711903,-21.65953203,0.08260824548,85.45852384,
637545848,-2.243918564,0.7723320755,-18.87769208,
639379793,-1.365760823,0.8544997871,-39.91509183,
641213737,-1.429158381,0.8482855731,-53.20703264,
643047682,-1.758097803,0.8167612213,-65.66154284,
644881627,-2.505432083,0.7494253783,-80.97737112,
646715571,-4.498351757,0.5957751877,-105.068853,
648549516,-13.15119878,0.2200088045,-166.9634134,
650383461,-8.769242619,0.3643660202,18.89449171,
652217405,-4.527045143,0.5938103225,-16.34380638,
654051350,-4.449025259,0.5991681742,-32.30865972,
655885295,-2.174053554,0.7785693849,-33.81555845,
657719239,-1.997276288,0.7945773583,-54.35113845,
659553184,-1.939351087,0.799894012,-51.87230446,
661387129,-1.367029125,0.8543750233,-66.74589168,
663221073,-1.735711356,0.8188690036,-88.88206933,
665055018,-5.873355689,0.5085483102,-46.55299868,
666888962,-2.654012373,0.7367147776,-69.31594362,
668722907,-2.817259103,0.722997915,-80.1547742,
670556852,-3.709218619,0.6524377316,-86.12267184,
672390796,-2.991670141,0.7086250375,-81.37365411,
674224741,-1.748701157,0.8176452953,-95.07754932,
676058686,-5.310974217,0.5425643934,-137.493801,
677892630,-3.711469572,0.6522686738,-101.0379202,
679726575,-5.192989462,0.5499845972,-71.95018925,
681560520,-2.716104094,0.7314670968,-101.7582567,
683394464,-3.400560925,0.6760393161,-122.9862445,
685228409,-7.949196281,0.4004425202,-125.3380691,
687062354,-8.884322416,0.3595703553,-83.85896614,
688896298,-3.946828995,0.6348316201,-101.8726621,
690730243,-2.135144175,0.7820648939,-107.1777651,
692564188,-1.689273224,0.8232587187,-130.8372373,
694398132,-9.820126482,0.322844711,-102.5639108,
696232077,-2.197469337,0.7764733118,-136.1334892,
698066022,-3.149315566,0.6958797867,-159.7285897,
699899966,-6.639491117,0.4656133718,-159.7206903,
701733911,-6.559152808,0.4699399427,-163.0777957,
703567855,-11.02063986,0.2811693693,-132.0942658,
705401800,-7.247883345,0.43411604,-143.9482714,
707235745,-8.624130255,0.3705045001,-149.5559567,
709069689,-6.566409507,0.4695474914,-104.124918,
710903634,-1.889150258,0.804530452,-145.3963702,
712737579,-3.820328884,0.644144875,-175.0480473,
714571523,-3.36386236,0.6789016779,-140.7044231,
716405468,-1.660569549,0.8259837866,-170.416635,
718239413,-1.447161432,0.8465291712,175.9049122,
720073357,-1.287721981,0.8622116784,159.3297741,
721907302,-1.599353218,0.8318257095,140.820104,
723741247,-2.408943883,0.7577968678,116.72241,
725575191,-7.313238634,0.4308618762,78.11592673,
727409136,-10.07781266,0.313407487,152.261625,
729243081,-5.975264647,0.5026165301,72.08459263,
731077025,-10.01668909,0.3156207484,170.837447,
732910970,-5.482876961,0.5319320423,128.7225769,
734744914,-3.91447553,0.6372006696,117.3012749,
736578859,-3.28169378,0.6853545668,74.20785605,
738412804,-3.903282238,0.6380223437,41.16243358,
740246748,-4.638582708,0.5862338135,5.066640648,
742080693,-5.130400237,0.5539620174,-37.30279817,
743914638,-4.431241757,0.6003961686,-103.0533532,
745748582,-7.159439808,0.4385589815,157.6590835,
747582527,-8.600720543,0.3715044095,57.54798282,
749416472,-7.167368405,0.4381588416,-18.56271468,
751250416,-3.550552693,0.6644653908,-69.92830681,
753084361,-2.56450006,0.7443462367,-124.4723679,
754918306,-2.495509885,0.7502819625,-174.6187268,
756752250,-2.998556484,0.7080634483,125.3878771,
758586195,-4.222826181,0.6149767414,38.32183337,
760420140,-3.218968223,0.6903218007,-50.25374525,
762254084,-2.161746574,0.7796733166,-110.7967066,
764088029,-1.732097214,0.8192098005,-150.6255329,
765921973,-1.835028123,0.8095591652,178.4400919,
767755918,-1.686240935,0.8235461727,150.5748961,
769589863,-3.04355912,0.7044043739,113.4582634,
771423807,-25.4293823,0.05352182149,-19.9021412,
773257752,-9.870023513,0.3209954115,61.10809088,
775091697,-5.585489743,0.5256849127,144.3751446,
776925641,-5.708212793,0.5183097283,71.87536016,
778759586,-2.765818787,0.7272924189,117.7864954,
780593531,-1.99968436,0.7943571007,68.01799927,
782427475,-3.201505254,0.6917110879,40.920697,
784261420,-2.881550696,0.7176661546,15.42476875,
786095365,-2.942813873,0.7126221323,-15.01646793,
787929309,-3.016919388,0.7065681073,-42.92629041,
789763254,-3.689620226,0.6539115205,-72.63832597,
791597199,-5.08539402,0.5568398387,-106.9747235,
793431143,-4.487957347,0.5964885791,-125.4506755,
795265088,-10.46660766,0.2996881819,135.9719782,
797099033,-6.008395034,0.5007030632,-114.6002905,
798932977,-4.666413303,0.5843584586,-160.2961078,
800766922,-7.234232157,0.4347988554,150.2001585,
802600866,-11.05539783,0.2800464737,-40.53202115,
804434811,-4.650970098,0.5853983515,-168.744816,
806268756,-5.275559758,0.5447810747,164.2584076,
808102700,-3.431268722,0.6736534897,126.5793778,
809936645,-14.36180192,0.1913858848,-36.63799177,
811770590,-13.05049802,0.2225743424,90.18720386,
813604534,-13.88006915,0.2023003073,-87.48977767,
815438479,-6.491955079,0.4735896974,-149.9900558,
817272424,-4.078303083,0.6252948415,167.6472544,
819106368,-5.713623235,0.5179869736,120.0111958,
820940313,-16.79677119,0.1445977184,165.8743377,
822774258,-10.02047318,0.3154832754,159.6045766,
824608202,-8.146715364,0.3914391249,159.0573387,
826442147,-5.600130656,0.524799566,144.17459,
828276092,-6.028221029,0.4995614857,127.1950523,
830110036,-4.130724861,0.621532377,115.4289192,
831943981,-6.940726056,0.4497422592,79.51672044,
833777925,-8.636983877,0.3699566227,131.4508126,
835611870,-3.934670376,0.6357208877,105.5595883,
837445815,-2.713718921,0.7316679876,81.9149719,
839279759,-3.144590266,0.6962584624,44.08934574,
841113704,-6.780562118,0.4581122385,-9.110952161,
842947649,-12.52903749,0.2363459287,-143.4097705,
844781593,-11.78195825,0.2575740387,111.9901161,
846615538,-11.88965624,0.2544000476,66.39556273,
848449483,-8.678478807,0.3681934511,164.8262733,
850283427,-3.473082118,0.670418352,108.8573544,
852117372,-3.865956401,0.640770014,55.00985167,
853951317,-10.85249493,0.2866653843,105.1098597,
855785261,-4.645394122,0.5857742733,82.0656924,
857619206,-3.187983825,0.6927887214,49.2800319,
859453151,-3.140443981,0.6965909068,13.76042273,
861287095,-4.49758548,0.5958277498,-51.46229214,
863121040,-22.14167811,0.07814768086,-140.8894393,
864954984,-11.2140849,0.2749766109,144.2333204,
866788929,-3.940014806,0.6353298489,64.73816354,
868622874,-5.15824745,0.5521888431,0.1400426022,
870456818,-7.760783538,0.4092237427,-55.70665858,
872290763,-9.502306632,0.3348764973,-134.4385847,
874124708,-8.055188642,0.3955856854,137.0203684,
875958652,-13.97465992,0.2001091762,56.39971681,
877792597,-19.99017986,0.1001131225,72.5170176,
879626542,-19.27167111,0.1087467895,-164.7868015,
881460486,-12.71816224,0.2312554029,151.0576566,
883294431,-7.896526938,0.4028780933,109.4767234,
885128376,-6.187627927,0.4904769513,88.91899326,
886962320,-11.71712129,0.2595039276,41.88871703,
888796265,-5.660040566,0.521192277,50.203724,
890630210,-10.95926144,0.283163276,82.73657885,
892464154,-4.249936763,0.6130602555,52.26172772,
894298099,-3.308605887,0.6832343705,1.640385573,
896132044,-6.02709183,0.4996264348,-56.69959645,
897965988,-5.99136797,0.5016855607,-135.6330473,
899799933,-8.767922499,0.3644214024,-174.9251026,
901633877,-14.76522966,0.1826999872,96.74721584,
903467822,-6.687779905,0.4630319987,150.672629,
905301767,-7.577905747,0.4179311218,100.7903255,
907135711,-6.00979759,0.5006222186,111.0177922,
908969656,-2.873170104,0.7183589299,110.0419791,
910803601,-1.569056586,0.8347322074,82.49224541,
912637545,-1.506113864,0.840803105,62.4320114,
914471490,-2.455806986,0.7537193253,40.02755234,
916305435,-3.133458977,0.6971513154,55.56489028,
918139379,-1.871001222,0.8062132639,22.80934369,
919973324,-7.273861477,0.4328196068,103.6065623,
921807269,-1.594526534,0.8322880772,40.49626271,
923641213,-1.428111115,0.8483878579,19.42063911,
925475158,-2.057935687,0.7890476226,-1.626045897,
927309103,-2.407744336,0.757901529,-22.51147963,
929143047,-7.310782902,0.4309837096,-99.00269598,
930976992,-4.772578415,0.5772594872,93.23580308,
932810936,-1.770894267,0.8155588159,40.45237413,
934644881,-1.468239375,0.8444773997,10.87730217,
936478826,-2.073380189,0.7876458526,-11.74945817,
938312770,-5.809280782,0.5123136896,10.2139097,
940146715,-2.797770718,0.7246219145,-37.60697427,
941980660,-14.33085848,0.1920689118,-144.6264522,
943814604,-3.341605761,0.6806435164,13.89748414,
945648549,-3.102604551,0.6996321728,-19.78747762,
947482494,-5.458814184,0.5334077125,-65.06257654,
949316438,-10.18134935,0.3096938155,-91.56338363,
951150383,-5.067669477,0.5579772937,-88.02519007,
952984328,-10.36694304,0.303146702,146.3382072,
954818272,-5.703907641,0.5185666917,61.41496654,
956652217,-2.443679741,0.7547724037,27.01712471,
958486162,-2.204725088,0.7758249562,-7.010403432,
960320106,-3.395129974,0.6764621496,-23.25172605,
962154051,-5.988710565,0.5018390723,-23.01665492,
963987995,-2.366345178,0.7615225027,-38.14196083,
965821940,-6.229654839,0.4881094974,-94.64729728,
967655885,-7.042002669,0.4445287625,17.4604059,
969489829,-2.480214999,0.7516042895,-37.42910816,
971323774,-2.697730033,0.7330160742,-75.7124451,
973157719,-3.883591274,0.6394703849,-133.2249527,
974991663,-6.881334297,0.4528280126,81.02590059,
976825608,-4.466253243,0.5979809349,-50.98231971,
978659553,-5.450087196,0.5339439134,-140.7281737,
980493497,-4.751297934,0.5786755103,107.8342402,
982327442,-3.245920239,0.6881830759,61.66837053,
984161387,-2.180661225,0.7779773242,25.80875781,
985995331,-1.854720013,0.8077258822,1.491057137,
987829276,-2.050070779,0.7897624138,-18.80796754,
989663221,-2.59007729,0.7421575938,-47.26594064,
991497165,-4.110671225,0.622969004,-0.004839384808,
993331110,-1.425431764,0.8486496019,-45.94410227,
995165055,-2.729288737,0.7303576173,-93.17322993,
996998999,-15.90578756,0.1602177476,-128.63954,
998832944,-9.323718212,0.341833081,51.17337292,
1000666888,-4.101972051,0.6235932383,16.4896854,
1002500833,-1.602029634,0.8315694354,-19.79246976,
1004334778,-2.743746077,0.7291429754,-36.51255471,
1006168722,-3.485788515,0.6694383286,-59.79704753,
1008002667,-3.183941594,0.6931112058,-61.66939336,
1009836612,-3.063345049,0.7028016097,-65.5012529,
1011670556,-22.92577245,0.07140216455,110.6311652,
1013504501,-11.54134943,0.2648088702,-38.96877373,
1015338446,-11.32831823,0.2713839057,-70.6358072,
1017172390,-2.644239147,0.7375441839,-47.26759874,
1019006335,-7.613163148,0.4162381116,10.70924097,
1020840280,-2.768961341,0.7270293322,-44.20454692,
1022674224,-2.189184604,0.7772142771,-37.04584156,
1024508169,-2.877175245,0.7180277645,-47.60462095,
1026342114,-1.009342492,0.8902928292,-60.65660906,
1028176058,-1.257547771,0.8652121539,-71.07014815,
1030010003,-1.59103791,0.8326224268,-77.46117888,
1031843947,-1.378966129,0.8532016636,-85.81845364,
1033677892,-1.65338795,0.8266670025,-99.64524918,
1035511837,-2.546045306,0.7459294171,-96.05246262,
1037345781,-2.676494779,0.7348103436,-119.5355828,
1039179726,-20.97883727,0.08934250731,146.1706099,
1041013671,-4.827148152,0.5736441809,-98.06277783,
1042847615,-4.430146486,0.600471882,-60.24885885,
1044681560,-2.598292604,0.7414559758,-94.20467218,
1046515505,-1.445601536,0.8466812127,-103.8792626,
1048349449,-3.212674541,0.6908221801,-127.5585806,
1050183394,-2.694948434,0.7332508554,-167.4471288,
1052017339,-7.623231192,0.4157559185,-0.2913638455,
1053851283,-5.624623915,0.5233217732,-114.4092739,
1055685228,-2.655722322,0.7365697584,-120.848545,
1057519173,-5.627830021,0.5231286421,173.9495271,
1059353117,-7.879443016,0.4036712776,87.13662119,
1061187062,-5.659631101,0.5212168473,1.286771618,
1063021007,-2.707461778,0.7321952567,-42.5353586,
1064854951,-3.230315561,0.6894205459,-66.38025439,
1066688896,-3.894660947,0.6386559353,-74.17438908,
1068522840,-2.828278718,0.7220812435,-82.79225934,
1070356785,-6.574072974,0.4691333974,-80.84474338,
1072190730,-2.651823582,0.7369004486,-88.00565809,
1074024674,-3.457133555,0.6716504688,-95.72201994,
1075858619,-3.166063198,0.6945393242,-110.2337226,
1077692564,-3.999224889,0.6310136523,-87.4829901,
1079526508,-2.254527452,0.7713893301,-100.012962,
1081360453,-2.7685531,0.7270635038,-120.835422,
1083194398,-8.803446906,0.3629339995,-85.52234896,
1085028342,-2.515257195,0.7485781392,-107.2795855,
1086862287,-2.010190178,0.7933968851,-118.13073,
1088696232,-3.939168097,0.6353917845,-143.1676746,
1090530176,-7.897859005,0.4028163127,-138.5274672,
1092364121,-10.07487209,0.3135136076,-62.04528442,
1094198066,-3.614350359,0.6596027871,-88.28375372,
1096032010,-1.693062226,0.822899671,-108.204606,
1097865955,-2.796922035,0.7246927194,-120.7236891,
1099699899,-1.815279816,0.8114018792,-126.5235379,
1101533844,-1.799276454,0.8128982288,-134.2812976,
1103367789,-3.960297821,0.6338479775,-129.9306227,
1105201733,-5.899574484,0.5070155461,-170.8465337,
1107035678,-10.61441628,0.2946315064,-154.630363,
1108869623,-9.318238891,0.3420487876,-94.82055924,
1110703567,-5.042406412,0.559602543,-96.27833379,
1112537512,-1.442065775,0.8470259411,-114.5503929,
1114371457,-1.680302675,0.824109397,-124.5701316,
1116205401,-1.210445161,0.8699168477,-133.2312805,
1118039346,-1.100394842,0.8810088233,-144.5797158,
1119873291,-3.447725062,0.67237839,-167.1454367,
1121707235,-1.514175925,0.8400230512,-140.2719132,
1123541180,-3.161519267,0.6949027601,-158.0318123,
1125375125,-2.175351898,0.7784530152,-161.0827965,
1127209069,-2.670219077,0.7353414483,-175.0710417,
1129043014,-4.199025441,0.6166641879,-149.3060774,
1130876958,-3.208422722,0.6911604264,-168.7744736,
1132710903,-8.889714184,0.3593472212,152.084564,
1134544848,-3.252029788,0.6876991865,-159.5795716,
1136378792,-4.42481202,0.6008407769,139.5574599,
1138212737,-12.38938969,0.240176502,-86.48585735,
1140046682,-4.629718872,0.5868323627,162.9331055,
1141880626,-6.841475861,0.4549107575,2.510042889,
1143714571,-2.547505743,0.7458040078,-96.70358172,
1145548516,-15.95574961,0.1592988056,165.9647714,
1147382460,-3.316902252,0.6825820878,-85.42748053,
1149216405,-1.339925524,0.8570451939,-118.6759844,
1151050350,-1.780283994,0.8146776468,-139.3931513,
1152884294,-2.828602146,0.7220543566,-125.8494804,
1154718239,-1.759168628,0.8166605345,-136.5750408,
1156552184,-2.010232487,0.7933930205,-144.2695991,
1158386128,-1.509657277,0.8404601688,-146.6741035,
1160220073,-2.481046948,0.7515323031,-156.0409542,
1162054018,-1.210306863,0.8699306989,-146.6842912,
1163887962,-1.178100421,0.8731623056,-155.5126259,
1165721907,-0.8588666326,0.905850792,-158.7437915,
1167555851,-0.8352545374,0.9083166458,-166.1711291,
1169389796,-1.115613839,0.8794665137,-168.3687397,
1171223741,-2.185245117,0.7775668627,171.0406562,
1173057685,-2.784917725,0.7256949715,-168.5920974,
1174891630,-3.083588837,0.7011655309,-158.717629,
1176725575,-1.459449573,0.8453324124,-164.1644388,
1178559519,-1.23007578,0.8679530048,-173.3471506,
1180393464,-1.570500058,0.8345934983,-176.8703123,
1182227409,-3.484338997,0.6695500551,171.0170522,
1184061353,-1.835750351,0.8094918535,-170.1201512,
1185895298,-1.976005259,0.7965255975,-169.9057163,
1187729243,-0.9209776305,0.8993963453,-178.5714603,
1189563187,-1.673447958,0.824760023,173.279435,
1191397132,-1.200379695,0.8709255175,173.0298367,
1193231077,-1.287942772,0.8621897617,168.9131596,
1195065021,-1.826874672,0.8103194557,161.4467044,
1196898966,-1.792032274,0.8135764826,170.452631,
1198732910,-2.555276134,0.7451371104,145.9864404,
1200566855,-4.894558602,0.5692094084,153.725759,
1202400800,-3.517537325,0.6669958531,150.6325762,
1204234744,-9.734602364,0.3260392472,-135.0129969,
1206068689,-3.297691995,0.6840933997,174.7452746,
1207902634,-1.860611809,0.807178173,172.3431266,
1209736578,-1.817164722,0.8112258177,150.8455244,
1211570523,-5.848612329,0.5099990693,-154.8332726,
1213404468,-1.399111811,0.8512250771,169.2126812,
1215238412,-2.370530302,0.7611556666,173.3369253,
1217072357,-2.460680304,0.753296561,166.4877661,
1218906302,-2.005567059,0.793819288,152.9892567,
