Frequency,S11_Magnitude,S11_Magnitude (linear),S11_Phase,
500000000,-0.5678546636,0.9367145514,105.0071977,
501833944,-0.5882029971,0.9345226894,102.3133655,
503667889,-0.6755294792,0.9251742272,98.29326978,
505501833,-3.216700376,0.6905020642,89.61039272,
507335778,-0.8788023317,0.9037740835,104.7466617,
509169723,-0.6358940962,0.929405622,100.2615244,
511003667,-0.5956543126,0.9337213395,96.96979518,
512837612,-0.5898837767,0.9343418703,94.06193476,
514671557,-0.6084424811,0.9323476402,90.65641848,
516505501,-0.8268879523,0.909191993,84.04670779,
518339446,-1.877054791,0.805651575,101.9279255,
520173391,-0.7521031354,0.91705386,92.01403175,
522007335,-0.6853299357,0.9241309241,88.26920534,
523841280,-0.7060743439,0.9219264665,85.44042502,
525675225,-0.8581788677,0.9059225218,83.54179243,
527509169,-0.6973798368,0.9228497697,82.72134017,
529343114,-0.6105717355,0.932119113,80.14029933,
531177059,-0.6002642332,0.9332259107,77.75528856,
533011003,-0.604547416,0.9327658321,75.46195277,
534844948,-0.6153592029,0.9316054914,73.4272547,
536678892,-0.6021499837,0.9330233247,71.13008119,
538512837,-0.6027571588,0.9329581052,68.80207533,
540346782,-0.6105244688,0.9321241854,66.36726471,
542180726,-0.6196877393,0.9311413497,63.80797243,
544014671,-0.6329431732,0.9297214296,61.03933739,
545848616,-0.7064686218,0.9218846185,57.88159346,
547682560,-0.6935894741,0.9232525722,54.35198516,
549516505,-0.7816472333,0.9139399011,49.54312742,
551350450,-1.032387865,0.8879338382,42.12310035,
553184394,-2.330286509,0.7646904643,26.31961596,
555018339,-12.31306529,0.2422962738,83.545359,
556852284,-2.676320815,0.7348250608,66.84278464,
558686228,-1.532699575,0.8382335151,66.30240151,
560520173,-1.044912668,0.8866543858,57.29745895,
562354118,-1.385993251,0.8525116792,51.96807983,
564188062,-0.8773922084,0.9039208199,51.73024073,
566022007,-0.7857242334,0.9135110149,46.66281699,
567855951,-0.7594615412,0.9162772906,42.41885189,
569689896,-0.7500622817,0.9172693581,38.1090386,
571523841,-0.7574421907,0.9164903372,33.26186691,
573357785,-0.7961017724,0.9124202417,27.12120683,
575191730,-0.9230666079,0.8991800643,17.82820554,
577025675,-1.562423145,0.8353699385,-1.831022673,
578859619,-9.488051453,0.3354265438,-92.17042286,
580693564,-2.922300598,0.7143071052,80.15361286,
582527509,-1.460122573,0.8452669169,52.33672348,
584361453,-1.38877569,0.8522386292,44.47108155,
586195398,-1.49723387,0.8416631371,38.56209258,
588029343,-0.958511375,0.8955182302,33.66172718,
589863287,-0.9048923511,0.9010634682,28.5718669,
591697232,-1.038522596,0.8873069234,25.3587171,
593531177,-0.9590311474,0.895464643,21.6767487,
595365121,-0.9528250549,0.8961046837,17.95761883,
597199066,-0.9830053653,0.8929964486,14.0653985,
599033011,-1.142143738,0.876784398,9.686458743,
600866955,-1.533552486,0.8381512088,7.428360841,
602700900,-1.4932688,0.8420474403,4.830625048,
604534844,-1.691955035,0.8230045728,0.05541535535,
606368789,-2.582903458,0.7427708082,-5.576997401,
608202734,-4.688801921,0.5828541647,7.048905362,
610036678,-3.393058676,0.6766234827,8.148324592,
611870623,-1.317761755,0.859234907,6.156311986,
613704568,-1.02547989,0.8886403016,-0.2926240638,
615538512,-0.9574072903,0.8956320689,-5.232577774,
617372457,-0.9467348404,0.8967332184,-9.618520859,
619206402,-0.9593439465,0.8954323959,-13.87490126,
621040346,-0.9978862735,0.891467852,-18.45158636,
622874291,-1.228488136,0.8681116674,-25.59880245,
624708236,-1.203181073,0.8706446714,-16.83566471,
626542180,-1.024531645,0.8887373205,-25.90268158,
628376125,-1.084223277,0.8826506312,-31.16207134,
630210070,-1.167294774,0.8742492357,-36.53376183,
632044014,-1.354319811,0.8556260717,-43.01303542,
633877959,-2.369743774,0.7612245942,-54.05970941,
635711903,-2.17482143,0.7785005586,-38.71680761,
637545848,-2.268327948,0.7701646884,-54.12660132,
639379793,-5.595348958,0.5250885547,-45.04440354,
641213737,-1.626784052,0.8292028715,-46.95154605,
643047682,-1.461880515,0.8450958602,-60.25564069,
644881627,-1.743426785,0.8181419485,-72.03857256,
646715571,-2.375332061,0.7607349985,-86.16509052,
648549516,-3.851188875,0.6418603613,-106.5779038,
650383461,-8.236563726,0.3874108804,-142.6187851,
652217405,-17.92048178,0.1270503632,72.04589822,
654051350,-12.84253976,0.2279675396,-49.40667758,
655885295,-2.754827897,0.7282132976,16.0494689,
657719239,-1.610722403,0.8307376236,-19.10883322,
659553184,-1.270925435,0.8638806139,-36.0759084,
661387129,-1.318720301,0.8591400899,-48.71415521,
663221073,-1.015048453,0.8897081674,-55.20329412,
665055018,-0.9699495304,0.8943397285,-64.55307794,
666888962,-1.291648293,0.861822018,-75.21830752,
668722907,-1.312483091,0.8597572475,-76.15131525,
670556852,-1.162013593,0.8747809569,-84.83079828,
672390796,-1.148003195,0.8761931231,-93.39081012,
674224741,-1.334277947,0.857602627,-108.1348115,
676058686,-2.004730585,0.7938957385,-117.7420278,
677892630,-8.028326079,0.3968109939,176.5251976,
679726575,-2.314187709,0.7661090886,-85.03771439,
681560520,-3.294544784,0.6843413163,-125.9920346,
683394464,-7.016025485,0.4458602197,-80.03274123,
685228409,-3.459552774,0.6714634249,-111.7582406,
687062354,-6.39056598,0.4791502301,-136.136666,
688896298,-17.5745972,0.1322117763,-119.0794534,
690730243,-3.077609849,0.7016483489,-82.55259366,
692564188,-2.177550064,0.7782560345,-115.4986004,
694398132,-1.873108707,0.8060176734,-129.8624106,
696232077,-12.24344778,0.2442460849,-170.2169385,
698066022,-2.841494848,0.7209833868,-132.4569601,
699899966,-4.93858576,0.5663314918,-172.5278628,
701733911,-10.97072236,0.2827898919,-42.12585009,
703567855,-2.916871264,0.7147537405,-101.2600936,
705401800,-1.810575266,0.8118414789,-126.6130737,
707235745,-1.876428735,0.8057096463,-145.9784441,
709069689,-5.44548958,0.5342266155,-167.1559232,
710903634,-2.457276802,0.7535917926,-144.0228385,
712737579,-3.256135186,0.6873742213,-169.0149675,
714571523,-2.322625737,0.7653652027,-151.1550889,
716405468,-1.320826886,0.8589317483,-172.2672835,
718239413,-1.612761955,0.8305425792,171.6842832,
720073357,-1.858425703,0.8073813529,164.3949337,
721907302,-2.130813039,0.7824549603,143.3007907,
723741247,-2.475997736,0.7519693049,136.1409665,
725575191,-3.63064621,0.6583664472,92.83043343,
727409136,-7.929195856,0.4013656552,-131.7798367,
729243081,-3.159957244,0.6950277388,134.2915471,
731077025,-4.088975026,0.6245270429,77.82227956,
732910970,-7.068644511,0.4431673682,-95.08617855,
734744914,-4.27725933,0.6111348266,147.1793967,
736578859,-4.442307537,0.5996317539,88.72433509,
738412804,-6.776882462,0.4583063524,8.172183251,
740246748,-6.186368762,0.4905480593,-114.2924001,
742080693,-3.7931536,0.6461633478,164.5256632,
743914638,-4.637644732,0.5862971234,122.3819283,
745748582,-3.278658975,0.685594068,73.53664348,
747582527,-4.270129835,0.6116366602,3.841157049,
749416472,-6.242434059,0.4873918885,-117.572689,
751250416,-5.185788709,0.550440733,111.1638489,
753084361,-4.539319215,0.5929717989,22.06477433,
754918306,-4.449897746,0.5991079916,-50.22598441,
756752250,-8.069098326,0.3949526969,-118.6275047,
758586195,-2.554584013,0.7451964878,-118.3285846,
760420140,-4.613474624,0.5879308766,-173.8806163,
762254084,-3.759241308,0.6486910927,-171.5134843,
764088029,-2.600908378,0.7412327184,146.4265983,
765921973,-2.802342725,0.7242405943,115.9321927,
767755918,-10.41182936,0.3015841631,120.6046746,
769589863,-4.415379591,0.6014936135,89.63459801,
771423807,-4.583871308,0.5899380857,34.02379099,
773257752,-5.514947983,0.5299716043,-61.0050181,
775091697,-3.640245666,0.6576392369,161.6060974,
776925641,-4.819805974,0.574129287,32.3425265,
778759586,-7.428107361,0.4252013473,-116.3850446,
780593531,-3.429876492,0.6737614759,177.8169294,
782427475,-2.00361093,0.7939980823,123.9335678,
784261420,-1.744690794,0.8180228976,83.83972291,
786095365,-2.269275069,0.7700807132,46.07764263,
787929309,-5.070190558,0.5578153642,22.31054174,
789763254,-3.340211688,0.6807527675,-5.106099567,
791597199,-4.888822478,0.569585436,-61.49979506,
793431143,-11.55644201,0.2643491386,55.92702749,
795265088,-3.995932036,0.6312529173,-39.34047073,
797099033,-4.373209635,0.6044209627,-97.95829518,
798932977,-12.76000588,0.2301440259,132.8272554,
800766922,-7.767113722,0.4089256135,-46.38057144,
802600866,-4.140560866,0.6208289447,-103.7580938,
804434811,-10.79167708,0.2886796338,-152.8168697,
806268756,-5.282801042,0.5443270889,-83.93717175,
808102700,-3.131840072,0.6972812649,-124.1833799,
809936645,-2.272074977,0.7698325167,-146.338179,
811770590,-2.976445543,0.7098682022,-160.6772107,
813604534,-2.089776474,0.7861604223,179.2332739,
815438479,-3.277271693,0.6857035776,157.8509708,
817272424,-3.330477668,0.6815160947,165.9961265,
819106368,-3.206730773,0.6912950726,148.7891745,
820940313,-1.881640914,0.8052263057,137.047196,
822774258,-1.738410682,0.8186145621,114.5142442,
824608202,-1.903130999,0.8032365277,84.97555672,
826442147,-4.388629222,0.6033489189,27.72254715,
828276092,-9.495197151,0.335150709,-90.25480152,
830110036,-5.05545254,0.5587626559,179.772596,
831943981,-4.560231076,0.5915458967,141.3840225,
833777925,-4.853283547,0.5719207093,109.1330218,
835611870,-6.79300165,0.4574566208,120.4673366,
837445815,-3.982821007,0.6322064897,94.91095083,
839279759,-4.316044418,0.608412011,65.43366672,
841113704,-6.562949209,0.4697345877,3.181622167,
842947649,-8.174563951,0.3901861076,-140.0381477,
844781593,-3.253482904,0.6875841467,146.2132799,
846615538,-2.506526999,0.7493309141,114.2397854,
848449483,-2.372996838,0.7609395515,91.90601136,
850283427,-2.659092449,0.7362840246,69.82884003,
852117372,-5.260431014,0.54573078,32.08064615,
853951317,-18.02856371,0.1254792213,134.6632315,
855785261,-4.473842054,0.5974587106,85.23846928,
857619206,-4.481564962,0.5969277267,78.52907264,
859453151,-2.169717689,0.778958132,64.08322079,
861287095,-1.629909592,0.8289045439,44.00625427,
863121040,-2.108606174,0.7844579909,25.54438279,
864954984,-2.631560606,0.7386215419,10.54437538,
866788929,-3.329003806,0.6816317473,-5.744480143,
868622874,-4.747960174,0.5788979229,-20.10335041,
870456818,-3.333455312,0.6812825016,-34.65490949,
872290763,-4.652488713,0.5852960111,-59.38493742,
874124708,-5.130370262,0.5539639291,-86.01497723,
875958652,-6.046647195,0.4985028439,-116.1847098,
877792597,-6.803974297,0.4568790932,-143.0852809,
879626542,-5.312595906,0.542463104,-166.2080434,
881460486,-4.307229289,0.6090297892,161.0284338,
883294431,-4.130825705,0.621525161,138.6778105,
885128376,-2.929812848,0.7136895826,111.9903279,
886962320,-2.553198166,0.7453153945,87.8571853,
888796265,-1.929115575,0.8008371682,64.04482497,
890630210,-3.073863234,0.7019510666,36.27154896,
892464154,-3.692647738,0.6536836359,-3.50698837,
894298099,-10.81681582,0.2878453441,179.3594799,
896132044,-5.289527093,0.5439057441,17.49414837,
897965988,-5.199963977,0.549543153,-19.97911274,
899799933,-5.550558989,0.5278032384,-90.44137405,
901633877,-4.186929935,0.6175235197,-176.8810874,
903467822,-4.51749704,0.5944634369,106.6996629,
905301767,-17.64859066,0.1310902728,-15.16483309,
907135711,-13.56708257,0.2097229081,6.99428893,
908969656,-3.206521042,0.691311765,121.4822504,
910803601,-7.33927046,0.4295725056,12.89013624,
912637545,-2.912860956,0.7150838211,128.0637179,
914471490,-2.313212265,0.7661951291,83.0586318,
916305435,-2.544825626,0.7460341685,74.96098041,
918139379,-1.748922276,0.8176244805,62.88826917,
919973324,-2.485661537,0.7511331394,49.8306592,
921807269,-1.302431492,0.8607527629,40.50084397,
923641213,-1.08948821,0.8821157766,24.75587732,
925475158,-1.146447749,0.8763500435,6.223781566,
927309103,-1.97653138,0.7964773519,-29.97402914,
929143047,-14.55700955,0.1871326306,158.4530247,
930976992,-5.602934773,0.5246301692,95.50141974,
932810936,-1.448780254,0.8463714151,35.9184897,
934644881,-1.463754086,0.8449135903,13.63125331,
936478826,-2.396218302,0.7589079195,-14.70560898,
938312770,-5.450312508,0.533930063,30.41688836,
940146715,-1.58782854,0.8329301313,-1.820389944,
941980660,-1.657767551,0.8262502853,-26.92210165,
943814604,-2.204730837,0.7758244427,-33.65879788,
945648549,-3.767348041,0.6480859374,-67.84112503,
947482494,-6.420650484,0.477493513,35.08385815,
949316438,-11.865321,0.255113799,-1.727184711,
951150383,-3.71083803,0.6523161013,-52.17144331,
952984328,-9.619513841,0.3303880327,-141.4612302,
954818272,-9.814451847,0.3230556996,53.06169835,
956652217,-3.110662251,0.6989834411,-0.3483855384,
958486162,-4.122315605,0.6221344058,-71.20995491,
960320106,-10.0222399,0.3154191122,73.36865863,
962154051,-4.216967655,0.6153916756,-18.59949058,
963987995,-5.01993344,0.5610522754,-114.5567494,
965821940,-4.145489036,0.6204768009,77.91011364,
967655885,-3.671819653,0.655252999,7.530325662,
969489829,-4.960242907,0.5649211762,28.88932859,
971323774,-1.664500382,0.825610069,-14.34781559,
973157719,-2.880390594,0.7177620137,-43.6706737,
974991663,-2.819626073,0.7228009195,-51.30754616,
976825608,-4.521679082,0.5941772863,-38.54461575,
978659553,-4.24381802,0.6134922757,-95.53291358,
980493497,-9.75501699,0.3252738503,22.08267213,
982327442,-16.65701057,0.1469431926,-57.42511333,
984161387,-3.549390523,0.6645543021,-45.404614,
985995331,-3.025545009,0.7058667901,-89.06550206,
987829276,-4.394069559,0.6029711345,-143.6852269,
989663221,-10.11194305,0.312178398,113.9210488,
991497165,-4.863336299,0.5712591706,135.7085711,
993331110,-5.162861404,0.5518955977,41.61815389,
995165055,-2.66328037,0.7359291092,29.15009048,
996998999,-2.626649022,0.7390393261,-2.578712002,
998832944,-4.633555879,0.5865731858,-24.46908079,
1000666888,-2.921764538,0.7143511909,-17.91768443,
1002500833,-2.617632151,0.7398069254,-4.057041923,
1004334778,-1.839729967,0.8091210533,-37.39978737,
1006168722,-2.771708516,0.7267994236,-34.5527724,
1008002667,-2.646484091,0.7373535839,-67.26704653,
1009836612,-4.057241119,0.6268129263,-112.4287858,
1011670556,-6.818611128,0.456109842,49.11442117,
1013504501,-2.172800657,0.7786816979,-19.99958566,
1015338446,-2.282587987,0.7689013097,-34.18614675,
1017172390,-2.81228072,0.7234124255,-37.09329629,
1019006335,-2.63474035,0.7383511957,-65.38822384,
1020840280,-6.152303169,0.4924757401,-10.31413735,
1022674224,-1.477432648,0.8435840652,-47.62205381,
1024508169,-1.180719152,0.8728990933,-58.80466913,
1026342114,-1.357087759,0.8553534513,-75.87661704,
1028176058,-8.417806753,0.3794107767,-60.78793446,
1030010003,-2.038584608,0.7908074819,-71.82821486,
1031843947,-1.295480701,0.8614418468,-76.49093085,
1033677892,-1.157944609,0.875190852,-90.5227692,
1035511837,-2.143743488,0.7812910073,-107.6336894,
1037345781,-2.95308246,0.7117801577,-121.345237,
1039179726,-11.07586392,0.2793873923,158.9174376,
1041013671,-4.609034336,0.5882315079,-50.44836758,
1042847615,-2.620642803,0.7395505423,-70.92387398,
1044681560,-1.460217542,0.8452576751,-92.82720048,
1046515505,-1.633869555,0.8285267263,-114.500324,
1048349449,-6.081522496,0.4965052845,-170.7093246,
1050183394,-2.67712078,0.734757387,-73.92940934,
1052017339,-1.691100201,0.823085574,-108.4682793,
1053851283,-2.254388498,0.7714016707,-121.8745613,
1055685228,-1.668084013,0.8252695084,-147.0852192,
1057519173,-2.505839251,0.7493902484,179.1456437,
1059353117,-3.774323186,0.6475657053,126.675962,
1061187062,-4.32357417,0.6078848104,46.76359223,
1063021007,-4.311456956,0.6087334293,-19.66784969,
1064854951,-9.049182659,0.3528099844,-110.4512671,
1066688896,-2.839741553,0.7211289359,-14.45852465,
1068522840,-1.713690792,0.8209476432,-50.5636392,
1070356785,-1.921221836,0.8015653,-70.65414447,
1072190730,-1.59222338,0.8325087964,-73.03114264,
1074024674,-1.542059946,0.8373306772,-87.15276635,
1075858619,-1.850635498,0.8081058023,-98.9290253,
1077692564,-4.016454575,0.6297631885,-99.39953965,
1079526508,-3.382964947,0.6774102327,-97.21152169,
1081360453,-1.590946767,0.8326311638,-100.92364,
1083194398,-1.234208456,0.867540138,-113.2807322,
1085028342,-1.386330692,0.8524785604,-126.1571708,
1086862287,-2.199320234,0.7763078689,-145.7180973,
1088696232,-7.545217282,0.4195069265,-159.2880913,
1090530176,-11.99674367,0.251282831,91.21829731,
1092364121,-2.957058592,0.7114544013,-62.49224678,
1094198066,-1.86094811,0.8071469211,-94.71648428,
1096032010,-1.89020232,0.8044330107,-120.671389,
1097865955,-10.43069554,0.3009298185,-78.9909685,
1099699899,-2.477972378,0.7517983723,-97.60308537,
1101533844,-1.181693671,0.8728011634,-112.451868,
1103367789,-1.442642102,0.846969741,-126.0135062,
1105201733,-2.660691024,0.7361485293,-134.5590485,
1107035678,-2.210152472,0.7753403329,-139.0759575,
1108869623,-2.521622969,0.7480297172,-145.1563644,
1110703567,-1.932719238,0.8005049801,-138.3919139,
1112537512,-11.56006395,0.2642389302,-173.636468,
1114371457,-2.399790655,0.7585958583,-112.8608331,
1116205401,-1.30424842,0.8605727281,-133.028384,
1118039346,-2.847390412,0.7204941839,-141.971684,
1119873291,-1.430433627,0.8481610385,-146.8443565,
1121707235,-2.08527345,0.7865680969,-163.2121087,
1123541180,-3.179940549,0.6934305522,-150.9583833,
1125375125,-5.168300536,0.551550107,-175.2407901,
1127209069,-5.374361725,0.5386193033,-156.7053205,
1129043014,-3.012403896,0.706935523,-171.7968445,
1130876958,-5.009138499,0.5617499922,171.4360548,
1132710903,-7.088318988,0.4421646823,-159.5457394,
1134544848,-11.4908298,0.2663535627,48.18609612,
1136378792,-5.104287297,0.5556299344,-121.2580511,
1138212737,-2.328319246,0.7648636783,-127.01098,
1140046682,-5.566126312,0.526858128,-165.7326883,
1141880626,-6.395251669,0.4788918174,143.725009,
1143714571,-4.255129821,0.6126938329,-86.93174831,
1145548516,-2.066915206,0.7882323224,-140.1405975,
1147382460,-6.321961901,0.4829497048,158.0140379,
1149216405,-4.511714079,0.5948593552,-97.61052287,
1151050350,-3.95487662,0.6342437102,-123.2481469,
1152884294,-2.079471254,0.7870937019,-138.3250235,
1154718239,-5.982259488,0.5022119305,-140.0415318,
1156552184,-1.835476119,0.8095174112,-129.6053098,
1158386128,-1.725161486,0.8198642051,-144.7734906,
1160220073,-1.371093278,0.8539753522,-142.083444,
1162054018,-1.071193246,0.8839757224,-152.148609,
1163887962,-1.691994615,0.8230008225,-162.7042376,
1165721907,-1.477470702,0.8435803694,-148.6853349,
1167555851,-1.304480678,0.860549717,-160.0173911,
1169389796,-0.9234719903,0.8991380993,-165.1001414,
1171223741,-3.230884432,0.6893753946,-179.6429336,
1173057685,-1.01323474,0.889893968,-166.0741398,
1174891630,-1.006610859,0.8905728622,-174.7550312,
1176725575,-2.046803627,0.7900595347,169.1516091,
1178559519,-2.417144009,0.7570817888,-160.6896855,
1180393464,-1.292887721,0.8616990496,-177.0089564,
1182227409,-2.648684349,0.7371668255,174.959908,
1184061353,-3.52656353,0.6663030841,178.5935006,
1185895298,-1.707102643,0.8215705589,-176.5240365,
1187729243,-2.944263657,0.7125031967,-177.3655205,
1189563187,-0.954789963,0.8959019912,177.9110166,
1191397132,-1.099767594,0.8810724473,170.2786454,
1193231077,-1.512126889,0.8402212393,161.3477987,
1195065021,-2.507812174,0.7492200504,169.3744142,
1196898966,-6.48878656,0.4737624893,165.6664816,
1198732910,-1.542936823,0.8372461494,171.5871575,
1200566855,-1.368806735,0.8542001891,157.2387683,
1202400800,-4.126830344,0.6218111178,121.2615854,
1204234744,-4.493375472,0.5961166146,-168.3434206,
1206068689,-15.37166174,0.1703793327,-169.6408272,
1207902634,-1.732826764,0.8191409959,-176.6790154,
1209736578,-3.441710093,0.6728441725,178.9042328,
1211570523,-1.17659999,0.8733131518,174.8167302,
1213404468,-1.073989442,0.8836911953,165.6212473,
1215238412,-1.69798519,0.8224334024,158.0857083,
1217072357,-1.416249615,0.8495472126,167.9258623,
1218906302,-1.745345309,0.8179612587,159.0556791,
1220740246,-0.9607035453,0.8952922451,162.1618321,
