Frequency,S11_Magnitude,S11_Magnitude (linear),S11_Phase,
500000000,-0.6124839913,0.9319139234,101.1587418,
501833944,-1.986346143,0.7955778676,90.47798898,
503667889,-0.7445394247,0.9178527824,106.9717948,
505501833,-0.602345734,0.9330022977,101.8653863,
507335778,-0.5835871768,0.9350194417,98.97039705,
509169723,-0.5776525291,0.9356585135,96.46808455,
511003667,-0.5853983365,0.9348244941,93.9761252,
512837612,-0.5954548573,0.9337427809,91.29136352,
514671557,-0.6252301978,0.9305473788,87.90502772,
516505501,-0.8251993358,0.9093687655,80.3016996,
518339446,-1.02858784,0.8883223889,100.6312842,
520173391,-0.7644678597,0.9157493246,88.9457037,
522007335,-0.6107701794,0.9320978174,85.12403667,
523841280,-0.6259732852,0.9304677728,81.76341722,
525675225,-0.6504203515,0.9278525858,77.78033066,
527509169,-0.80992053,0.910969787,71.09267806,
529343114,-6.629921312,0.4661266507,70.3070977,
531177059,-1.091609864,0.8819003334,87.47095137,
533011003,-0.7267910973,0.9197301959,80.0394173,
534844948,-0.6608407425,0.9267401161,76.00069541,
536678892,-0.6372658969,0.9292588484,72.85029954,
538512837,-0.6309788435,0.9299317116,69.92995595,
540346782,-0.6348396656,0.9295184548,67.05429587,
542180726,-0.6502219766,0.9278737771,64.01707757,
544014671,-0.6828669536,0.924393009,60.5727889,
545848616,-0.7848069277,0.9136074947,56.05938903,
547682560,-1.34708591,0.8563389627,48.08818066,
549516505,-5.262521566,0.5455994473,68.27583358,
551350450,-1.007180287,0.8905144801,61.71244406,
553184394,-0.8618220056,0.9055426288,53.22450522,
555018339,-1.187663699,0.8722014715,42.27254959,
556852284,-1.775856681,0.8150930047,53.31280514,
558686228,-6.555466275,0.4701394406,24.43074333,
560520173,-2.165914422,0.779299287,68.9751212,
562354118,-1.163881831,0.8745928215,57.77088018,
564188062,-0.9427633712,0.8971433275,51.7976384,
566022007,-0.8600934802,0.9057228532,47.25041652,
567855951,-0.8198781556,0.9099260368,43.17659071,
569689896,-0.8008901019,0.9119173842,39.00722909,
571523841,-0.8179646874,0.9101265121,33.99587274,
573357785,-1.706880836,0.8215915391,33.62890568,
575191730,-0.9311202431,0.8983467228,25.00150869,
577025675,-1.30343277,0.8606535441,10.85217088,
578859619,-10.47366959,0.2994446239,-48.77599431,
580693564,-2.069994624,0.7879529192,57.66548075,
582527509,-1.172315924,0.8737439946,38.65451104,
584361453,-1.030611867,0.8881154119,28.70301838,
586195398,-1.092656023,0.8817941207,17.68019661,
588029343,-5.08095066,0.557124769,-17.21709432,
589863287,-2.569262109,0.7439382599,62.98719483,
591697232,-1.008161151,0.8904139234,35.4154517,
593531177,-0.9153488739,0.8999793741,27.06234745,
595365121,-0.9000663319,0.9015642526,21.78922749,
597199066,-0.8948171171,0.9021092669,18.10681716,
599033011,-0.8689941906,0.9047952052,13.77053311,
600866955,-0.8881384578,0.9028031737,10.12649301,
602700900,-0.9100439895,0.900529202,6.426768676,
604534844,-0.9763623604,0.8936796773,1.996894551,
606368789,-3.425460284,0.6741041267,7.019951719,
608202734,-0.9203077357,0.8994657135,0.03003935446,
610036678,-0.9302174603,0.8984400989,-4.402752426,
611870623,-0.9518617425,0.8962040721,-8.262807189,
613704568,-0.9964996742,0.8916101756,-11.76129746,
615538512,-1.01844748,0.8893600683,-15.67019985,
617372457,-1.053808024,0.8857468138,-19.73111411,
619206402,-1.088048989,0.8822619522,-24.22492122,
621040346,-1.578403877,0.8338343963,-28.18593562,
622874291,-1.347244638,0.8563233139,-33.47339189,
624708236,-1.498514901,0.8415390143,-39.91338239,
626542180,-1.825916176,0.8104088802,-48.21136908,
628376125,-2.79397261,0.7249388416,-61.16494047,
630210070,-10.13057522,0.3115094593,-63.03993343,
632044014,-3.09554371,0.7002011416,-60.23779733,
633877959,-7.56565624,0.4185209361,-61.84358785,
635711903,-2.027100612,0.7918537347,-8.622282402,
637545848,-1.945252372,0.7993507401,-52.60409115,
639379793,-12.09004612,0.2485980364,-140.2666373,
641213737,-2.154980164,0.780280928,-2.955943863,
643047682,-1.183786455,0.8725908954,-32.95385573,
644881627,-1.246834134,0.8662800108,-50.13798417,
646715571,-1.72101138,0.8202560286,-67.06015242,
648549516,-3.358031561,0.6793575746,-92.00662696,
650383461,-14.05566191,0.198251693,-160.7073017,
652217405,-4.737661006,0.5795847498,4.616473084,
654051350,-1.763866337,0.8162189682,-31.34490484,
655885295,-1.359404615,0.8551253265,-53.05389721,
657719239,-1.433132311,0.847897558,-59.94791306,
659553184,-1.180580845,0.8729129928,-78.5846555,
661387129,-1.61893166,0.8299528431,-104.8520228,
663221073,-4.795973706,0.5757067411,177.5929027,
665055018,-3.09889208,0.6999312693,1.976667052,
666888962,-1.582605152,0.8334311768,-48.96177056,
668722907,-2.319748456,0.765618779,-81.16684678,
670556852,-5.003134007,0.5621384601,-26.41581857,
672390796,-1.389876126,0.852130664,-67.82829371,
674224741,-1.399645056,0.8511728202,-88.76566024,
676058686,-4.510675327,0.5949304992,-135.3966669,
677892630,-2.616173393,0.7399311832,-56.6815155,
679726575,-1.253861139,0.8655794617,-82.04636004,
681560520,-2.182070253,0.7778511307,-93.25079142,
683394464,-1.243243483,0.8666381955,-101.9095215,
685228409,-1.325260958,0.858493383,-113.6991734,
687062354,-3.893757984,0.6387223319,-117.78803,
688896298,-1.448278782,0.846420281,-132.1560592,
690730243,-6.000110406,0.5011808631,-168.8844517,
692564188,-1.896527586,0.8038474173,-128.1808496,
694398132,-2.138395958,0.7817721629,-158.4395759,
696232077,-5.670409211,0.520570483,141.8567914,
698066022,-4.181432696,0.6179144697,-65.13606952,
699899966,-1.655415586,0.8264740477,-119.942007,
701733911,-1.653303566,0.8266750336,-147.291221,
703567855,-3.002843581,0.7077140555,-176.1653852,
705401800,-11.08040753,0.2792412823,-123.8603042,
707235745,-2.510371614,0.7489993129,-165.9983319,
709069689,-3.451224374,0.6721075613,142.844185,
710903634,-6.557639882,0.4700218049,7.494880787,
712737579,-2.271667899,0.7698685969,-102.3570604,
714571523,-1.385713866,0.852539101,-141.5466497,
716405468,-1.46383016,0.8449061903,-167.7644633,
718239413,-5.376328591,0.53849735,-163.0646882,
720073357,-1.976290931,0.7964994009,169.2722264,
721907302,-2.14184013,0.7814622321,149.6351506,
723741247,-5.884754407,0.5078813667,-164.1466251,
725575191,-1.663415544,0.8257131913,151.3951989,
727409136,-1.42049009,0.8491325625,130.4687282,
729243081,-1.544321845,0.8371126557,108.3136072,
731077025,-1.829662055,0.8100594583,82.38491396,
732910970,-2.229266444,0.7736360125,53.48346607,
734744914,-2.494779725,0.750345036,8.619702923,
736578859,-2.681287206,0.7344050249,-46.22686563,
738412804,-2.434337119,0.7555846806,-103.1678077,
740246748,-2.100906004,0.7851537329,-152.4363545,
742080693,-2.48703264,0.7510145793,160.1490253,
743914638,-2.063868186,0.7885088838,147.2033486,
745748582,-2.366483268,0.7615103959,106.2791182,
747582527,-5.2649555,0.5454465825,40.00266879,
749416472,-4.577008085,0.590404414,155.1905454,
751250416,-19.40575555,0.1070809517,43.24067891,
753084361,-1.688456453,0.8233361368,88.12591702,
754918306,-1.626583768,0.8292219919,53.61022801,
756752250,-1.696880447,0.8225380129,26.26622051,
758586195,-1.768833462,0.8157523375,0.5508287356,
760420140,-1.85660931,0.8075502102,-25.0156012,
762254084,-1.987909179,0.7954347153,-52.60415421,
764088029,-2.128372413,0.7826748512,-86.03227832,
765921973,-4.648990159,0.5855318076,-162.7623255,
767755918,-4.429723108,0.6005011516,-13.53734978,
769589863,-3.303514727,0.6836349599,-73.56503007,
771423807,-2.270210995,0.7699977396,-108.4451357,
773257752,-2.05128776,0.7896517679,-111.6099408,
775091697,-1.545837631,0.8369665828,-133.8822573,
776925641,-1.451749606,0.8460821246,-153.0395506,
778759586,-1.425865012,0.8486072726,-171.5980092,
780593531,-1.576152544,0.8340505495,166.340182,
782427475,-2.955087531,0.7116158676,160.8226442,
784261420,-4.312661295,0.6086490314,111.7041052,
786095365,-4.146244114,0.6204228642,-172.9215299,
787929309,-1.719561647,0.8203929462,136.4482253,
789763254,-1.768791278,0.8157562993,102.725095,
791597199,-4.977910777,0.5637732443,44.62173367,
793431143,-3.199782483,0.6918482963,64.15164346,
795265088,-3.999602889,0.630986192,3.930208618,
797099033,-8.884341261,0.3595695752,-56.70526445,
798932977,-10.11294247,0.3121424799,81.22927919,
800766922,-3.50036307,0.6683159814,-73.59129292,
802600866,-3.180086691,0.6934188852,-127.0305913,
804434811,-2.208423202,0.7754947105,-158.1515791,
806268756,-1.993067469,0.7949624707,173.6682813,
808102700,-2.143546259,0.7813087482,144.6130156,
809936645,-4.502842956,0.5954672108,174.4434411,
811770590,-1.695944266,0.8226266724,128.277674,
813604534,-1.811423245,0.811762225,103.3721709,
815438479,-2.486574114,0.7510542263,78.25936082,
817272424,-2.551641951,0.7454489416,52.01510286,
819106368,-2.77091677,0.7268656767,2.427968704,
820940313,-4.237016042,0.6139728937,-85.43243949,
822774258,-5.645080444,0.5220907248,149.335389,
824608202,-11.46304508,0.2672069476,88.72832442,
826442147,-8.623139205,0.3705467766,-32.60289974,
828276092,-4.177937458,0.6181631711,-127.2963935,
830110036,-2.344654441,0.7634265824,178.1017276,
831943981,-2.696137857,0.7331504528,154.4173442,
833777925,-1.636815732,0.8282457449,129.4512737,
835611870,-1.406710827,0.8504806922,108.461709,
837445815,-1.380045333,0.8530956616,88.61977701,
839279759,-1.568585135,0.834777516,66.26697796,
841113704,-2.827367945,0.7221569625,28.80388101,
842947649,-9.389182452,0.339266421,171.132717,
844781593,-2.318885949,0.7656948086,76.4617719,
846615538,-1.839462362,0.809145982,48.72293049,
848449483,-1.762496007,0.8163477491,20.1160453,
850283427,-1.935440766,0.8002541992,-8.883558749,
852117372,-2.620181689,0.7395898043,-52.83318182,
853951317,-4.756673654,0.5783174773,-128.5408543,
855785261,-9.05985289,0.3523768391,82.23017637,
857619206,-11.80494521,0.2568932776,-88.22606448,
859453151,-8.887309118,0.3594467358,96.43996867,
861287095,-11.7154088,0.259555096,-13.8892557,
863121040,-3.172709731,0.6940080588,-96.62347503,
864954984,-2.429753916,0.7559834782,-173.8502365,
866788929,-3.083760899,0.7011516414,141.3893077,
868622874,-2.707358364,0.7322039742,94.27359824,
870456818,-7.751238774,0.4096736784,20.46070886,
872290763,-9.927988067,0.3188604074,60.22198823,
874124708,-10.80644061,0.2881893778,88.82540717,
875958652,-2.931166869,0.713578336,33.69264537,
877792597,-7.601916609,0.4167774081,-39.06507201,
879626542,-6.066119361,0.497386544,156.4264456,
881460486,-4.08438382,0.624857244,11.39150078,
883294431,-8.577003295,0.3725202067,-128.503591,
885128376,-3.826042364,0.6437213032,176.5557992,
886962320,-2.938421345,0.7129826025,109.8294521,
888796265,-2.52605423,0.7476481938,49.81153565,
890630210,-5.534819788,0.5287605073,-16.02590936,
892464154,-6.704184431,0.4621583228,-106.3482922,
894298099,-5.053585004,0.5588828073,159.1073147,
896132044,-7.711439135,0.4115551525,124.2138682,
897965988,-6.974477009,0.4479980767,50.65140378,
899799933,-9.604382648,0.3309640845,-126.3358447,
901633877,-3.395715869,0.6764165213,142.0016162,
903467822,-4.162836118,0.6192388481,139.4271565,
905301767,-1.968295646,0.7972329091,102.0232042,
907135711,-1.672446187,0.8248551507,85.61642681,
908969656,-1.761542597,0.8164373608,71.92758665,
910803601,-1.742968315,0.8181851339,57.87683343,
912637545,-2.417944055,0.7570120581,46.31703595,
914471490,-1.786394025,0.8141047689,45.99951515,
916305435,-1.486343814,0.8427190458,26.95239444,
918139379,-1.713414077,0.8209737974,3.91615697,
919973324,-10.4279073,0.3010264348,-59.26568093,
921807269,-7.786604401,0.4080090347,46.02530468,
923641213,-6.183946483,0.49068488,46.25050802,
925475158,-4.732038397,0.5799600521,-11.72129453,
927309103,-1.801911729,0.8126516352,14.52932761,
929143047,-2.19181058,0.77697934,-37.49075286,
930976992,-6.383282466,0.4795521878,-155.303053,
932810936,-16.83122592,0.144025272,92.77099313,
934644881,-1.994890725,0.7947956175,56.47660265,
936478826,-1.35924825,0.8551407208,25.34654015,
938312770,-1.589466938,0.8327730326,6.117331136,
940146715,-1.705053119,0.8217644397,-17.51523571,
941980660,-4.721795372,0.580644386,-47.03539773,
943814604,-4.225307356,0.6148010948,0.4335494866,
945648549,-11.88249371,0.2546099166,-56.22850262,
947482494,-3.848563439,0.6420544022,-33.31521758,
949316438,-3.55079718,0.664446688,-48.53781092,
951150383,-7.537510665,0.4198793022,-92.00614384,
952984328,-12.94242385,0.2253610241,59.43958676,
954818272,-4.183896035,0.6177392525,-98.57785334,
956652217,-7.541908263,0.4196667744,137.6538994,
958486162,-12.92214687,0.2258877379,173.5802847,
960320106,-4.082935514,0.6249614429,141.784637,
962154051,-2.307094342,0.7667349902,79.4827034,
963987995,-1.723233978,0.8200461634,48.53700062,
965821940,-1.44903482,0.84634661,28.80649454,
967655885,-1.289037527,0.8620810996,13.99856489,
969489829,-1.195013785,0.8714637182,1.591348968,
971323774,-1.157752245,0.8752102349,-9.900979143,
973157719,-1.133638049,0.8776434128,-20.89047212,
974991663,-1.931307993,0.8006350532,-28.00772038,
976825608,-5.449059495,0.5340070925,-28.77862208,
978659553,-2.036004782,0.7910423973,-41.26802279,
980493497,-1.330592093,0.8579666275,-48.43620932,
982327442,-1.5146705,0.8399752216,-67.58749142,
984161387,-2.683142205,0.7342481987,-70.97935864,
985995331,-2.694212637,0.733312973,-122.0733693,
987829276,-6.844953096,0.4547286789,115.6718092,
989663221,-3.237141526,0.688878965,1.61057418,
991497165,-2.024885275,0.7920557229,-42.20134571,
993331110,-2.049000737,0.7898597131,-77.58967208,
995165055,-11.22196748,0.2747271787,-157.2873028,
996998999,-5.983559619,0.5021367635,-105.4435428,
998832944,-6.092189243,0.4958959231,-100.231237,
1000666888,-5.527209039,0.5292240208,41.35984504,
1002500833,-5.001053269,0.5622731387,-88.70197469,
1004334778,-6.182512856,0.4907658754,94.00862877,
1006168722,-2.566736357,0.7441546196,1.201093385,
1008002667,-13.20537067,0.2186409303,-120.0074328,
1009836612,-8.722589554,0.3663283437,1.867645341,
1011670556,-5.875526041,0.5084212545,23.13478686,
1013504501,-2.519424398,0.7482190823,-26.01667563,
1015338446,-3.239183672,0.6887170212,-46.4119303,
1017172390,-8.337326596,0.3829425899,-6.95399518,
1019006335,-2.028030942,0.7917689253,-14.94795338,
1020840280,-1.987149969,0.7955042451,-42.84668369,
1022674224,-1.228978838,0.8680626256,-43.43616881,
1024508169,-1.175385565,0.8734352632,-55.45402569,
1026342114,-1.251152928,0.8658493866,-65.63802199,
1028176058,-1.39133292,0.8519877569,-76.38603232,
1030010003,-1.970469561,0.7970334016,-92.89881933,
1031843947,-2.950828208,0.7119649102,-67.10230892,
1033677892,-2.040272506,0.7906538221,-82.38860526,
1035511837,-7.133714079,0.439859824,-86.89818131,
1037345781,-2.426692493,0.7562499786,-97.71889978,
1039179726,-19.41237507,0.1069993764,-69.02561722,
1041013671,-2.803219225,0.7241675143,-74.03584346,
1042847615,-3.9277659,0.6362264278,-131.9749758,
1044681560,-5.474382412,0.5324525109,-69.11259012,
1046515505,-1.372282772,0.8538584121,-78.74741679,
1048349449,-2.253398268,0.7714896188,-105.8861955,
1050183394,-1.690834369,0.8231107648,-94.35727044,
1052017339,-4.123550056,0.6220459935,-108.9101637,
1053851283,-1.499802767,0.8414142476,-122.6354596,
1055685228,-2.454829446,0.7538041563,-149.814149,
1057519173,-4.146108858,0.6204325254,173.476581,
1059353117,-6.970975801,0.4481786973,-1.711076546,
1061187062,-4.950360061,0.565564312,-104.4862765,
1063021007,-2.79552297,0.7248094575,-110.1880395,
1064854951,-12.61920284,0.2339051899,27.30551403,
1066688896,-17.64057726,0.1312112694,-29.60188059,
1068522840,-4.457245964,0.5986013636,-48.45575903,
1070356785,-2.859545216,0.7194866486,-79.00496145,
1072190730,-1.495766818,0.8418053065,-89.34483029,
1074024674,-1.658506145,0.8261800291,-105.7865771,
1075858619,-2.969090166,0.7104695867,-122.0661684,
1077692564,-4.784063647,0.5764966894,-130.2967986,
1079526508,-12.39128323,0.2401241488,137.8268039,
1081360453,-2.793072208,0.7250139945,-80.32456123,
1083194398,-6.039518922,0.4989121195,-128.1289046,
1085028342,-3.477798969,0.6700543817,-124.6073421,
1086862287,-17.50479291,0.1332785793,-122.2618045,
1088696232,-3.1176868,0.69841838,-109.6180171,
1090530176,-2.723846369,0.7308153852,-112.9928284,
1092364121,-2.106851483,0.7846164802,-132.9514548,
1094198066,-7.02938808,0.4451748243,-175.7043278,
1096032010,-4.224545759,0.6148550043,-160.1095333,
1097865955,-8.987140987,0.3553390612,-72.2634403,
1099699899,-4.076710804,0.6254094797,-148.7932489,
1101533844,-17.22233275,0.1376839644,136.3825457,
1103367789,-8.030687549,0.3967031258,-96.66838505,
1105201733,-4.708986352,0.5815012899,-110.6813681,
1107035678,-11.60236943,0.2629550577,-79.27464369,
1108869623,-2.563008527,0.7444740662,-89.82245029,
1110703567,-1.857605179,0.8074576269,-125.8290532,
1112537512,-3.907291119,0.6377279392,-142.3255397,
1114371457,-7.526980781,0.4203886295,-122.5485777,
1116205401,-4.312318445,0.6086730565,178.652404,
1118039346,-5.001515472,0.5622432192,-70.24449907,
1119873291,-8.419392586,0.3793415118,-113.5149558,
1121707235,-2.822459413,0.7225651801,-99.95932903,
1123541180,-1.630544786,0.8288439289,-125.8679254,
1125375125,-4.259827252,0.6123625705,-156.0802676,
1127209069,-3.933810199,0.6357838473,-122.4801129,
1129043014,-1.439041972,0.8473208659,-126.5299035,
1130876958,-2.641632529,0.7377655527,-119.0744503,
1132710903,-1.317418211,0.8592688922,-139.597475,
1134544848,-1.373563576,0.8537325132,-156.1201625,
1136378792,-12.40797827,0.2396630526,-178.0009959,
1138212737,-1.827028044,0.8103051475,-140.9576618,
1140046682,-2.160034123,0.779827047,-151.0022457,
1141880626,-2.160779727,0.7797601088,-176.5714636,
1143714571,-7.926028645,0.4015120353,-165.9774031,
1145548516,-9.231674515,0.3454747206,-46.61377798,
1147382460,-3.352576352,0.6797843819,-152.9953174,
1149216405,-11.01161482,0.2814616692,139.343458,
1151050350,-3.034996074,0.7050991584,-117.0916359,
1152884294,-2.11060752,0.784277262,-119.6309425,
1154718239,-2.322787078,0.7653509861,-134.2826118,
1156552184,-1.381028186,0.8529991348,-137.1541174,
1158386128,-1.053477602,0.8857805094,-149.4368385,
1160220073,-1.814618822,0.811463629,-146.25529,
1162054018,-2.008667995,0.7935359384,-151.3496535,
1163887962,-1.128665506,0.8781459945,-155.3204317,
1165721907,-1.056558905,0.8854663361,-152.5019904,
1167555851,-0.7549309812,0.9167553455,-160.4569508,
1169389796,-0.9812980423,0.8931719958,-165.6271215,
1171223741,-0.869769217,0.9047144756,-171.5650004,
1173057685,-2.937624212,0.7130480383,-169.4883114,
1174891630,-2.030544187,0.7915398616,-165.4147254,
1176725575,-2.136455211,0.781946859,-163.0366069,
1178559519,-0.8226124093,0.909639644,-173.143603,
1180393464,-0.9024493465,0.9013169381,-179.8680685,
1182227409,-1.096093807,0.8814451849,-178.6917173,
1184061353,-1.251424252,0.8658223402,175.6559336,
1185895298,-0.8865687725,0.90296634,169.4696847,
1187729243,-2.344443386,0.7634451329,159.1390623,
1189563187,-1.554634142,0.8361193859,165.3750765,
1191397132,-10.22124586,0.3082745745,132.2696983,
1193231077,-2.39915203,0.7586516356,-162.5328076,
1195065021,-0.9883198071,0.8924502379,178.7230834,
1196898966,-0.9523759028,0.8961510229,169.5032399,
1198732910,-0.9528808821,0.8960989241,162.8756362,
1200566855,-1.299989242,0.8609948186,154.5954375,
1202400800,-3.119615831,0.6982632869,147.9475708,
1204234744,-5.081997751,0.5570576112,149.323821,
1206068689,-5.255158668,0.5460621398,169.8941491,
1207902634,-2.583927411,0.7426832503,175.1468352,
1209736578,-6.373681959,0.4800825295,-171.9282952,
1211570523,-1.960386342,0.7979591939,-178.9895372,
1213404468,-1.141704723,0.8768287148,166.2111046,
1215238412,-1.427191353,0.8484776996,156.4239549,
1217072357,-1.89471189,0.8040154708,148.049462,
1218906302,-2.089803991,0.7861579316,136.6032995,
