Frequency,S11_Magnitude,S11_Magnitude (linear),S11_Phase,
500000000,-0.6210797145,0.9309921397,101.1477679,
501833944,-1.821294122,0.8108402407,111.0006417,
503667889,-0.7395194402,0.918383406,100.7538663,
505501833,-1.450423793,0.8462112804,92.74731565,
507335778,-0.9478417663,0.8966189464,105.8522219,
509169723,-0.6208863149,0.9310128694,99.52802613,
511003667,-0.5921509911,0.9340980177,96.03432126,
512837612,-0.59519698,0.9337705034,92.72665974,
514671557,-0.6472984741,0.928186134,88.12189363,
516505501,-3.95143855,0.6344948078,63.92593546,
518339446,-0.7189450169,0.9205613758,96.02439921,
520173391,-0.6126793398,0.9318929646,90.50884794,
522007335,-0.5950786917,0.93378322,87.40310168,
523841280,-0.5905220696,0.9342732116,84.77037885,
525675225,-0.6282749323,0.9302212437,82.53771808,
527509169,-0.6070442009,0.9324977444,80.46270499,
529343114,-0.6051728116,0.9326986742,78.20728983,
531177059,-0.6141824503,0.9317317126,75.90708519,
533011003,-0.6255305763,0.9305151988,73.51792808,
534844948,-0.6725177412,0.925495077,70.85715919,
536678892,-0.9761972303,0.8936966675,69.07074014,
538512837,-0.6554344337,0.9273171212,67.44990536,
540346782,-0.6442407775,0.9285129412,63.72547818,
542180726,-0.7265045467,0.9197605386,59.11951366,
544014671,-1.327267724,0.8582950617,50.04674229,
545848616,-3.388637666,0.6769679633,75.83834483,
547682560,-0.95658166,0.8957172065,64.3590698,
549516505,-0.7970417867,0.9123215021,57.81407005,
551350450,-0.7404278198,0.9182873655,52.40487514,
553184394,-0.8585821262,0.9058804636,43.7315882,
555018339,-3.739263876,0.6501847908,9.354655779,
556852284,-1.366573215,0.8544198694,70.58213903,
558686228,-0.81608491,0.9103235007,54.96089138,
560520173,-0.779104025,0.9142075398,47.03519822,
562354118,-0.853909355,0.9063679337,38.83977768,
564188062,-1.36372362,0.8547002264,25.46427914,
566022007,-8.151572533,0.3912202924,-12.58435732,
567855951,-3.085576739,0.7010050765,77.24503398,
569689896,-1.25837011,0.8651302435,56.25272343,
571523841,-0.9825761781,0.8930405744,44.64395022,
573357785,-2.637874722,0.7380848039,32.77157496,
575191730,-2.138001776,0.7818076419,44.960598,
577025675,-1.537724015,0.8377487708,39.00401336,
578859619,-1.576553401,0.8340120586,32.41753341,
580693564,-4.500708443,0.5956135618,26.84823126,
582527509,-1.751892517,0.8173449321,28.65865049,
584361453,-2.332976931,0.7644536409,43.3679641,
586195398,-0.9753032355,0.8937886559,31.84544056,
588029343,-0.9624705162,0.8951101343,24.69333651,
589863287,-1.221075647,0.8688528253,17.44263726,
591697232,-2.893168094,0.716706916,7.75578103,
593531177,-3.474565967,0.6703038312,33.92534279,
595365121,-1.427344795,0.8484627108,25.84888393,
597199066,-1.709415599,0.8213518129,18.48571706,
599033011,-1.122922479,0.8787268082,17.91663479,
600866955,-0.9965137182,0.891608734,13.50435539,
602700900,-0.9634099213,0.8950133307,9.753059757,
604534844,-0.9664385618,0.8947013073,6.265917242,
606368789,-0.9651286128,0.8948362505,2.889954612,
608202734,-0.9782820056,0.8934821894,-0.5435977892,
610036678,-1.009634333,0.8902629164,-4.104737801,
611870623,-1.088847716,0.8821808259,-8.245922647,
613704568,-1.40444294,0.8507027819,-4.127023683,
615538512,-1.045531339,0.8865912341,-13.10222739,
617372457,-1.112437588,0.8797881753,-17.66302531,
619206402,-1.230737354,0.8678868983,-23.19484327,
621040346,-1.547742727,0.8367830291,-29.59717677,
622874291,-2.568748873,0.7439822194,-39.51799328,
624708236,-8.679272644,0.368159802,-25.84984085,
626542180,-1.95651428,0.7983149935,-9.818837973,
628376125,-1.166878467,0.8742911387,-23.56624095,
630210070,-1.127034509,0.8783109042,-32.50161628,
632044014,-1.702359091,0.8220193588,-40.39156206,
633877959,-2.170591038,0.7788798133,-54.45301421,
635711903,-1.615420636,0.8302883958,-38.48715016,
637545848,-1.412974653,0.8498675895,-49.89303145,
639379793,-1.660198067,0.8260191134,-59.39689918,
641213737,-2.882591657,0.717580151,-60.94113307,
643047682,-1.989710921,0.7952697329,-74.59493622,
644881627,-2.748833592,0.7287160255,-91.18111,
646715571,-4.552791602,0.5920527734,-116.4894619,
648549516,-9.210225852,0.3463288792,-170.001949,
650383461,-9.063050516,0.3522471388,70.66964274,
652217405,-4.020647784,0.6294592368,13.05281403,
654051350,-2.196317698,0.7765762691,-15.17703228,
655885295,-1.517268861,0.8397239828,-33.86143248,
657719239,-1.254810195,0.8654848901,-49.24272756,
659553184,-1.323207821,0.8586963343,-67.58641595,
661387129,-5.704155147,0.5185519152,-125.7482697,
663221073,-2.556350227,0.7450449728,-30.96856808,
665055018,-1.59692357,0.8320584233,-55.93657577,
666888962,-1.748459805,0.8176680152,-69.84543239,
668722907,-3.400964565,0.6760079008,-81.87299196,
670556852,-2.797473128,0.7246467414,-61.32392076,
672390796,-1.265949248,0.864375677,-76.19886084,
674224741,-1.153366798,0.8756522342,-87.55762842,
676058686,-1.394043963,0.8517218757,-93.4615175,
677892630,-1.254448558,0.8655209253,-105.8540857,
679726575,-1.745459115,0.8179505415,-121.0031642,
681560520,-3.13482182,0.6970419388,-141.5027917,
683394464,-7.851611114,0.4049668224,-140.4999444,
685228409,-4.626763852,0.5870320426,-56.17564037,
687062354,-1.753471802,0.8171963344,-96.41006008,
688896298,-1.525825155,0.838897195,-119.1562165,
690730243,-5.586304097,0.525635629,-148.3116076,
692564188,-7.518701236,0.4207895426,-119.9019553,
694398132,-2.269788484,0.7700351958,-102.6301852,
696232077,-1.592214027,0.8325096928,-129.6747124,
698066022,-2.829831637,0.7219521568,-146.4083602,
699899966,-4.065474359,0.6262190602,-168.0886074,
701733911,-9.417200704,0.3381738056,-120.3393393,
703567855,-1.698849601,0.8223515588,-134.1725146,
705401800,-1.513027623,0.8401341122,-156.3169498,
707235745,-1.803349981,0.8125170834,-175.6687309,
709069689,-2.760146224,0.7277675527,158.1799155,
710903634,-6.850080501,0.4544603252,102.8959872,
712737579,-9.624582652,0.3301952849,-68.19200736,
714571523,-3.230800057,0.6893820912,-110.617977,
716405468,-1.633184351,0.8285920889,-147.7144086,
718239413,-1.404957052,0.8506524309,-168.3880913,
720073357,-1.403705799,0.8507749811,174.8707045,
721907302,-1.618446829,0.8299991709,158.2716683,
723741247,-2.370517284,0.7611568073,144.3439779,
725575191,-2.179236647,0.7781049312,116.5685728,
727409136,-6.237830453,0.4876502794,32.76479702,
729243081,-11.25768116,0.2735999048,131.9587153,
731077025,-3.420858647,0.6744613502,177.1717101,
732910970,-1.797726642,0.8130432861,139.2136633,
734744914,-1.604638199,0.8313197341,113.9799332,
736578859,-1.631068829,0.828793924,90.42614615,
738412804,-2.030032118,0.7915865275,69.16272017,
740246748,-2.091192476,0.7860322703,42.93967589,
742080693,-2.287396741,0.768475742,13.32472896,
743914638,-2.494008766,0.7504116396,-20.55884742,
745748582,-2.662144296,0.7360253716,-58.63971051,
747582527,-2.881972319,0.7176313191,-100.2649887,
749416472,-2.988635661,0.7088726441,-135.5253451,
751250416,-3.091003276,0.7005672582,179.820773,
753084361,-3.933034136,0.6358406556,133.809976,
754918306,-8.642925959,0.3697036192,74.52157423,
756752250,-2.953822356,0.7117195282,83.30352177,
758586195,-3.306965221,0.6833634379,-9.337463412,
760420140,-3.163979779,0.694705938,-99.27965357,
762254084,-2.52322158,0.7478920573,177.1517169,
764088029,-2.467282341,0.7527242072,106.5553373,
765921973,-2.843332695,0.72083085,45.26685837,
767755918,-5.465262885,0.5330118393,-4.228035248,
769589863,-3.200148113,0.6918191738,-49.61790421,
771423807,-4.296270442,0.6097986772,-62.92941603,
773257752,-3.11117147,0.6989424637,-102.7020793,
775091697,-3.435354693,0.6733366677,-141.4173645,
776925641,-7.104747773,0.4413291476,168.8210896,
778759586,-6.207954638,0.4893304796,-97.8534943,
780593531,-2.127120293,0.7827876863,-153.2908061,
782427475,-1.825848365,0.8104152071,175.9873385,
784261420,-1.548773834,0.8366837,152.0363487,
786095365,-1.915790424,0.8020666871,120.3318469,
787929309,-4.035217682,0.6284042534,73.80545298,
789763254,-10.41506632,0.301471793,-163.7603367,
791597199,-3.75239917,0.6492022876,100.9871939,
793431143,-6.205712616,0.489456803,18.67119258,
795265088,-6.802442139,0.456959692,-157.9831469,
797099033,-5.310806894,0.5425748454,115.7129525,
798932977,-3.145393898,0.6961940465,64.45925025,
800766922,-6.238287532,0.4876246184,-6.749572016,
802600866,-5.746572956,0.5160257244,65.80991622,
804434811,-15.92168428,0.1599247889,-42.11864018,
806268756,-3.285256109,0.6850735412,-16.4900029,
808102700,-2.412371277,0.7574979051,-72.79442637,
809936645,-2.452951069,0.7539671887,-116.7065352,
811770590,-8.219122677,0.3881895733,-155.5989107,
813604534,-2.989550799,0.7087979618,-153.692248,
815438479,-2.769099699,0.7270177514,169.8234844,
817272424,-9.999679666,0.3162394287,116.1774511,
819106368,-5.493088271,0.5313070595,-152.0990206,
820940313,-2.141130498,0.7815260797,163.8806914,
822774258,-1.851373443,0.8080371493,136.8737922,
824608202,-2.030718674,0.7915239609,120.0840092,
826442147,-1.989645012,0.7952757674,92.71324489,
828276092,-2.659412641,0.7362568831,61.97903229,
830110036,-4.649004439,0.585530845,14.75848712,
831943981,-5.036533943,0.5599810143,-55.90845644,
833777925,-3.802380232,0.6454773219,-153.6216462,
835611870,-2.633863214,0.7384257611,149.208486,
837445815,-2.43442355,0.755577162,109.8089187,
839279759,-6.86080118,0.4538997473,62.38628669,
841113704,-4.011395605,0.6301300918,75.37582523,
842947649,-4.053450151,0.6270865594,29.04298843,
844781593,-6.398670898,0.4787033372,-46.13116336,
846615538,-6.596619118,0.4679172372,-136.6688891,
848449483,-3.709442298,0.6524209302,154.0776116,
850283427,-3.081846575,0.7013061885,104.6240747,
852117372,-11.62897639,0.2621507959,-11.71451285,
853951317,-2.948982807,0.7121161901,124.8989721,
855785261,-2.378502367,0.7604573847,90.15080916,
857619206,-2.395350806,0.7589837186,68.80033706,
859453151,-2.961580505,0.7110841113,48.60392626,
861287095,-4.211552216,0.6157754768,23.18382886,
863121040,-13.49171902,0.2115504965,4.808359436,
864954984,-4.059387322,0.6266580658,62.63186102,
866788929,-3.95076309,0.6345441513,13.89043949,
868622874,-2.024163347,0.7921215574,1.167962083,
870456818,-2.613112087,0.7401920149,-37.86179599,
872290763,-4.425402901,0.6007999045,-80.5197739,
874124708,-7.979681426,0.3990395378,-134.563837,
875958652,-15.04824506,0.1768429483,79.41698958,
877792597,-8.499026975,0.3758795093,-56.93374699,
879626542,-5.407257626,0.5365832588,-150.5857281,
881460486,-5.54474698,0.5281565267,156.6503829,
883294431,-7.109980582,0.4410633491,103.0417256,
885128376,-18.17721066,0.123350089,81.50267399,
886962320,-10.10535877,0.3124151324,127.806053,
888796265,-11.4466459,0.2677119177,73.67789035,
890630210,-22.40033854,0.07585480096,-167.8804648,
892464154,-6.583128863,0.4686445349,141.3178206,
894298099,-3.916412017,0.6370586239,96.87702746,
896132044,-4.301351633,0.609442053,50.66098074,
897965988,-11.180479,0.2760425623,76.36544178,
899799933,-6.649556662,0.4650741135,-16.2290952,
901633877,-7.694079148,0.4123785266,-147.2529123,
903467822,-3.667712138,0.6555629382,129.0735329,
905301767,-6.014372243,0.5003586221,141.8728063,
907135711,-2.140896312,0.7815471513,97.79610668,
908969656,-2.089501308,0.786185328,78.36145738,
910803601,-2.610736048,0.7403945232,64.61765702,
912637545,-3.05545028,0.7034406897,48.18051289,
914471490,-1.702767222,0.8219807349,52.83203375,
916305435,-1.38739096,0.8523745065,32.52865205,
918139379,-5.340167614,0.540743888,28.19819892,
919973324,-1.66377393,0.8256791225,29.09013956,
921807269,-1.442109011,0.8470217248,9.566633834,
923641213,-1.919886617,0.8016885283,-15.02991383,
925475158,-8.606355031,0.3712634948,-74.15598261,
927309103,-4.992312786,0.5628392306,54.60942816,
929143047,-14.51071818,0.1881326145,12.50752768,
930976992,-3.029263285,0.7055646857,-0.2733989812,
932810936,-9.08866717,0.3512098127,-92.42906541,
934644881,-4.64748897,0.5856330142,58.20513789,
936478826,-3.729103355,0.6509458045,7.444636187,
938312770,-3.777892199,0.6472996766,21.87881742,
940146715,-2.029476868,0.7916371318,-7.437542869,
941980660,-3.015339238,0.706696659,-32.65046149,
943814604,-3.012840687,0.7068999739,-53.31489292,
945648549,-7.822957812,0.4063049463,-135.8896866,
947482494,-5.780184457,0.5140327352,75.06702492,
949316438,-2.911860531,0.7151661879,24.30374554,
951150383,-2.45662884,0.7536480122,-14.6702714,
952984328,-2.844423651,0.7207403187,-49.94557621,
954818272,-4.117443047,0.622483505,-9.205067023,
956652217,-5.773560885,0.5144248691,-101.3448943,
958486162,-6.334287059,0.4822648918,68.5414054,
960320106,-2.650582417,0.7370057551,-5.974912372,
962154051,-4.274940452,0.6112980035,-58.62251237,
963987995,-4.164784669,0.6190999466,10.50913237,
965821940,-2.051738852,0.7896107592,-40.05900946,
967655885,-2.825127933,0.7223432242,-80.89379433,
969489829,-7.967287442,0.3996093377,-155.8749012,
971323774,-10.43009004,0.3009507971,18.43149734,
973157719,-7.357931482,0.4286505901,-26.24597656,
974991663,-9.008225326,0.3544775486,148.8738584,
976825608,-3.781805726,0.647008094,21.31217459,
978659553,-4.400315053,0.6025377305,-35.59024339,
980493497,-9.779123371,0.3243723532,-88.54491142,
982327442,-16.69541884,0.1462948567,-22.09650038,
984161387,-4.146725492,0.6203884809,-4.317893639,
985995331,-7.368824762,0.4281133412,-87.49658862,
987829276,-3.913602855,0.6372646926,39.86357125,
989663221,-2.099043352,0.7853221238,-11.33990501,
991497165,-3.227805937,0.6896197697,-48.25435978,
993331110,-10.72647636,0.2908547642,18.3220383,
995165055,-2.637519796,0.7381149643,-17.01192244,
996998999,-1.500220005,0.8413738302,-48.83318155,
998832944,-1.968546435,0.7972098908,-82.06962705,
1000666888,-6.669114668,0.4640280849,-176.4991472,
1002500833,-9.727776585,0.3262955649,-22.09983556,
1004334778,-8.58294082,0.3722656453,-123.1575896,
1006168722,-2.752206552,0.7284331008,20.02783928,
1008002667,-1.920018628,0.8016763441,-31.95861342,
1009836612,-3.563026163,0.6635118626,-42.03154044,
1011670556,-2.523583228,0.7478609185,-40.16685811,
1013504501,-4.783416591,0.5765396372,-19.1052324,
1015338446,-1.923436607,0.801360939,-49.3673788,
1017172390,-2.275576278,0.769522258,-74.32934548,
1019006335,-11.29681456,0.2723700009,-99.3721216,
1020840280,-2.417800452,0.7570245738,-43.615259,
1022674224,-1.404074967,0.8507388222,-60.34704046,
1024508169,-1.962902181,0.7977281011,-73.2890196,
1026342114,-1.290912425,0.8618950346,-84.48647543,
1028176058,-2.15947941,0.7798768511,-104.4252701,
1030010003,-4.944923384,0.5659184211,-104.3938,
1031843947,-13.84299703,0.2031655875,159.5319641,
1033677892,-11.45029613,0.2675994358,-52.78335969,
1035511837,-4.784729076,0.5764525255,-98.83873177,
1037345781,-8.813262676,0.3625240859,-34.46829276,
1039179726,-1.913429917,0.8022846891,-70.80038857,
1041013671,-2.605154952,0.7408704147,-103.6384833,
1042847615,-3.279719813,0.6855103391,-93.39433948,
1044681560,-9.291209549,0.3431148562,-80.42528509,
1046515505,-4.015910695,0.6298026233,-79.49958226,
1048349449,-3.926911741,0.6362889965,-101.9130382,
1050183394,-3.075268548,0.7018375052,-123.8404642,
1052017339,-11.20981414,0.2751118474,-61.5476589,
1053851283,-5.959220178,0.5035458152,-69.7769717,
1055685228,-5.338309178,0.5408595981,-119.3109761,
1057519173,-9.861124623,0.321324447,99.06543511,
1059353117,-2.944579766,0.7124772667,-44.67218525,
1061187062,-5.26406899,0.5455022553,-80.18661739,
1063021007,-4.490361031,0.596323533,-81.9382835,
1064854951,-10.43855729,0.3006575648,-68.54781338,
1066688896,-2.582047546,0.7428440048,-85.2543291,
1068522840,-3.052783909,0.7036566632,-121.1123199,
1070356785,-9.835292667,0.3222814928,-123.3491579,
1072190730,-7.687242566,0.4127032336,-8.107325099,
1074024674,-2.840273691,0.7210847576,-60.82054755,
1075858619,-2.046935625,0.7900475284,-81.68636558,
1077692564,-1.371870526,0.8538989386,-89.64145002,
1079526508,-1.361228637,0.8549457705,-105.6508216,
1081360453,-3.250690836,0.6878052052,-123.8051984,
1083194398,-4.316945342,0.6083489081,-141.3517534,
1085028342,-3.313621355,0.6828399663,-110.5871034,
1086862287,-4.905992619,0.5684605999,-91.27850453,
1088696232,-3.062313066,0.7028851156,-89.40430018,
1090530176,-3.530594455,0.6659939397,-98.36760341,
1092364121,-2.175252639,0.778461911,-102.7188094,
1094198066,-1.648369186,0.8271447941,-116.4815861,
1096032010,-1.179825912,0.8729888652,-125.4827653,
1097865955,-2.348124765,0.763121627,-129.4755048,
1099699899,-2.216606041,0.7747644732,-142.8450201,
1101533844,-2.088367998,0.7862879138,-155.6436049,
1103367789,-13.93676621,0.2009840946,-56.80333471,
1105201733,-4.793471935,0.575872584,-150.3820459,
1107035678,-8.494642191,0.3760693076,-140.8248743,
1108869623,-2.52823191,0.747460771,-99.45988661,
1110703567,-1.383076251,0.8527980281,-121.8593519,
1112537512,-2.381495772,0.7601953547,-135.2536863,
1114371457,-1.314116564,0.8595955762,-141.2444273,
1116205401,-4.099845054,0.6237459623,-146.1135927,
1118039346,-1.740693371,0.8183994549,-148.4211427,
1119873291,-5.232448305,0.5474917569,-161.7715349,
1121707235,-3.08356105,0.701167774,-161.6372637,
1123541180,-1.486063709,0.8427462225,-175.702904,
1125375125,-2.286124137,0.7685883427,153.5408331,
1127209069,-4.954091188,0.5653214193,81.19042188,
1129043014,-6.794326986,0.4573868251,-29.74037787,
1130876958,-2.681498287,0.7343871779,-89.65580863,
1132710903,-1.973782644,0.7967294449,-113.7935198,
1134544848,-1.331955812,0.857831934,-133.7250723,
1136378792,-1.387408521,0.8523727831,-148.6284433,
1138212737,-2.331964609,0.7645427416,-168.6200115,
1140046682,-9.278865359,0.3436028299,-162.8435309,
1141880626,-3.800627626,0.645607577,158.6179383,
1143714571,-5.287025761,0.5440623987,-69.07893571,
1145548516,-1.816541604,0.8112840165,-128.2067136,
1147382460,-1.813390509,0.8115783901,-152.7488423,
1149216405,-3.455610482,0.6717682533,166.6784588,
1151050350,-5.295507418,0.5435313882,-86.82130969,
1152884294,-3.015127309,0.706713902,-148.2081321,
1154718239,-3.939872733,0.6353402409,-142.640463,
1156552184,-2.328596414,0.7648392718,-126.0937144,
1158386128,-3.400025143,0.6760810183,-150.1261038,
1160220073,-2.965774632,0.7107408354,-119.9501122,
1162054018,-1.387758318,0.8523384572,-138.4838668,
1163887962,-1.006466101,0.8905877045,-148.5358641,
1165721907,-1.146182147,0.8763768414,-157.8701012,
1167555851,-1.485641361,0.8427872017,-156.5849634,
1169389796,-0.8330248266,0.9085498451,-162.3930061,
1171223741,-0.8391604453,0.9079082819,-169.6993453,
1173057685,-1.070529534,0.884043272,178.675144,
1174891630,-13.62116617,0.2084211038,132.8887911,
1176725575,-1.618433601,0.830000435,-155.1558338,
1178559519,-0.9322143874,0.898233567,-164.4588903,
1180393464,-0.8283139724,0.9090427372,-172.6588775,
1182227409,-1.212642133,0.8696968425,179.9235034,
1184061353,-0.9516825967,0.8962225564,177.9679956,
1185895298,-1.501868803,0.8412141317,169.0578467,
1187729243,-5.775308157,0.5143213967,168.3380849,
1189563187,-3.219399699,0.6902875095,172.8136132,
1191397132,-1.693389484,0.8228686673,177.0226902,
1193231077,-1.266591047,0.8643118108,168.6327697,
1195065021,-1.149687119,0.876023273,158.2923298,
1196898966,-2.73039683,0.7302644487,128.6520939,
1198732910,-5.142998625,0.5531591094,-168.5658392,
1200566855,-3.450317111,0.6721777683,178.5438977,
1202400800,-4.055368651,0.6269480667,164.7503557,
1204234744,-1.453025927,0.8459578088,177.7717064,
1206068689,-2.324615436,0.7651898986,163.8558349,
1207902634,-6.60444796,0.4674956799,159.7605681,
1209736578,-3.869391971,0.6405166174,166.945526,
1211570523,-1.598671484,0.831891,174.9702469,
1213404468,-1.680978752,0.8240452539,171.528317,
1215238412,-2.232743879,0.7733263458,164.5829654,
1217072357,-1.547650683,0.8367918965,165.5565136,
1218906302,-2.209652126,0.7753849972,163.2099406,
