Frequency,S11_Magnitude,S11_Magnitude (linear),S11_Phase,
500000000,-0.6054665588,0.9326671319,103.9230437,
501833944,-0.7237877902,0.9200482646,99.81723591,
503667889,-0.7064419635,0.9218874479,100.914052,
505501833,-0.7007888333,0.9224876451,98.16733084,
507335778,-0.7733892999,0.9148092241,95.45640492,
509169723,-0.9857512921,0.8927141845,92.54504317,
511003667,-1.535275014,0.8379850087,91.71935106,
512837612,-1.179597435,0.8730118289,93.71144085,
514671557,-0.8301735583,0.9088481386,88.03124661,
516505501,-3.184402664,0.6930744146,63.84560026,
518339446,-0.9490865718,0.896490458,99.76284446,
520173391,-0.678317845,0.9248772732,92.09131628,
522007335,-0.6291341773,0.9301292268,88.29732333,
523841280,-0.6051766764,0.9326982592,85.34484443,
525675225,-0.5996710761,0.9332896427,82.69614401,
527509169,-0.5987057305,0.9333933738,80.13937013,
529343114,-0.6098211054,0.9321996697,77.45911665,
531177059,-0.6380153593,0.9291786708,74.41695682,
533011003,-0.7735788817,0.9147892574,69.84071262,
534844948,-3.61288225,0.6597142841,76.6096711,
536678892,-0.7393456684,0.9184017796,74.30152759,
538512837,-0.6386514558,0.9291106264,69.55832985,
540346782,-0.6620501246,0.9266110902,65.57080964,
542180726,-1.016034936,0.8896071263,60.42230192,
544014671,-1.291700539,0.8618168341,64.83604501,
545848616,-0.8536788498,0.9063919871,60.51881536,
547682560,-0.8484414598,0.9069386852,55.85699073,
549516505,-1.099194374,0.881130595,49.52572232,
551350450,-4.286947889,0.6104535246,45.21239029,
553184394,-1.051214791,0.8860112993,55.59978598,
555018339,-1.41681533,0.8494918831,39.82770214,
556852284,-6.91584977,0.451032162,66.97807331,
558686228,-1.431785263,0.848029064,60.40273194,
560520173,-0.9686238218,0.8944762401,50.21741737,
562354118,-0.9191522101,0.8995853817,40.5453938,
564188062,-1.437747282,0.8474471742,20.81895963,
566022007,-6.748141379,0.4598253722,113.5339977,
567855951,-2.952862152,0.7117982114,70.07259259,
569689896,-1.175341652,0.8734396791,56.47492766,
571523841,-1.310626425,0.8599410458,47.34557477,
573357785,-0.9153761072,0.8999765524,46.88175057,
575191730,-0.8246282691,0.9094285552,41.93934823,
577025675,-0.7977639563,0.9122456522,38.02037033,
578859619,-0.7818992661,0.9139133823,34.36056538,
580693564,-0.7735707805,0.9147901106,30.64818551,
582527509,-0.8263762543,0.9092455564,26.68715948,
584361453,-0.8104188597,0.910917524,22.69054436,
586195398,-0.8636784884,0.9053491029,16.03076919,
588029343,-2.714884983,0.7315697694,15.32758787,
589863287,-4.033286043,0.6285440186,-20.48334837,
591697232,-2.030053677,0.7915845628,41.78203282,
593531177,-1.163728391,0.8746082718,26.66173203,
595365121,-1.018754388,0.8893286441,20.14212391,
597199066,-0.9701789452,0.8943161072,15.47509835,
599033011,-0.9525977447,0.8961281351,11.4669974,
600866955,-0.9536855331,0.8960159144,7.623177962,
602700900,-0.9705338909,0.894279562,3.626119741,
604534844,-1.082799493,0.8827953265,-1.368678427,
606368789,-2.106710552,0.7846292109,-1.009803151,
608202734,-1.230669782,0.8678936501,-3.990159001,
610036678,-1.436672912,0.8475520026,-10.26169371,
611870623,-1.160980019,0.8748850574,-14.10477932,
613704568,-1.60728863,0.8310661022,-27.46969025,
615538512,-2.562563128,0.7445122426,5.820289292,
617372457,-1.500807724,0.8413169017,-13.17019633,
619206402,-1.568571766,0.834778801,-20.08401375,
621040346,-1.70925211,0.8213672728,-25.3012471,
622874291,-1.835353593,0.8095288306,-30.50920956,
624708236,-2.013289452,0.793113838,-37.34391234,
626542180,-2.606089102,0.7407907399,-48.00510097,
628376125,-6.015449425,0.5002965739,-69.23147275,
630210070,-4.933195681,0.5666830412,3.404192506,
632044014,-3.898357185,0.6383842163,-49.07793077,
633877959,-1.31582455,0.8594265628,-13.31532965,
635711903,-1.089046358,0.8821606511,-35.12041237,
637545848,-1.451382888,0.8461178469,-51.30123653,
639379793,-4.00518501,0.6305808092,-21.38248214,
641213737,-1.832283492,0.809815016,-50.75393012,
643047682,-2.347967751,0.7631354221,-62.73658792,
644881627,-3.478040029,0.6700357859,-72.87945414,
646715571,-5.540109556,0.5284385865,-78.08145355,
648549516,-7.103619483,0.4413864796,-69.44048921,
650383461,-6.124803994,0.4940373691,-65.40000002,
652217405,-5.7581845,0.5153363474,-76.0522355,
654051350,-7.457575775,0.423761221,-87.0222883,
655885295,-7.629513806,0.4154553058,-106.8489365,
657719239,-10.81869909,0.2877829401,101.8433437,
659553184,-3.969618979,0.6331681361,3.310735942,
661387129,-2.678139774,0.7346711932,-30.29552813,
663221073,-3.17720478,0.6936489944,-51.67253177,
665055018,-6.121206961,0.4942420041,-39.03775767,
666888962,-1.938354318,0.7999858109,-57.65362593,
668722907,-1.78939199,0.8138238262,-54.77726844,
670556852,-1.116088524,0.8794184521,-71.73784081,
672390796,-1.250240316,0.8659403647,-89.54272676,
674224741,-10.88950628,0.2854464761,-166.4991769,
676058686,-1.568722554,0.8347643092,-68.54908524,
677892630,-1.318883902,0.859123908,-89.22591217,
679726575,-1.559518564,0.8356493348,-105.1336446,
681560520,-7.649837019,0.4144843613,-143.3563027,
683394464,-1.776648319,0.8150187199,-93.96077348,
685228409,-2.750112638,0.7286087259,-110.2269063,
687062354,-2.800084789,0.7244288884,-137.5711259,
688896298,-9.520722267,0.3341672515,157.5499574,
690730243,-4.400733056,0.6025087345,-90.29459125,
692564188,-5.288471988,0.5439718182,-72.05212067,
694398132,-1.873398973,0.8059907384,-104.6021167,
696232077,-1.692959377,0.822909415,-121.7304625,
698066022,-1.979021617,0.7962490353,-137.2356153,
699899966,-3.965129135,0.6334955131,-154.801546,
701733911,-4.383907433,0.6036769983,-135.1699382,
703567855,-4.96481337,0.5646239963,-165.3086871,
705401800,-8.717905011,0.3665259681,-107.1470773,
707235745,-2.073601836,0.7876257536,-134.0512519,
709069689,-1.559216636,0.8356783831,-158.8994337,
710903634,-3.11948628,0.6982737017,178.4770861,
712737579,-8.210123507,0.3885919724,162.1017383,
714571523,-7.766835338,0.4089387198,-127.8610501,
716405468,-2.332721167,0.7644761513,-153.5220864,
718239413,-1.347711857,0.856277253,-173.818251,
720073357,-1.201516912,0.8708114973,168.3983379,
721907302,-1.287824857,0.8622014664,151.1570962,
723741247,-1.616561304,0.8301793659,129.8437736,
725575191,-2.780972894,0.7260246319,96.23527772,
727409136,-9.665403464,0.3286471169,9.777619914,
729243081,-10.73261928,0.2906491357,148.1552977,
731077025,-5.794007647,0.5132153266,-141.7854086,
732910970,-2.309236993,0.766545874,161.0345882,
734744914,-1.82504149,0.810490494,127.807042,
736578859,-1.971777707,0.7969133727,93.79940743,
738412804,-4.225973842,0.6147539217,32.69776483,
740246748,-8.656342477,0.3691330033,-159.2780965,
742080693,-4.078044963,0.6253134237,121.0964959,
743914638,-3.417108778,0.6747525913,82.69609117,
745748582,-9.424022844,0.3379082987,70.08986969,
747582527,-3.423519341,0.6742547784,49.0198565,
749416472,-3.268043644,0.6864324688,21.39167754,
751250416,-3.298889446,0.6839990959,-4.048106496,
753084361,-3.367577852,0.6786113317,-28.9419854,
754918306,-3.659902312,0.6561526459,-51.08113533,
756752250,-3.057983778,0.7032355403,-76.77063254,
758586195,-2.583803971,0.7426938051,-100.9041032,
760420140,-3.363509074,0.6789292918,-133.9702789,
762254084,-5.149887461,0.5527205692,-157.4613955,
764088029,-2.888353022,0.7171043367,-171.7161917,
765921973,-19.736572,0.1030792856,72.22854665,
767755918,-3.162841615,0.6947969755,178.2770692,
769589863,-8.250815222,0.3867757517,67.71385026,
771423807,-6.717386862,0.4614563822,-64.1997318,
773257752,-2.726770416,0.7305694024,-144.7717322,
775091697,-1.863096638,0.8069472913,171.3006791,
776925641,-2.932050753,0.7135057253,133.4105503,
778759586,-4.252884357,0.6128522461,131.4413305,
780593531,-2.164454348,0.779430296,99.54613736,
782427475,-3.157605189,0.6952159711,66.98348555,
784261420,-3.344572351,0.6804110883,21.66495847,
786095365,-5.026487601,0.5606290787,-73.84245123,
787929309,-5.933166033,0.505058516,134.3891271,
789763254,-5.595896713,0.5250554423,50.43124379,
791597199,-6.902854082,0.4517074942,-11.2679887,
793431143,-18.50185428,0.1188248531,-42.52519634,
795265088,-23.5519368,0.06643595163,18.21419947,
797099033,-5.057158056,0.558652951,-38.48988695,
798932977,-5.922201297,0.5056964852,-111.0696752,
800766922,-3.556270436,0.6640281308,-105.080629,
802600866,-4.972090459,0.5641511491,-173.5255225,
804434811,-10.30878907,0.3051831464,-132.0321325,
806268756,-4.975197232,0.5639493993,-171.2747656,
808102700,-4.69860402,0.5821967799,136.0968085,
809936645,-6.735792469,0.4604795804,41.77156129,
811770590,-6.168310853,0.4915689665,-65.42228207,
813604534,-3.275750215,0.6858237005,-125.083224,
815438479,-2.065371419,0.7883724314,-161.1988074,
817272424,-2.851236543,0.7201752182,160.6936208,
819106368,-5.086884248,0.5567443105,174.6816593,
820940313,-2.669718814,0.7353838015,154.5797537,
822774258,-2.397853852,0.7587650309,130.5696587,
824608202,-3.384231766,0.6773114411,92.43606635,
826442147,-10.48421461,0.2990813067,-100.3920388,
828276092,-3.133759515,0.6971271939,145.8800163,
830110036,-3.980891993,0.6323469095,130.3835208,
831943981,-6.718915321,0.4613751867,93.95187936,
833777925,-18.41611735,0.1200035607,149.4916794,
835611870,-4.051621716,0.627218579,144.6167489,
837445815,-2.664527977,0.7358234109,122.9348082,
839279759,-2.225909215,0.7739350924,108.1028825,
841113704,-1.942846445,0.799572185,96.16423147,
842947649,-1.815406952,0.8113900027,83.1773037,
844781593,-2.450607418,0.7541706537,64.72077166,
846615538,-3.282825325,0.6852652888,87.23270724,
848449483,-1.452362108,0.8460224637,64.2787792,
850283427,-1.887575183,0.8046763566,46.49016679,
852117372,-1.768641246,0.8157703901,37.51356428,
853951317,-1.774448415,0.8152251686,20.36880135,
855785261,-2.583658492,0.7427062446,-6.651418195,
857619206,-15.97089479,0.1590212857,-88.46404842,
859453151,-3.728770242,0.6509707695,35.69027092,
861287095,-2.56814049,0.7440343317,1.3353944,
863121040,-2.764857705,0.7273728973,-28.29581734,
864954984,-10.76154537,0.2896828148,-39.75537788,
866788929,-4.9491645,0.5656421638,-44.22734085,
868622874,-4.665143772,0.5844438748,-76.93357947,
870456818,-7.103085275,0.441413627,-111.2286459,
872290763,-4.263445357,0.6121075442,-103.8389246,
874124708,-4.169583188,0.6187580194,-145.4552704,
875958652,-4.092947506,0.6242414816,179.5344115,
877792597,-11.04999726,0.2802206507,148.4086071,
879626542,-4.47310362,0.597509506,142.5681457,
881460486,-3.130816707,0.6973634229,100.572444,
883294431,-9.768723882,0.3247609521,-5.829459202,
885128376,-9.898263566,0.3199534679,177.3100405,
886962320,-7.668910417,0.4135751912,107.7794312,
888796265,-3.273829205,0.6859753971,83.2672464,
890630210,-7.082385676,0.4424668273,27.74839664,
892464154,-8.205696174,0.3887900943,-13.86640131,
894298099,-28.38797798,0.03807159758,-123.4877756,
896132044,-7.01867097,0.4457244436,-171.0430687,
897965988,-3.294984113,0.6843067035,136.8202978,
899799933,-2.687013364,0.7339210292,104.3356618,
901633877,-2.532026592,0.7471342925,81.85691487,
903467822,-7.751915898,0.4096417428,64.10935057,
905301767,-3.802055306,0.6455014686,63.98698924,
907135711,-11.46582147,0.2671215501,52.73780967,
908969656,-6.310232105,0.4836023413,56.26374049,
910803601,-4.688119819,0.5828999379,81.54047575,
912637545,-2.38836868,0.7595940706,42.29851237,
914471490,-2.781785828,0.7259566846,17.02223642,
916305435,-9.994359047,0.3164332033,-47.26284389,
918139379,-4.224419572,0.6148639368,71.4217632,
919973324,-2.706909382,0.7322418235,27.96324215,
921807269,-8.312326659,0.3840463722,-23.46885057,
923641213,-8.849683846,0.3610071535,42.95627795,
925475158,-2.077075157,0.7873108602,13.73826053,
927309103,-4.371288964,0.6045546303,-51.67229317,
929143047,-11.53660332,0.2649536056,57.78671335,
930976992,-4.404902018,0.602219618,99.63770855,
932810936,-1.891280747,0.8043331398,43.71882662,
934644881,-1.569266863,0.8347119996,16.89217845,
936478826,-2.520907321,0.7480913514,-14.52487411,
938312770,-18.006074,0.1258045359,12.51422234,
940146715,-2.438709978,0.7552043817,5.449046585,
941980660,-2.427558741,0.7561745611,-18.70756936,
943814604,-11.82038936,0.2564369083,-113.5085532,
945648549,-8.549893525,0.3736847061,25.78627403,
947482494,-3.281833765,0.6853435215,-19.81216911,
949316438,-4.475952228,0.59731358,-57.97158298,
951150383,-7.574031458,0.418117579,14.35584628,
952984328,-3.22967335,0.6894715216,-35.29801884,
954818272,-3.760556135,0.6485929045,-89.15222856,
956652217,-9.87953887,0.3206439549,172.1677069,
958486162,-4.55406234,0.591966163,57.44703542,
960320106,-5.302097166,0.5431191822,-16.84419977,
962154051,-11.92200986,0.2534542087,69.70734734,
963987995,-1.934073292,0.8003801982,7.455158356,
965821940,-1.562765815,0.8353369827,-19.58536985,
967655885,-2.627111915,0.7389999419,-35.57511058,
969489829,-2.493570076,0.7504495408,-67.51809106,
971323774,-5.590747519,0.5253667994,-32.72659882,
973157719,-4.705600099,0.5817280363,-68.42032017,
974991663,-3.209903294,0.6910426232,-153.6325434,
976825608,-3.563228782,0.6634963848,111.8447661,
978659553,-2.445206694,0.7546397287,48.01920154,
980493497,-1.953303038,0.7986101913,9.811914339,
982327442,-2.424125837,0.7564734813,-0.7759196707,
984161387,-1.563626126,0.8352542492,-22.27649451,
985995331,-1.712004005,0.8211070855,-41.67859067,
987829276,-1.655795576,0.8264378918,-54.67343866,
989663221,-2.116459333,0.7837490607,-80.99570762,
991497165,-5.366267588,0.5391214614,-142.1906942,
993331110,-4.744212887,0.5791477263,-47.46765674,
995165055,-5.30197942,0.5431265447,-152.7758349,
996998999,-5.288137311,0.5439927785,101.9445382,
998832944,-2.684164488,0.7341617867,23.46521837,
1000666888,-1.942480879,0.7996058375,-17.38494785,
1002500833,-3.14344003,0.6963506712,-61.56069519,
1004334778,-6.447523075,0.4760185162,-35.66700152,
1006168722,-7.5577219,0.418903419,-22.67751047,
1008002667,-4.802523508,0.5752727793,7.972467341,
1009836612,-2.427899272,0.7561449159,-23.03778358,
1011670556,-9.339699563,0.3412047134,-59.3018123,
1013504501,-1.935341178,0.8002633745,-63.1164987,
1015338446,-11.11224068,0.2782197565,-137.543311,
1017172390,-6.346263286,0.4816003964,-57.62493288,
1019006335,-12.79992523,0.2290887372,-48.21418743,
1020840280,-4.920792853,0.5674928019,3.620481906,
1022674224,-1.829013052,0.8101199876,-40.99101879,
1024508169,-4.002856044,0.6307499109,-68.23650279,
1026342114,-4.023803971,0.629230552,-38.65718288,
1028176058,-2.912026502,0.7151525226,-68.23977247,
1030010003,-2.038772379,0.7907903865,-58.68980964,
1031843947,-2.763845606,0.7274576573,-66.08598979,
1033677892,-1.325486054,0.8584711353,-80.44763059,
1035511837,-1.938692162,0.7999546954,-97.60379694,
1037345781,-4.064319365,0.6263023363,-111.0338778,
1039179726,-4.971106086,0.564215088,-139.1357407,
1041013671,-6.958225297,0.4488370871,-9.015945044,
1042847615,-2.669737742,0.7353821989,-59.25328823,
1044681560,-1.224256829,0.8685346687,-77.59215045,
1046515505,-1.064956628,0.8846106601,-92.35130685,
1048349449,-1.091639876,0.8818972863,-105.7862084,
1050183394,-1.560472594,0.8355575548,-122.4372919,
1052017339,-3.344132257,0.680445564,-137.4599676,
1053851283,-18.03838954,0.1253373542,-37.68710944,
1055685228,-2.824496132,0.7223957685,-125.108587,
1057519173,-3.962317446,0.6337006137,-150.9089409,
1059353117,-4.763437659,0.5778672967,124.5564889,
1061187062,-4.429446212,0.6005202952,11.27286557,
1063021007,-6.104055644,0.4952189076,-28.13444543,
1064854951,-2.442168129,0.7549037688,-79.56309037,
1066688896,-7.931803024,0.4012451988,-62.1045855,
1068522840,-7.19626526,0.4367035647,-40.09220763,
1070356785,-2.175053477,0.7784797609,-68.35135263,
1072190730,-1.74072374,0.8183965935,-86.62516491,
1074024674,-2.057243478,0.7891105071,-98.94131558,
1075858619,-2.782850789,0.7258676818,-101.914754,
1077692564,-1.839274845,0.8091634506,-97.65696382,
1079526508,-1.496667359,0.8417180338,-116.3808647,
1081360453,-4.394016452,0.6029748212,-150.5633348,
1083194398,-3.626708148,0.6586650091,-100.0940227,
1085028342,-4.938326062,0.5663484248,-109.1851902,
1086862287,-1.857707951,0.807448073,-110.8392201,
1088696232,-1.982169435,0.7959605222,-105.2263202,
1090530176,-2.907010789,0.7155656105,-117.6234209,
1092364121,-2.32670488,0.7650058496,-136.0380157,
1094198066,-6.923089085,0.4506564028,-125.9351108,
1096032010,-2.177310528,0.7782774972,-122.230537,
1097865955,-1.481321488,0.8432064609,-140.6043177,
1099699899,-2.924772367,0.7141038617,-168.409425,
1101533844,-5.342058554,0.5406261795,-158.1434925,
1103367789,-10.54636561,0.2969488989,-142.7345824,
1105201733,-6.616949583,0.4668232963,-114.8369183,
1107035678,-5.548254586,0.5279432854,-138.0896042,
1108869623,-5.110203772,0.5552515907,-166.1197359,
1110703567,-5.9705729,0.5028880955,-102.3981256,
1112537512,-1.768960319,0.8157404235,-121.0293459,
1114371457,-4.510996383,0.5949085092,-157.9405568,
1116205401,-2.481931801,0.7514557465,-151.9993107,
1118039346,-9.008626607,0.3544611724,140.553962,
1119873291,-3.062451625,0.7028739031,-117.5526953,
1121707235,-4.909452752,0.5682341916,179.4888307,
1123541180,-4.812268505,0.574627723,-168.7551986,
1125375125,-4.499110657,0.5957231361,-95.73661243,
1127209069,-21.93451299,0.0800339682,130.2303082,
1129043014,-3.045261941,0.7042662928,-86.29955372,
1130876958,-1.309097551,0.8600924243,-118.7420207,
1132710903,-1.380808302,0.8530207289,-136.2350233,
1134544848,-1.336505356,0.8573827316,-145.4091108,
1136378792,-1.693019947,0.8229036765,-166.0127273,
1138212737,-3.533845587,0.6657447045,168.0250128,
1140046682,-13.90559708,0.2017066172,-72.00515638,
1141880626,-7.659781256,0.4140101011,-114.6899362,
1143714571,-11.54722017,0.2646299481,-78.78198937,
1145548516,-1.755138494,0.8170395417,-118.1768368,
1147382460,-1.257011649,0.8652655593,-127.8481403,
1149216405,-1.35357851,0.8556990986,-146.6873021,
1151050350,-1.422619875,0.8489243802,-155.9152673,
1152884294,-2.335876812,0.7641984622,-141.3669451,
1154718239,-2.748533258,0.728741223,-169.7035327,
1156552184,-2.208269873,0.7755084001,-141.1592943,
1158386128,-4.568902958,0.5909555995,-154.2619605,
1160220073,-2.983461476,0.7092950454,-154.6752505,
1162054018,-2.276930581,0.7694022835,-177.2567791,
1163887962,-4.365523325,0.6049560631,-124.510607,
1165721907,-1.282536057,0.862726617,-154.2464357,
1167555851,-1.992492429,0.7950151021,-173.5089869,
1169389796,-4.701500971,0.5820026358,178.9699612,
1171223741,-3.25072178,0.6878027549,-144.004614,
1173057685,-1.324923387,0.8585267484,-153.414955,
1174891630,-1.122957005,0.8787233153,-160.8610087,
1176725575,-1.104672518,0.880575046,-170.5729358,
1178559519,-1.828721775,0.810147155,-162.4451639,
1180393464,-0.9571348105,0.8956601657,-173.6563364,
1182227409,-1.102227856,0.8808229205,178.8192184,
1184061353,-1.64165474,0.8277844483,-174.5708087,
1185895298,-1.657807376,0.8262464969,173.025509,
1187729243,-2.534377617,0.7469320917,-170.1702843,
1189563187,-2.596345207,0.7416222307,175.9420034,
1191397132,-1.520060132,0.839454175,174.7937142,
1193231077,-2.183030795,0.7777651156,168.2257216,
1195065021,-2.10925335,0.784399544,-179.4080549,
1196898966,-2.523274633,0.7478874893,162.5001799,
1198732910,-1.2712477,0.8638485627,173.9575729,
1200566855,-1.378467565,0.8532506381,162.9219576,
1202400800,-6.375936962,0.4799579082,161.2428273,
1204234744,-1.613776336,0.8304455901,175.6546797,
1206068689,-1.976574698,0.7964733797,155.2112256,
1207902634,-5.121436427,0.5545339994,130.3258957,
1209736578,-3.300248473,0.6838920832,-172.1285301,
1211570523,-2.134748663,0.7821005059,166.5302698,
1213404468,-2.209680919,0.7753824269,177.3200459,
1215238412,-1.316727366,0.8593372381,164.9665587,
1217072357,-1.715284325,0.8207970441,154.3859449,
1218906302,-3.959320167,0.6339193253,160.0178444,
