Frequency,S11_Magnitude,S11_Magnitude (linear),S11_Phase,
500000000,-0.822560156,0.9096451163,107.7543871,
501833944,-0.6778516139,0.924926919,105.5453328,
503667889,-0.623078683,0.930777906,103.2338843,
505501833,-0.6061537268,0.9325933486,100.8160671,
507335778,-0.633742969,0.9296358249,97.89089456,
509169723,-1.521515211,0.8393135596,93.0162109,
511003667,-0.7103853034,0.9214690118,98.23281424,
512837612,-0.6126539913,0.9318956842,94.64684442,
514671557,-0.6247361406,0.9306003102,91.4850497,
516505501,-0.9403024295,0.8973975479,87.14494666,
518339446,-1.33261592,0.8577667432,92.08058677,
520173391,-0.8210348035,0.9098048755,89.5350741,
522007335,-0.7255384907,0.9198628413,86.94834278,
523841280,-0.6914303853,0.9234820976,84.63682021,
525675225,-0.6832004129,0.9243575213,82.46067189,
527509169,-0.6835301837,0.9243224276,80.33918732,
529343114,-0.696693145,0.9229227315,78.22851843,
531177059,-0.7151867818,0.9209597731,76.13731378,
533011003,-0.7364181155,0.9187113763,74.01090904,
534844948,-0.7417617433,0.9181463516,72.09409799,
536678892,-0.7571692344,0.9165191386,69.53113514,
538512837,-0.8084794734,0.9111209365,66.82536478,
540346782,-1.01858097,0.8893464002,63.39745687,
542180726,-1.461020686,0.8451795216,67.07548044,
544014671,-0.7340014334,0.9189670257,61.93007389,
545848616,-0.8675773225,0.9049428101,55.11804274,
547682560,-3.949019025,0.6346715761,52.91451391,
549516505,-1.303518282,0.8606450711,63.07308115,
551350450,-0.9412506023,0.8972995912,56.38244984,
553184394,-0.951667885,0.8962240744,50.12893278,
555018339,-1.512495556,0.8401855774,38.96934589,
556852284,-5.643226336,0.5222021832,80.12956882,
558686228,-1.008726043,0.8903560167,58.97928469,
560520173,-0.7987953739,0.9121373328,50.51691211,
562354118,-0.8072163941,0.9112534389,44.30092204,
564188062,-0.8191152922,0.9100059572,37.63774302,
566022007,-1.542289193,0.8373085778,25.09536285,
567855951,-2.534340021,0.7469353247,21.83105483,
569689896,-7.186480445,0.4371957965,3.275650569,
571523841,-6.771437828,0.4585937257,80.38661995,
573357785,-2.333568782,0.7644015533,63.55027288,
575191730,-1.474263558,0.8438919072,52.89352968,
577025675,-1.18867027,0.8721004016,46.13152295,
578859619,-1.064407627,0.8846665747,40.95329021,
580693564,-1.005327253,0.8907044813,36.50343375,
582527509,-0.9988451957,0.8913694394,32.2593894,
584361453,-1.154025156,0.8755858656,27.49875293,
586195398,-1.257819418,0.8651850951,24.05184581,
588029343,-1.327808815,0.8582415956,25.31561294,
589863287,-1.037010821,0.8874613721,19.88024483,
591697232,-0.9692892562,0.894407716,14.2027088,
593531177,-1.176122515,0.8733611602,5.198090052,
595365121,-2.182065142,0.7778515884,-15.79204487,
597199066,-6.913858306,0.4511355846,97.07656995,
599033011,-1.211359044,0.8698253246,36.05526886,
600866955,-0.931709051,0.8982858269,23.22341834,
602700900,-0.8792494789,0.9037275587,16.50198839,
604534844,-0.870945768,0.9045919354,11.62717677,
606368789,-0.8772594373,0.9039346372,7.517690909,
608202734,-0.8827343132,0.9033650501,3.756156912,
610036678,-0.9469101379,0.8967151208,0.08011190617,
611870623,-0.9261116631,0.8988648896,-3.09381061,
613704568,-0.9437764454,0.8970386958,-6.582084173,
615538512,-0.9751471444,0.893804718,-10.12974279,
617372457,-1.047392705,0.8864012601,-13.32909764,
619206402,-1.027842949,0.8883985735,-17.13498492,
621040346,-1.081947189,0.8828819552,-21.23842267,
622874291,-1.20756659,0.8702051927,-25.7348894,
624708236,-1.559325097,0.835667948,-30.56604653,
626542180,-2.089586283,0.7861776366,-30.67969822,
628376125,-1.517038925,0.8397462126,-34.10629938,
630210070,-1.498599646,0.8415308038,-42.48046877,
632044014,-2.16925693,0.7789994544,-55.65821566,
633877959,-12.31021824,0.2423757065,-78.05605309,
635711903,-1.925778716,0.801144885,-20.02596341,
637545848,-1.436017614,0.8476159478,-37.8764599,
639379793,-1.399308807,0.8512057715,-47.99872032,
641213737,-1.54355647,0.8371864228,-57.05911494,
643047682,-1.834923626,0.8095689047,-66.80710561,
644881627,-2.379339418,0.7603841037,-79.12711691,
646715571,-3.60130202,0.6605944171,-98.02411123,
648549516,-7.718569669,0.4112174319,-139.9513359,
650383461,-9.68336605,0.3279681707,40.46798414,
652217405,-5.843775293,0.5102831589,-29.05281774,
654051350,-7.799049189,0.4074248746,-26.36470405,
655885295,-2.964732745,0.710826095,-28.93832596,
657719239,-3.176635845,0.6936944306,-42.87431934,
659553184,-1.769385232,0.8157005185,-52.87288176,
661387129,-1.805474211,0.8123183978,-79.61276097,
663221073,-9.826339515,0.3226138621,-63.39758671,
665055018,-4.39571474,0.6028569375,-49.1792727,
666888962,-2.968295825,0.7105345635,-58.3616692,
668722907,-2.221273529,0.7743482542,-64.65301071,
670556852,-1.567317356,0.8348993678,-77.96248994,
672390796,-2.318830068,0.7656997347,-94.21538088,
674224741,-3.19089499,0.6925565651,-80.34554804,
676058686,-2.403927754,0.7582346242,-102.3033893,
677892630,-2.478029577,0.7517934215,-88.98084459,
679726575,-2.462233729,0.75316185,-100.3173397,
681560520,-3.639974307,0.6576597827,-122.9147715,
683394464,-6.298501378,0.4842559116,-89.7631267,
685228409,-4.638729441,0.5862239102,-100.4043815,
687062354,-4.131052158,0.6215089572,-102.149066,
688896298,-3.210007218,0.6910343552,-105.9794436,
690730243,-2.330220271,0.7646962957,-114.6867548,
692564188,-1.928995183,0.8008482683,-128.2302026,
694398132,-4.432743882,0.600292346,-162.5399235,
696232077,-3.913381887,0.6372809047,-138.7352791,
698066022,-3.490354512,0.6690865109,-146.7086655,
699899966,-4.568453952,0.590986149,-114.4606229,
701733911,-2.727316898,0.7305234393,-147.3078073,
703567855,-3.857121389,0.6414221166,-165.8897796,
705401800,-7.108702131,0.4411282728,-178.4689278,
707235745,-10.92225972,0.2843721187,-156.5902702,
709069689,-8.796278465,0.3632336517,-141.5319026,
710903634,-8.680258182,0.3681180314,-123.621161,
712737579,-1.950863962,0.7988344798,-133.3936545,
714571523,-1.334843529,0.8575467859,-157.2062832,
716405468,-1.408379024,0.8503173661,-172.0570745,
718239413,-1.435682006,0.8476486989,174.9920813,
720073357,-1.798536902,0.8129674453,162.5677911,
721907302,-1.568617197,0.8347744347,150.0619191,
723741247,-1.870681535,0.8062429374,129.7356171,
725575191,-4.641598898,0.5860302782,104.843266,
727409136,-7.434340037,0.4248963478,71.82991294,
729243081,-15.88237304,0.1606502287,172.3400236,
731077025,-7.498823116,0.4217536446,156.9807112,
732910970,-4.432256044,0.6003260619,135.9428256,
734744914,-4.622345482,0.5873307321,112.3772111,
736578859,-4.444958871,0.5994487466,93.76591047,
738412804,-4.382884524,0.6037480955,73.225113,
740246748,-4.323836259,0.6078664683,49.64505556,
742080693,-4.069955711,0.6258960553,20.28795979,
743914638,-3.661549879,0.6560281965,-22.84533997,
745748582,-5.235101934,0.5473245181,-96.2861169,
747582527,-9.53714874,0.3335358824,137.2807261,
749416472,-5.506670995,0.5304768673,19.19476729,
751250416,-3.140359419,0.6965976886,-46.10376402,
753084361,-2.304303187,0.7669814152,-92.42519316,
754918306,-2.001170551,0.7942211945,-131.8081708,
756752250,-2.144645091,0.7812099128,-172.5969229,
758586195,-4.161679047,0.6193213441,141.3923964,
760420140,-8.200751716,0.3890114767,31.85493671,
762254084,-5.431447941,0.5350909465,-93.614063,
764088029,-2.821885559,0.7226129196,-147.7171388,
765921973,-1.714076381,0.8209112,175.7666102,
767755918,-1.550673772,0.8365007052,145.2659625,
769589863,-2.597112107,0.7415567538,105.102635,
771423807,-3.404265725,0.675751026,136.9344915,
773257752,-4.364902151,0.6049993282,75.26658235,
775091697,-12.32240479,0.2420358848,89.07772772,
776925641,-5.17327305,0.551234445,70.48729048,
778759586,-8.942401235,0.3571740829,125.6563073,
780593531,-7.533190745,0.4200881807,49.97042903,
782427475,-2.516383839,0.7484810477,37.37998404,
784261420,-2.286652218,0.7685416158,-2.839543574,
786095365,-3.258524481,0.687185166,-41.22453813,
787929309,-4.181528829,0.6179076308,-47.60873196,
789763254,-2.753318421,0.728339861,-87.68029898,
791597199,-3.266453538,0.6865581439,-122.2426244,
793431143,-4.171923469,0.6185913269,-160.2134997,
795265088,-14.71617499,0.1837347279,70.3833776,
797099033,-5.236248642,0.5472522652,-144.2786427,
798932977,-6.744795053,0.4600025586,168.5281868,
800766922,-9.98021961,0.3169487326,140.1417812,
802600866,-18.26876027,0.1220568019,-49.305217,
804434811,-11.15066695,0.2769916342,173.8114934,
806268756,-9.854053837,0.3215861291,173.5365333,
808102700,-7.989356245,0.3985953131,159.5868316,
809936645,-6.202693189,0.4896269797,109.5137293,
811770590,-11.51158251,0.2657179385,6.42193502,
813604534,-22.58266132,0.07427915151,-101.0339199,
815438479,-7.779931201,0.4083226206,-140.1822881,
817272424,-9.025703972,0.3537649495,148.9577389,
819106368,-11.27103951,0.273179449,142.4780822,
820940313,-17.37771917,0.1352427651,-21.32529743,
822774258,-8.371385875,0.3814439283,-159.2737048,
824608202,-6.293621821,0.4845280332,174.3210727,
826442147,-5.188443063,0.5502725475,156.3250361,
828276092,-4.095149764,0.6240832288,137.0459724,
830110036,-4.424643085,0.600852463,104.6290894,
831943981,-9.908071696,0.3195923795,-167.8661362,
833777925,-3.316836461,0.682587258,129.7374384,
835611870,-2.382686439,0.7600911537,104.4761517,
837445815,-2.273659619,0.7696920823,76.0493974,
839279759,-4.009198202,0.6302895256,28.33796358,
841113704,-9.696891945,0.3274578475,-115.6631122,
842947649,-3.431226333,0.6736567773,126.9094018,
844781593,-2.821463518,0.7226480317,86.16361194,
846615538,-3.445628999,0.6725406667,48.28676817,
848449483,-7.375909263,0.4277643001,32.25030112,
850283427,-9.750738099,0.325434128,-11.24652316,
852117372,-13.83179642,0.2034277423,-138.5979719,
853951317,-7.664753423,0.4137731722,130.9714387,
855785261,-7.461596194,0.4235651209,103.205117,
857619206,-2.510425697,0.7489946492,81.10959443,
859453151,-2.576003968,0.74336105,35.27153736,
861287095,-4.960253792,0.5649204682,11.06279049,
863121040,-7.998939169,0.3981557954,-41.21890727,
864954984,-10.541839,0.297103693,-167.6280425,
866788929,-4.930084553,0.5668860531,91.55648828,
868622874,-4.030045996,0.6287785244,26.81993975,
870456818,-5.87182138,0.50863815,-30.46675995,
872290763,-7.502387049,0.4215806291,-107.9636668,
874124708,-5.747514199,0.5159698085,147.8995291,
875958652,-8.984263113,0.3554568143,68.26166617,
877792597,-11.34484111,0.270868152,35.21469029,
879626542,-11.08232309,0.2791797059,-165.6681033,
881460486,-7.397391856,0.4267076286,116.3228219,
883294431,-6.617457576,0.466795995,64.13680241,
885128376,-8.716987848,0.3665646724,84.16482127,
886962320,-5.855135852,0.5096161791,46.18852305,
888796265,-8.925400378,0.3578738629,9.269743287,
890630210,-18.34203355,0.1210314741,-46.81036669,
892464154,-8.030478774,0.3967126612,82.9530035,
894298099,-4.039308642,0.6281083515,26.58782322,
896132044,-4.635802482,0.5864214884,-35.80390846,
897965988,-6.50158649,0.4730648451,-99.88682624,
899799933,-9.170955038,0.3478982531,169.6399598,
901633877,-11.14623367,0.2771330469,-41.7653127,
903467822,-3.881723451,0.6396079121,-168.6555698,
905301767,-2.571735261,0.7437264669,139.777951,
907135711,-2.684904476,0.734099243,109.378419,
908969656,-3.612080369,0.6597751917,89.45046299,
910803601,-1.720779364,0.8202779394,84.85360339,
912637545,-1.375232054,0.8535685349,64.10205515,
914471490,-1.663574622,0.825698069,44.12031336,
916305435,-4.470484427,0.5976897096,45.53028049,
918139379,-3.504531805,0.6679953046,0.5686396456,
919973324,-2.372953004,0.7609433917,63.79461936,
921807269,-1.399900594,0.8511477791,32.27250092,
923641213,-1.399232667,0.8512132332,12.35653286,
925475158,-2.456467286,0.7536620299,-14.28225153,
927309103,-6.776425217,0.4583304793,-24.56876848,
929143047,-11.44254022,0.2678384906,-137.6294561,
930976992,-5.875536323,0.5084206527,55.99254534,
932810936,-3.588433825,0.6615738168,29.24681489,
934644881,-2.962226426,0.7110312339,-2.872231702,
936478826,-4.373812002,0.6043790475,3.34206839,
938312770,-11.82825306,0.2562048503,57.18151568,
940146715,-2.325368904,0.7651235242,-10.82258344,
941980660,-14.72711071,0.1835035476,-19.76053399,
943814604,-2.239420833,0.7727321085,-11.9426778,
945648549,-3.117536684,0.6984304507,-57.42112369,
947482494,-13.61490342,0.2085714349,-107.8390952,
949316438,-12.57860188,0.235001106,-59.83554256,
951150383,-5.080809839,0.5571338015,-99.23948193,
952984328,-5.768257782,0.5147390431,117.6604554,
954818272,-5.989111979,0.5018158807,39.97019788,
956652217,-2.734111147,0.729952235,20.07447444,
958486162,-1.999937913,0.7943339126,-7.504825963,
960320106,-3.69319677,0.653642318,-35.0540563,
962154051,-13.80870449,0.2039692858,-44.68716745,
963987995,-3.078513272,0.7015753739,-22.61540251,
965821940,-3.286136618,0.6850040971,-72.84628757,
967655885,-8.403613149,0.3800312784,92.88786898,
969489829,-2.937302101,0.7130744817,-9.953237347,
971323774,-2.528545755,0.7474337637,-46.88140352,
973157719,-3.362009884,0.6790464855,-85.79021127,
974991663,-7.485854115,0.4223838401,-162.316689,
976825608,-9.809975791,0.3232222212,53.29856008,
978659553,-4.527880894,0.5937531891,-11.0892485,
980493497,-4.992478135,0.5628285162,-102.6799495,
982327442,-5.606643685,0.5244061977,83.31730582,
984161387,-4.765273117,0.5777451975,24.67516492,
985995331,-2.152231125,0.780527922,-0.2150236709,
987829276,-1.470175502,0.8442891825,-25.86500719,
989663221,-1.563992797,0.8352189901,-43.33011851,
991497165,-1.403888733,0.8507570631,-70.83169285,
993331110,-2.017039178,0.7927715222,-106.5084317,
995165055,-3.404025197,0.675769739,-177.1569487,
996998999,-4.008826187,0.6303165213,83.61970552,
998832944,-9.076602908,0.3516979643,23.60070423,
1000666888,-1.811611045,0.8117446739,10.10942267,
1002500833,-1.729721888,0.8194338601,-16.40506323,
1004334778,-1.995944816,0.7946991696,-33.83822322,
1006168722,-2.060863676,0.7887816817,-46.09198534,
1008002667,-2.68542969,0.7340548552,-68.65281491,
1009836612,-6.740135225,0.4602494082,-102.8880431,
1011670556,-13.3570487,0.2148560389,89.8294178,
1013504501,-2.790138302,0.72525893,-4.448703264,
1015338446,-2.148477092,0.7808653383,-39.10293723,
1017172390,-4.763578542,0.5778579239,-67.20042521,
1019006335,-3.949682481,0.6346230997,-82.84366299,
1020840280,-5.944831225,0.5043806753,-12.83582528,
1022674224,-1.853280812,0.8078597287,-40.58093851,
1024508169,-3.41835181,0.6746560348,-39.53328702,
1026342114,-1.465292339,0.8447639711,-56.45700681,
1028176058,-1.330190645,0.8580062823,-69.85866183,
1030010003,-1.600925964,0.8316751052,-76.54769987,
1031843947,-2.893371472,0.7166901346,-89.19214371,
1033677892,-3.808518309,0.6450213421,-102.3771732,
1035511837,-6.279982451,0.4852894806,-74.99819909,
1037345781,-6.807366441,0.4567007007,-84.61171245,
1039179726,-2.026203559,0.7919355193,-74.05809038,
1041013671,-3.480342778,0.6698581737,-89.4861614,
1042847615,-3.623141186,0.6589355531,-79.32739001,
1044681560,-1.53858819,0.8376654258,-99.12312157,
1046515505,-1.443059416,0.8469290493,-110.11769,
1048349449,-1.61797013,0.8300447241,-132.9392195,
1050183394,-8.117627697,0.3927521898,162.3166684,
1052017339,-2.554021688,0.7452447334,-95.18055235,
1053851283,-1.848648782,0.8082906608,-135.5186939,
1055685228,-2.472930163,0.7522349228,-173.6379611,
1057519173,-4.523476811,0.5940543214,131.4937359,
1059353117,-5.615592116,0.5238662189,58.7529747,
1061187062,-4.186391572,0.6175617958,1.264706727,
1063021007,-2.738043181,0.7296218662,-34.24136658,
1064854951,-3.292865232,0.6844736571,-69.25501959,
1066688896,-2.587184661,0.7424047928,-64.53155357,
1068522840,-2.671932426,0.7351964117,-87.54521219,
1070356785,-6.238870904,0.487591869,-87.79772117,
1072190730,-6.286377221,0.4849323298,-75.75004668,
1074024674,-3.138085652,0.6967800657,-86.08260807,
1075858619,-3.571979033,0.6628283086,-98.82230954,
1077692564,-4.112295212,0.6228525394,-95.27350037,
1079526508,-2.553146179,0.7453198554,-95.63792492,
1081360453,-2.825097531,0.7223457526,-114.0019582,
1083194398,-3.916840092,0.6370272279,-87.01983336,
1085028342,-1.988558314,0.7953752712,-104.9371582,
1086862287,-2.819531276,0.7228088081,-120.3235537,
1088696232,-1.847317919,0.8084145176,-127.85609,
1090530176,-3.000201838,0.7079293338,-148.0039088,
1092364121,-23.64295701,0.06574339833,-55.29699282,
1094198066,-3.388265848,0.6769969429,-104.6956254,
1096032010,-4.320530721,0.6080978445,-121.0015814,
1097865955,-3.307598949,0.6833135811,-124.1507039,
1099699899,-3.430579976,0.6737069091,-125.5759786,
1101533844,-4.619924643,0.5874944495,-160.7681002,
1103367789,-5.455575316,0.5336066511,-115.1709776,
1105201733,-5.71359122,0.5179888829,-133.7506874,
1107035678,-10.9658446,0.2829487436,-130.5152241,
1108869623,-3.159387733,0.6950733114,-85.09874884,
1110703567,-1.325533232,0.8584664724,-111.1195907,
1112537512,-1.154841873,0.8755035398,-126.6559623,
1114371457,-2.655163529,0.7366171459,-124.7392986,
1116205401,-1.787468146,0.8140041006,-137.3457703,
1118039346,-1.254596655,0.8655061681,-142.2497983,
1119873291,-2.192999562,0.7768729892,-160.1907205,
1121707235,-1.95480302,0.7984722899,-149.5652778,
1123541180,-4.050299121,0.6273140924,-169.7396371,
1125375125,-2.394170355,0.7590868749,-143.5435982,
1127209069,-3.380238798,0.6776228778,-157.9866595,
1129043014,-4.262476612,0.6121758169,-165.9331985,
1130876958,-9.19481107,0.3469440521,-176.3576937,
1132710903,-2.767023702,0.7271915352,-140.1667376,
1134544848,-2.342112251,0.7636500551,-161.6558404,
1136378792,-2.675757518,0.7348727172,166.4373538,
1138212737,-6.492253858,0.473573407,132.553445,
1140046682,-9.951974349,0.3179810818,-24.09946265,
1141880626,-9.073394606,0.3518278948,-77.69002303,
1143714571,-3.666727799,0.6556372349,-119.258127,
1145548516,-5.093173262,0.556341346,-172.1656281,
1147382460,-4.733722783,0.5798475958,-90.57469783,
1149216405,-8.348387785,0.3824552358,-131.2780248,
1151050350,-2.36177015,0.7619237171,-123.2092424,
1152884294,-2.404334021,0.75819916,-140.9646555,
1154718239,-4.93594862,0.566503463,-127.1986209,
1156552184,-2.586112577,0.7424964322,-127.2688462,
1158386128,-1.067072647,0.8843951813,-139.036061,
1160220073,-1.057983753,0.8853210947,-147.5385449,
1162054018,-1.03669141,0.8874940078,-153.5038909,
1163887962,-1.598884793,0.8318705706,-157.6599939,
1165721907,-1.872104497,0.8061108657,-162.6086836,
1167555851,-1.257350022,0.8652318521,-161.3644102,
1169389796,-0.9304187798,0.8984192753,-168.2915931,
1171223741,-1.137090908,0.8772945969,-178.9232285,
1173057685,-5.521160841,0.5295926608,-160.3748842,
1174891630,-1.627783219,0.829107491,-175.4068004,
1176725575,-3.084699759,0.7010758578,-169.8651852,
1178559519,-2.42829824,0.7561101847,-158.6354837,
1180393464,-1.241656787,0.8667965231,-173.7543967,
1182227409,-2.15181775,0.7805650694,-178.7049973,
1184061353,-2.26787807,0.7702045795,-177.5497818,
1185895298,-2.813007209,0.7233519216,174.5458838,
1187729243,-1.266992601,0.864271854,-175.6964033,
1189563187,-1.36921497,0.8541600429,172.0525435,
1191397132,-2.978076929,0.7097348871,174.0020576,
1193231077,-1.050921193,0.8860412485,171.4310131,
1195065021,-1.248938146,0.8660701943,159.7193502,
1196898966,-3.658460568,0.6562615677,137.3996721,
1198732910,-4.005074874,0.6305888049,174.5386143,
1200566855,-3.24603669,0.6881738496,164.4770379,
1202400800,-5.207520091,0.5490652969,178.2016519,
1204234744,-6.099093364,0.4955019087,158.5728024,
1206068689,-2.602257751,0.7411175752,-173.1084904,
1207902634,-3.123387511,0.6979601454,170.3834256,
1209736578,-1.684440008,0.823716944,158.2919774,
1211570523,-4.353884186,0.6057672508,-165.0961001,
1213404468,-1.43398173,0.8478146436,161.9379307,
1215238412,-2.454440562,0.7538379063,168.0511182,
1217072357,-2.799789457,0.7244535204,166.8102418,
1218906302,-3.120685495,0.6981773013,-179.4289803,
