Frequency,S11_Magnitude,S11_Magnitude (linear),S11_Phase,
500000000,-0.5756892978,0.9358700199,105.0775904,
501833944,-0.6110466457,0.9320681498,102.5575605,
503667889,-0.7472340073,0.9175680854,99.40311292,
505501833,-1.396758025,0.8514557815,96.74516384,
507335778,-1.499499579,0.8414436184,102.2645799,
509169723,-0.9057267024,0.9009769178,100.4610764,
511003667,-0.7491980392,0.9173606306,97.63714167,
512837612,-0.6926854222,0.923348672,95.04411629,
514671557,-0.6786294618,0.9248440927,92.41333636,
516505501,-0.6976540769,0.9228206329,89.11163586,
518339446,-1.406460461,0.8505052073,77.98880084,
520173391,-0.6820071592,0.9244845168,93.08919282,
522007335,-0.6172136526,0.9314066136,88.2241744,
523841280,-0.6215679376,0.9309398112,85.43880197,
525675225,-0.6379944388,0.9291809087,83.08398776,
527509169,-0.6971302049,0.9228762927,81.00990749,
529343114,-0.5947524354,0.9338182951,79.34384201,
531177059,-0.6031032717,0.9329209297,76.82806745,
533011003,-0.6278061306,0.9302714517,74.49621242,
534844948,-0.6703244169,0.9257288086,72.5078473,
536678892,-0.6563971014,0.9272143512,70.24090216,
538512837,-0.6699462684,0.925769112,67.7129036,
540346782,-0.713736626,0.9211135451,64.91823609,
542180726,-0.81101514,0.9108549923,61.75724893,
544014671,-1.062808407,0.8848294718,58.02808162,
545848616,-1.778991877,0.8147988477,54.88047956,
547682560,-2.519136665,0.7482438686,59.24640056,
549516505,-1.93560444,0.8002391196,61.17983059,
551350450,-2.019392295,0.7925567795,62.703812,
553184394,-0.8044278339,0.9115460391,58.75213009,
555018339,-0.7724954585,0.9149033695,53.73230318,
556852284,-0.808504438,0.9111183178,49.68213772,
558686228,-0.9116587406,0.9003618046,45.59417804,
560520173,-1.217875583,0.8691729878,41.66614042,
562354118,-1.149996847,0.8759920356,39.64731903,
564188062,-0.9020179501,0.9013617043,32.59790254,
566022007,-1.703688317,0.8218935726,18.94351667,
567855951,-2.824571078,0.7223895354,9.519617715,
569689896,-12.14295424,0.2470883607,110.497702,
571523841,-2.702179483,0.7326406742,69.43873693,
573357785,-1.579269873,0.833751266,53.91076063,
575191730,-1.29289691,0.861698138,42.71383692,
577025675,-2.732635689,0.7300762413,18.91958795,
578859619,-1.833517616,0.8096999626,56.64834072,
580693564,-1.139050418,0.8770967042,44.22144293,
582527509,-1.015145271,0.8896982503,38.36935823,
584361453,-0.9633314258,0.8950214191,33.98301891,
586195398,-0.9425555279,0.8971647954,30.03995565,
588029343,-0.93658794,0.8977813988,26.65849205,
589863287,-0.932241397,0.8982307739,23.01166043,
591697232,-0.9572834246,0.8956448412,18.84049579,
593531177,-1.486591002,0.8426950636,15.50847863,
595365121,-1.280035885,0.8629749825,12.48998348,
597199066,-1.547782863,0.8367791625,6.258138818,
599033011,-3.198376313,0.6919603096,-3.165572065,
600866955,-4.078643997,0.6252702996,30.2663293,
602700900,-1.507179762,0.8406999313,18.91182615,
604534844,-1.331708047,0.8578564039,14.01373253,
606368789,-0.8567434559,0.906072245,8.531915948,
608202734,-0.8447693085,0.9073221946,3.776999656,
610036678,-0.8621779007,0.9055055259,-0.289062407,
611870623,-0.8981953291,0.9017584769,-3.516928637,
613704568,-0.9090929949,0.9006278039,-7.128636083,
615538512,-0.9356992547,0.8978732589,-10.69220282,
617372457,-0.9830792821,0.8929888493,-14.37230105,
619206402,-1.070768373,0.8840189634,-18.16386783,
621040346,-1.233354669,0.8676254178,-21.6366453,
622874291,-1.305725376,0.860426408,-24.29666089,
624708236,-1.237636154,0.8671978497,-28.17364413,
626542180,-1.307906962,0.8602103267,-33.61703183,
628376125,-1.969278314,0.7971427202,-40.68806016,
630210070,-2.491092624,0.75066362,-33.62991259,
632044014,-1.615281802,0.8303016671,-40.8071,
633877959,-1.733661902,0.8190622402,-50.18677003,
635711903,-3.193802813,0.6923247529,-66.3165579,
637545848,-4.007140023,0.6304388946,-21.05092299,
639379793,-1.581887897,0.8335000019,-46.13244162,
641213737,-1.70079901,0.8221670158,-59.05426734,
643047682,-1.889766847,0.8044733425,-65.54212986,
644881627,-2.291072848,0.7681505708,-81.70403892,
646715571,-3.64576753,0.65722129,-103.5447191,
648549516,-8.663370643,0.368834441,-154.9003629,
650383461,-6.323088121,0.4828870892,14.63560595,
652217405,-12.33383519,0.2417175815,-44.6988124,
654051350,-4.676185674,0.5837013749,-34.46053248,
655885295,-7.371064105,0.4280029819,-70.69930664,
657719239,-5.691774695,0.5192915614,-10.47634756,
659553184,-3.344150106,0.6804441658,-34.01873043,
661387129,-1.669882836,0.8250986151,-47.97413719,
663221073,-1.37932448,0.853166464,-63.5657369,
665055018,-1.789091951,0.8138519388,-82.71532983,
666888962,-17.04234716,0.1405667624,-126.4925411,
668722907,-1.728188327,0.8195785502,-54.59026567,
670556852,-1.130483373,0.8779622268,-75.98734565,
672390796,-1.177629817,0.873209615,-94.16467601,
674224741,-6.621772662,0.4665641518,-135.9120435,
676058686,-4.136362879,0.6211290708,-51.0321703,
677892630,-2.031584118,0.791445099,-94.68473771,
679726575,-5.766489371,0.5148438526,-116.4656752,
681560520,-3.84112201,0.6426047027,-116.4473301,
683394464,-13.42444874,0.2131952691,-37.66001203,
685228409,-2.038296649,0.7908336997,-78.90952672,
687062354,-1.366567438,0.8544204376,-101.1998307,
688896298,-1.43186502,0.8480212771,-117.0747394,
690730243,-2.321281436,0.7654836662,-134.1298333,
692564188,-4.385575232,0.6035610959,-123.3878312,
694398132,-2.431097703,0.7558665296,-147.0599462,
696232077,-3.331335805,0.6814487665,-175.8734981,
698066022,-6.833653191,0.455320643,123.9822662,
699899966,-7.400585588,0.4265507605,-2.229193074,
701733911,-3.201316833,0.6917260931,-66.55254468,
703567855,-2.426511848,0.7562657068,-96.21654676,
705401800,-1.382417803,0.8528626783,-113.2308605,
707235745,-1.220582817,0.8689021246,-127.9719521,
709069689,-1.199300665,0.8710337174,-140.3902974,
710903634,-1.292443593,0.8617431112,-152.639905,
712737579,-1.727249366,0.819667153,-167.3684444,
714571523,-7.059714268,0.4436232372,172.9206531,
716405468,-1.83871783,0.8092153429,-157.7819948,
718239413,-1.334726243,0.8575583655,-179.3580982,
720073357,-1.704863632,0.8217823671,159.0617413,
721907302,-9.182773689,0.3474251995,172.5343127,
723741247,-3.053712676,0.7035814265,138.2071146,
725575191,-6.403310559,0.478447701,74.10941369,
727409136,-6.657361147,0.4646564207,-79.29953052,
729243081,-2.70526701,0.7323802927,-146.5981661,
731077025,-2.018327792,0.7926539176,-179.4132911,
732910970,-8.038319171,0.3963547264,153.3296582,
734744914,-1.632301216,0.8286763399,168.8064436,
736578859,-1.830782079,0.8099550099,146.5088782,
738412804,-2.156664279,0.7801296533,147.9261191,
740246748,-1.374998683,0.8535914687,132.1987646,
742080693,-1.298549663,0.8611375297,119.0122573,
743914638,-1.305456865,0.8604530072,106.1912546,
745748582,-1.385382235,0.8525716519,92.75255147,
747582527,-1.737372456,0.8187124171,78.28976124,
749416472,-2.005631336,0.7938134136,66.64195942,
751250416,-2.125299501,0.7829517965,52.83371395,
753084361,-2.144508462,0.7812222013,35.18324751,
754918306,-2.565113644,0.7442936569,13.95620922,
756752250,-2.40745861,0.7579264609,-6.69238024,
758586195,-7.43453039,0.4248870362,-20.30373428,
760420140,-2.678030973,0.7346803959,-52.168779,
762254084,-2.63213709,0.7385725211,-107.5224259,
764088029,-10.06814017,0.3137566877,-146.3512868,
765921973,-3.361490181,0.6790871161,148.1327699,
767755918,-5.136866401,0.5535497768,77.58508321,
769589863,-8.37198748,0.3814175094,1.67087423,
771423807,-3.848644347,0.6420484216,18.53341558,
773257752,-5.919240055,0.5058689195,-45.83166682,
775091697,-4.157454194,0.6196226579,1.203687716,
776925641,-2.869556597,0.7186578439,-54.40199579,
778759586,-2.31431462,0.7660978949,-90.24429473,
780593531,-4.756570706,0.5783243318,-142.3880294,
782427475,-3.924148855,0.6364914252,-123.2643683,
784261420,-2.602948703,0.7410586226,-168.3097475,
786095365,-2.71973138,0.731161695,135.9217504,
787929309,-3.786273877,0.6466753491,42.86294923,
789763254,-3.862505036,0.6410246765,-69.77470045,
791597199,-5.42493209,0.5354925036,-136.2270259,
793431143,-3.349759757,0.680004853,169.81861,
795265088,-6.273202958,0.4856684056,102.2714695,
797099033,-11.67547534,0.2607511502,147.4624167,
798932977,-4.72509508,0.5804238452,41.91798703,
800766922,-3.451878463,0.6720569503,-35.41398011,
802600866,-3.3501218,0.6799765098,-97.78772851,
804434811,-3.873810213,0.6401908894,-141.3995279,
806268756,-5.974009652,0.5026891567,172.919662,
808102700,-18.95546439,0.1127786211,14.42985628,
809936645,-3.718760662,0.6517213777,-118.3596401,
811770590,-2.264542917,0.7705003745,-165.5437968,
813604534,-7.905609132,0.4024570536,139.6137247,
815438479,-3.595668032,0.6610230419,-172.6371895,
817272424,-2.986973122,0.7090083402,158.3316049,
819106368,-3.141194891,0.696530688,149.4127735,
820940313,-8.980762156,0.3556001145,164.9128138,
822774258,-2.308724668,0.766591089,148.1312198,
824608202,-1.943470727,0.7995147193,125.6200425,
826442147,-2.892032204,0.7168006489,101.7817577,
828276092,-9.33174161,0.3415174661,134.7051209,
830110036,-1.859461098,0.8072851154,108.4655464,
831943981,-1.700671099,0.8221791233,81.01073925,
833777925,-2.614336053,0.7400877186,44.5306048,
835611870,-11.55402742,0.2644226353,92.55320053,
837445815,-8.207907197,0.388691139,22.73473797,
839279759,-13.48623301,0.2116841542,-75.75533115,
841113704,-7.657781093,0.4141054491,178.4000019,
842947649,-4.672757478,0.5839317989,135.8586338,
844781593,-2.732058961,0.7301247188,102.9583967,
846615538,-4.39758267,0.602727305,83.50319413,
848449483,-2.658330375,0.7363486268,59.90920398,
850283427,-4.262522449,0.6121725863,21.31349666,
852117372,-6.411327736,0.4780062919,-4.009469252,
853951317,-10.58200922,0.2957328297,172.3475339,
855785261,-6.329697856,0.4825197645,99.64064954,
857619206,-5.87176883,0.5086412273,64.63642661,
859453151,-10.77370037,0.2892777171,71.88677984,
861287095,-8.415410284,0.379515472,56.33748259,
863121040,-5.030234956,0.5603872585,58.43188313,
864954984,-4.320295632,0.6081143032,29.7554043,
866788929,-5.378737625,0.5383480183,8.832745626,
868622874,-6.575720204,0.4690444374,-3.148005799,
870456818,-7.009295045,0.4462058376,-25.55018786,
872290763,-7.666771814,0.4136770324,-41.96317294,
874124708,-10.78273913,0.2889768439,-60.93695479,
875958652,-9.053082617,0.3526516086,-76.73266936,
877792597,-6.825343669,0.4557564425,-110.9802211,
879626542,-5.326207367,0.5416136881,-147.2218663,
881460486,-5.159040368,0.5521384371,172.6493614,
883294431,-5.602078374,0.5246818985,145.967995,
885128376,-4.973047992,0.5640889604,121.4927783,
886962320,-6.367975331,0.4803980473,96.40370663,
888796265,-5.050448002,0.5590846903,101.7754719,
890630210,-4.211344443,0.6157902068,93.48355402,
892464154,-4.478693107,0.5971251243,71.74203708,
894298099,-2.294407592,0.7678557139,45.33787491,
896132044,-2.757751878,0.7279681962,8.836586212,
897965988,-11.06186132,0.2798381583,-79.94494259,
899799933,-4.027796448,0.6289413921,3.087167636,
901633877,-8.605474533,0.371301132,-86.24868752,
903467822,-13.52088525,0.2108413255,-76.37372786,
905301767,-5.529556152,0.5290810325,156.7992596,
907135711,-4.793636093,0.5758617005,95.23322852,
908969656,-9.413833009,0.3383049478,35.08984039,
910803601,-20.45011574,0.09494983471,58.69496616,
912637545,-8.011723945,0.3975701803,134.6738776,
914471490,-3.630815683,0.6583536018,120.3111309,
916305435,-1.942854657,0.799571429,89.62034419,
918139379,-1.4019951,0.850942559,68.88602098,
919973324,-2.398173821,0.7587370802,65.26460075,
921807269,-1.350362477,0.856015988,50.66795016,
923641213,-1.462513984,0.8450342289,40.03146707,
925475158,-1.269776725,0.8639948698,30.71710948,
927309103,-1.316073055,0.8594019747,18.87586379,
929143047,-4.11050727,0.6229807633,8.165834326,
930976992,-2.804274262,0.7240795582,10.713638,
932810936,-1.771070981,0.8155422236,6.387970779,
934644881,-1.577820057,0.8338904442,-8.961352972,
936478826,-3.591088848,0.6613716239,-32.79103842,
938312770,-5.140745447,0.5533026212,11.07644964,
940146715,-1.566796889,0.8349493972,-8.214222015,
941980660,-2.008884733,0.7935161376,-32.34419815,
943814604,-3.251625418,0.687731203,-51.15228138,
945648549,-4.026533407,0.629032855,-39.33354587,
947482494,-10.17917168,0.3097714696,-37.86266785,
949316438,-3.400018362,0.6760815462,-63.8717686,
951150383,-4.223716905,0.6149136798,-115.4265331,
952984328,-12.25248505,0.2439920901,98.06021889,
954818272,-9.028973351,0.353631817,125.1391562,
956652217,-7.163961461,0.4383307383,-18.89626961,
958486162,-3.830416988,0.6433971763,9.340912994,
960320106,-5.165044119,0.5517569268,-65.96934495,
962154051,-5.963411171,0.50330291,-56.40947165,
963987995,-6.079841051,0.496601409,156.5473902,
965821940,-4.142657678,0.620679092,65.64814784,
967655885,-6.319940535,0.4830621092,34.92988644,
969489829,-1.983532339,0.7958356377,14.92827844,
971323774,-4.488458719,0.5964541492,-13.96785694,
973157719,-2.112498703,0.7841065196,-11.65369648,
974991663,-1.917769949,0.801883916,-33.85021825,
976825608,-4.322168713,0.6079831797,-11.41678319,
978659553,-2.014576541,0.7929963219,-46.49628148,
980493497,-3.543810871,0.6649813365,-56.369962,
982327442,-2.877633944,0.7179898467,-69.98133056,
984161387,-3.818636178,0.6442704182,-97.92361702,
985995331,-14.53437736,0.1876208643,-130.6259946,
987829276,-5.408910726,0.5364811459,-87.23133227,
989663221,-4.204245807,0.6162936736,-169.5679487,
991497165,-3.840851497,0.6426247163,76.6856969,
993331110,-5.171324043,0.5513581491,-24.21905398,
995165055,-11.06785429,0.2796451461,112.1641649,
996998999,-3.251024116,0.6877788145,23.40176649,
998832944,-3.097391047,0.7000522369,1.165139499,
1000666888,-1.656388927,0.8263814381,-28.83939041,
1002500833,-1.906307432,0.8029428375,-59.17338551,
1004334778,-5.609845913,0.5242129004,-125.917709,
1006168722,-4.557430119,0.5917366845,14.70661405,
1008002667,-4.976092622,0.5638912672,-29.48370073,
1009836612,-11.62226692,0.2623533742,-23.21039538,
1011670556,-9.612133922,0.3306688644,-1.705902885,
1013504501,-2.473285495,0.7522041502,-36.2185351,
1015338446,-2.551651414,0.7454481294,-68.5482423,
1017172390,-3.534180333,0.6657190478,-70.89298327,
1019006335,-13.74487128,0.2054737921,-57.05631311,
1020840280,-6.002816365,0.501024752,-5.687829085,
1022674224,-3.750515462,0.6493430953,-36.17724066,
1024508169,-3.343386694,0.6805039734,-47.32067946,
1026342114,-7.43731155,0.4247510122,-4.557797677,
1028176058,-2.098187062,0.7853995478,-43.7361549,
1030010003,-1.450475186,0.8462062734,-55.79342483,
1031843947,-1.426885696,0.8485075581,-72.39349829,
1033677892,-3.425809674,0.6740770114,-79.07795494,
1035511837,-3.037429873,0.7049016163,-84.09896946,
1037345781,-2.766202938,0.7272602537,-81.08759483,
1039179726,-5.31621326,0.5422372351,-86.86699452,
1041013671,-4.400246375,0.6025424947,-89.96233132,
1042847615,-2.793862038,0.7249480702,-104.5411687,
1044681560,-9.732455061,0.3261198598,-159.6961749,
1046515505,-3.702085285,0.6529737696,-59.917041,
1048349449,-8.487570402,0.3763756165,-104.7782245,
1050183394,-6.706536945,0.4620331673,-60.28880131,
1052017339,-4.824154702,0.573841912,-116.2787725,
1053851283,-9.199593984,0.3467530588,-46.38262249,
1055685228,-6.570518299,0.4693254282,-45.45833803,
1057519173,-1.87859201,0.8055090043,-81.44177356,
1059353117,-2.448176715,0.7543817341,-103.3354245,
1061187062,-2.134535148,0.7821197317,-106.0568418,
1063021007,-2.912734128,0.7150942626,-134.0445667,
1064854951,-24.34743924,0.0606216898,-45.38432236,
1066688896,-7.380827244,0.427522167,-123.6407476,
1068522840,-5.952416682,0.5039403878,-70.60613779,
1070356785,-8.726873275,0.3661477218,-77.30770025,
1072190730,-7.188975381,0.4370702344,-81.94665435,
1074024674,-6.622515981,0.4665242259,-79.15074462,
1075858619,-3.904420522,0.6379387365,-76.69205919,
1077692564,-1.856845262,0.8075282734,-88.09704389,
1079526508,-1.938762225,0.7999482428,-101.7109597,
1081360453,-3.022508876,0.7061135674,-118.5764574,
1083194398,-2.14878688,0.7808374887,-111.3113705,
1085028342,-2.741912997,0.7292968708,-138.1160852,
1086862287,-20.8970494,0.09018774536,125.679817,
1088696232,-4.050063728,0.6273310932,-73.37332725,
1090530176,-2.149231981,0.7807974764,-96.4104377,
1092364121,-1.995363076,0.7947523966,-110.8392665,
1094198066,-2.301566042,0.7672231487,-122.7835639,
1096032010,-12.62114385,0.2338529255,-122.6170973,
1097865955,-2.221676174,0.7743123592,-105.9978257,
1099699899,-1.989042283,0.7953309549,-115.6684184,
1101533844,-2.354581145,0.7625545957,-127.3506838,
1103367789,-1.704954404,0.821773779,-122.3101028,
1105201733,-1.492856521,0.8420874093,-139.142188,
1107035678,-5.961330381,0.5034234957,178.8352593,
1108869623,-2.580418682,0.7429833234,-105.7438315,
1110703567,-1.166899912,0.8742889801,-124.0459907,
1112537512,-1.144279518,0.8765688313,-139.165645,
1114371457,-2.538207683,0.7466028026,-142.8829795,
1116205401,-2.349403938,0.7630092503,-150.3306556,
1118039346,-2.505249889,0.7494410984,-126.1544781,
1119873291,-1.304749802,0.8605230541,-147.7975178,
1121707235,-1.336405895,0.8573925494,-158.3245179,
1123541180,-7.499180416,0.4217362958,-177.8569427,
1125375125,-2.136556514,0.7819377392,-165.4490867,
1127209069,-2.610759934,0.7403924872,-170.270913,
1129043014,-3.423033025,0.6742925305,177.2535413,
1130876958,-3.694606602,0.6535362321,-150.2203122,
1132710903,-3.150181622,0.6958104051,154.7287718,
1134544848,-5.140336228,0.5533286896,90.61238192,
1136378792,-5.021845181,0.5609288028,-33.16478392,
1138212737,-2.092658351,0.7858996266,-93.13268563,
1140046682,-1.423363361,0.848851718,-120.4597747,
1141880626,-2.477121637,0.7518720109,-138.0707582,
1143714571,-1.278844509,0.8630933582,-146.8858797,
1145548516,-2.002910618,0.794062102,-157.9119221,
1147382460,-2.224078455,0.7740982351,-168.6592694,
1149216405,-4.154302286,0.6198475453,179.4973694,
1151050350,-4.583532403,0.5899611043,-174.1109328,
1152884294,-11.69960796,0.2600276926,150.0868625,
1154718239,-12.88475165,0.2268623454,-132.7272809,
1156552184,-10.1690922,0.3101311505,-71.15039581,
1158386128,-2.587673147,0.7423630419,-119.3140581,
1160220073,-4.014059484,0.6299368665,-137.9450745,
1162054018,-2.661753983,0.7360584467,-132.9253506,
1163887962,-2.106946776,0.7846078722,-149.0311639,
1165721907,-4.559501517,0.5915955849,-131.224597,
1167555851,-1.071501991,0.8839443016,-145.5395641,
1169389796,-0.9103638171,0.9004960438,-154.3680589,
1171223741,-0.8829730228,0.9033402238,-160.8794792,
1173057685,-1.123639283,0.8786542942,-168.5328661,
1174891630,-1.294600337,0.8615291633,-173.4710682,
1176725575,-2.832875782,0.7216991784,178.9061368,
1178559519,-3.421322935,0.6744252991,-173.5117109,
1180393464,-2.691711243,0.7335241856,-154.7845358,
1182227409,-2.454643323,0.7538203091,-162.1972653,
1184061353,-1.355643703,0.8554956682,-164.5620345,
1185895298,-0.8874133583,0.902878543,-173.2690691,
1187729243,-1.204360728,0.8705264347,-178.7676263,
1189563187,-0.9782544324,0.8934850257,178.6711715,
1191397132,-1.190635774,0.871903079,173.7699289,
1193231077,-1.647809679,0.8271980768,170.5247381,
1195065021,-3.540968127,0.6651990092,168.623524,
1196898966,-1.153685938,0.8756200612,175.3338416,
1198732910,-0.8620730305,0.9055164587,168.5287295,
1200566855,-1.121392939,0.878881561,160.2111129,
1202400800,-1.872153116,0.8061063536,166.9325396,
1204234744,-2.595987007,0.7416528153,166.1751731,
1206068689,-1.951562623,0.7987702271,157.9765893,
1207902634,-2.995719497,0.708294754,154.5700813,
1209736578,-3.278087672,0.6856391635,153.3935946,
1211570523,-4.735736989,0.5797131482,-172.2642078,
1213404468,-1.249681371,0.8659960905,166.9978148,
1215238412,-1.382652822,0.8528396022,151.5569178,
1217072357,-2.046837101,0.7900564899,144.4183408,
1218906302,-8.999146465,0.3548482573,171.0222513,
