Frequency,S11_Magnitude,S11_Magnitude (linear),S11_Phase,
500000000,-0.5699261244,0.9364911849,105.0969257,
501833944,-0.5710611777,0.9363688143,102.6337005,
503667889,-0.6372845843,0.9292568492,99.14209504,
505501833,-0.602370595,0.9329996273,100.1322856,
507335778,-0.5766144918,0.9357703393,96.78517201,
509169723,-0.5838799172,0.9349879292,93.73537958,
511003667,-0.6178146908,0.9313421652,89.81035579,
512837612,-1.166004301,0.8743791336,79.09832441,
514671557,-0.8972982257,0.9018516179,81.1769473,
516505501,-7.911848947,0.4021680382,151.5157877,
518339446,-0.773458386,0.9148019479,101.0047279,
520173391,-0.6318944962,0.9298336848,93.46651189,
522007335,-0.60234955,0.9330018878,89.36388707,
523841280,-0.5914156254,0.9341771038,86.02771519,
525675225,-0.672213464,0.9255274988,81.9404357,
527509169,-0.6258686039,0.9304789868,82.64911809,
529343114,-0.6035162214,0.9328765773,78.9806613,
531177059,-0.8133364263,0.9106116007,73.37883289,
533011003,-0.6827638053,0.9244039866,78.09214684,
534844948,-0.6119364063,0.931972676,74.10647583,
536678892,-0.6077668801,0.9324201624,71.20309073,
538512837,-0.6229585249,0.9307907822,68.15136067,
540346782,-0.7162887388,0.9208429406,64.07990493,
542180726,-2.883860287,0.7174753514,61.69288162,
544014671,-0.7677144098,0.9154071063,66.24725258,
545848616,-0.6623457304,0.9265795555,61.4641381,
547682560,-0.6683982652,0.9259341177,57.27226544,
549516505,-0.7755249362,0.9145843238,51.49865396,
551350450,-4.428576143,0.6005804525,37.96231752,
553184394,-0.9275542309,0.8987156169,54.83735089,
555018339,-5.018935092,0.5611167659,39.74110286,
556852284,-0.9288492402,0.8985816343,56.61471864,
558686228,-0.7392466592,0.9184122484,48.86798219,
560520173,-0.9300646214,0.8984559082,40.23541409,
562354118,-0.8976418114,0.9018159442,43.19823363,
564188062,-0.7954660909,0.9124870201,35.19015136,
566022007,-0.8875570904,0.9028636025,25.8790174,
567855951,-1.294448149,0.8615442585,9.213226575,
569689896,-4.4241109,0.6008892784,-43.39141147,
571523841,-4.350589421,0.6059970764,104.6533101,
573357785,-4.879688737,0.5701847048,94.82690764,
575191730,-1.429307976,0.8482709634,64.87843466,
577025675,-1.08131278,0.8829464424,53.62693202,
578859619,-0.9520311797,0.8961865898,46.55098121,
580693564,-0.8936431839,0.9022311989,40.89350911,
582527509,-0.9717069509,0.8941587946,34.69366073,
584361453,-0.8576530496,0.9059773653,32.1618589,
586195398,-1.022381861,0.8889573129,22.50595587,
588029343,-2.087653544,0.7863525922,42.07216822,
589863287,-1.001414568,0.8911058025,29.43364658,
591697232,-0.9188026596,0.8996215848,23.76771706,
593531177,-0.9274166181,0.8987298556,18.15922579,
595365121,-1.245956389,0.8663675564,6.494783527,
597199066,-2.508623389,0.7491500805,35.13227109,
599033011,-0.9212208667,0.8993711593,20.37164063,
600866955,-0.8917484024,0.9024280374,14.86974115,
602700900,-0.8905831957,0.9025491057,10.89242661,
604534844,-0.9098217299,0.9005522456,7.296895081,
606368789,-0.8981377058,0.9017644593,4.211685782,
608202734,-0.9121158407,0.9003144238,0.7639658608,
610036678,-0.9293501651,0.8985298136,-2.665534542,
611870623,-0.9565270136,0.8957228419,-6.372987027,
613704568,-1.02196806,0.8889996644,-11.20176219,
615538512,-2.508059993,0.7491986745,7.308099106,
617372457,-1.002466315,0.8909979078,-12.97480005,
619206402,-1.040818484,0.8870724179,-17.99217228,
621040346,-1.091214175,0.8819405096,-22.73937507,
622874291,-1.183083892,0.8726614782,-28.35369904,
624708236,-1.518876011,0.839568623,-38.81986995,
626542180,-1.628657804,0.8290240121,-23.9641644,
628376125,-1.694179884,0.8227937911,-38.30841232,
630210070,-2.830479797,0.7218982851,-46.62371968,
632044014,-2.250359482,0.7717595742,-62.43154249,
633877959,-14.65691416,0.1849925726,-150.8484515,
635711903,-2.01824042,0.792661891,1.486354345,
637545848,-1.612831779,0.8305359027,-28.71640412,
639379793,-0.9340486792,0.8980438975,-34.53770796,
641213737,-0.9594837587,0.8954179827,-45.00266779,
643047682,-1.075317959,0.8835560441,-54.25593555,
644881627,-1.286413007,0.8623416245,-64.67878497,
646715571,-2.133161041,0.7822434727,-82.46077797,
648549516,-2.501704521,0.7497470643,-73.2804701,
650383461,-3.452423303,0.6720147955,-101.480236,
652217405,-8.930902246,0.3576472481,-149.1479216,
654051350,-9.084033076,0.3513972401,-15.91494885,
655885295,-7.153568746,0.4388555173,77.22995485,
657719239,-2.304913023,0.7669275673,-2.07562104,
659553184,-1.413475027,0.849818632,-27.19419191,
661387129,-1.115467161,0.8794813653,-41.68904064,
663221073,-0.9906260807,0.8922133064,-52.26727717,
665055018,-0.9409151037,0.8973342507,-61.04810047,
666888962,-0.9237185555,0.899112576,-69.02295062,
668722907,-0.9365321977,0.8977871604,-76.82582901,
670556852,-0.9671007251,0.8946331029,-85.00668975,
672390796,-1.084631936,0.8826091047,-95.80365546,
674224741,-4.276525677,0.6111864483,-128.2577828,
676058686,-1.69528118,0.8226894746,-95.58847496,
677892630,-1.463760299,0.8449129859,-113.2609071,
679726575,-11.91056814,0.2537882979,-95.67908035,
681560520,-2.937637131,0.7130469777,-127.8367028,
683394464,-7.410682792,0.4260551904,-102.3977457,
685228409,-4.770805733,0.5773773107,-141.1594295,
687062354,-13.1267523,0.2206288926,35.70431905,
688896298,-3.900260475,0.6382443461,-96.29497149,
690730243,-11.80020437,0.2570335303,-2.171394454,
692564188,-1.863716281,0.8068897265,-78.31269886,
694398132,-1.445178556,0.8467224449,-103.6972729,
696232077,-1.860087082,0.8072269372,-110.5217198,
698066022,-2.007206692,0.7936694531,-135.2244599,
699899966,-7.167917769,0.4381311299,-147.9105448,
701733911,-1.423236995,0.8488640676,-118.856948,
703567855,-1.120424707,0.878979537,-137.3444525,
705401800,-1.373078287,0.8537802133,-154.9282071,
707235745,-7.714579118,0.4114064006,160.7399739,
709069689,-1.607846435,0.8310127331,-147.4825004,
710903634,-1.797911921,0.8130259433,-175.3162544,
712737579,-11.09964342,0.2786235548,117.4602524,
714571523,-2.07435696,0.7875572829,-144.4730145,
716405468,-1.467706504,0.8445292092,-173.1279077,
718239413,-2.353900354,0.7626143662,161.4338574,
720073357,-2.92935541,0.7137271697,-175.7771946,
721907302,-1.804457588,0.8124134795,147.3410958,
723741247,-7.92850581,0.4013975427,72.63066142,
725575191,-2.463623919,0.753041315,136.610284,
727409136,-29.47915915,0.03357701174,-168.1417792,
729243081,-9.632818001,0.3298823654,-17.39362934,
731077025,-3.193331389,0.6923623297,-143.6617143,
732910970,-1.941270815,0.7997172414,168.1255535,
734744914,-2.089204421,0.7862122005,129.5875809,
736578859,-4.567879628,0.5910252272,56.35307371,
738412804,-3.451094157,0.6721176375,-141.7368604,
740246748,-1.69420385,0.8227915209,153.0090979,
742080693,-1.811491519,0.8117558443,117.2894389,
743914638,-14.16036523,0.1958762309,111.4572037,
745748582,-1.838622847,0.809224192,92.1770613,
747582527,-2.068182723,0.7881173055,52.03527153,
749416472,-3.797786153,0.6458188135,-23.28067751,
751250416,-3.637772852,0.657826489,131.1751552,
753084361,-2.739920473,0.7294641892,39.87014416,
754918306,-2.83982764,0.7211217887,4.664167742,
756752250,-2.532496648,0.7470938608,-64.22094937,
758586195,-3.6402795,0.6576366752,-163.0827368,
760420140,-5.018434461,0.5611491081,-89.32836209,
762254084,-2.349119559,0.7630342318,159.6131865,
764088029,-2.515169642,0.7485856849,82.6446252,
765921973,-15.68152373,0.1644083284,170.200149,
767755918,-2.843585492,0.720809871,8.848991969,
769589863,-2.78962842,0.7253015056,-54.14439337,
771423807,-4.017576301,0.6296818639,-127.123577,
773257752,-5.671404724,0.5205108225,-104.6409132,
775091697,-8.355049369,0.3821620268,131.3830301,
776925641,-3.687215575,0.6540925781,-141.9722341,
778759586,-2.825607956,0.7223033053,125.8625535,
780593531,-4.076457956,0.6254276858,-5.427495609,
782427475,-15.42806257,0.1692765783,-37.43061245,
784261420,-2.427488937,0.7561806382,-134.0987324,
786095365,-2.032969753,0.7913188521,-176.3088813,
787929309,-2.223953451,0.7741093757,158.408591,
789763254,-1.963426111,0.7976799839,126.2026687,
791597199,-2.681445775,0.7343916178,92.72113523,
793431143,-6.79891773,0.4571451468,44.98843388,
795265088,-8.051697988,0.3957446939,119.0870004,
797099033,-3.305285016,0.683495641,58.8152987,
798932977,-3.309470891,0.6831663324,15.23712516,
800766922,-3.742531448,0.6499402417,-39.27771035,
802600866,-5.236320149,0.54724776,-96.63620795,
804434811,-4.083744861,0.624903212,-160.758244,
806268756,-12.71857552,0.2312443999,84.1248766,
808102700,-6.318707919,0.4831306654,64.48905539,
809936645,-3.513542312,0.6673027035,-41.51984226,
811770590,-7.985708943,0.3987627229,-113.1267844,
813604534,-3.118540088,0.6983497719,-144.77175,
815438479,-2.736505705,0.7297510269,152.1274243,
817272424,-9.998036751,0.3162992502,77.5991241,
819106368,-4.650053071,0.5854601591,-22.3581242,
820940313,-4.931646791,0.5667841026,-128.9805322,
822774258,-3.043174223,0.7044355888,-154.9067363,
824608202,-3.717268774,0.6518333269,160.7618976,
826442147,-15.84023498,0.1614314883,120.3616502,
828276092,-4.253548712,0.6128053729,-167.2459135,
830110036,-1.857202834,0.8074950306,160.8250893,
831943981,-1.595080036,0.832235042,133.2261238,
833777925,-2.190980236,0.7770536204,103.8157695,
835611870,-8.835608164,0.3615926481,66.04501032,
837445815,-10.95497153,0.283303163,-151.6300443,
839279759,-2.587986779,0.7423362369,143.4080508,
841113704,-1.832146511,0.8098277873,118.3063592,
842947649,-1.441180269,0.8471122977,100.8554198,
844781593,-1.356500218,0.855411312,85.14881407,
846615538,-1.716870844,0.8206471353,67.47978235,
848449483,-1.895584008,0.8039347466,61.58893295,
850283427,-2.309266496,0.7665432703,32.51957932,
852117372,-4.006615306,0.6304769807,69.27246087,
853951317,-1.59124649,0.8326024328,27.2749831,
855785261,-3.803071682,0.6454259399,-8.797310493,
857619206,-2.872769517,0.7183920608,-23.40797962,
859453151,-2.588068773,0.7423292294,-74.48289261,
861287095,-2.977270358,0.7098007961,-144.5283749,
863121040,-3.103027801,0.6995980817,139.7721952,
864954984,-3.708867746,0.6524640877,68.39026942,
866788929,-6.366140068,0.4804995625,41.05550826,
868622874,-9.89134975,0.3202082466,-33.59027403,
870456818,-13.08306666,0.2217413397,-160.0134136,
872290763,-22.34868471,0.07630724336,20.53193475,
874124708,-5.458737324,0.5334124325,127.68494,
875958652,-6.523624846,0.4718660783,104.9278975,
877792597,-2.307610402,0.7666894371,72.57762793,
879626542,-2.425625437,0.7563428891,34.67375821,
881460486,-3.723469316,0.6513681728,-11.90809093,
883294431,-6.559614258,0.4699149772,19.44995471,
885128376,-5.791797079,0.5133459571,-55.01042242,
886962320,-5.246068663,0.5466339069,-129.2966142,
888796265,-4.761937711,0.5779670959,163.545613,
890630210,-3.93631339,0.6356006469,95.58881813,
892464154,-7.742771825,0.4100732203,10.04495222,
894298099,-12.90400946,0.2263599176,118.4696568,
896132044,-19.74215248,0.1030130809,-42.64349402,
897965988,-6.928607345,0.4503701858,148.8426148,
899799933,-4.803754,0.5751912886,89.65387167,
901633877,-5.961363777,0.5034215601,80.09534972,
903467822,-6.137231294,0.4933310326,7.48324618,
905301767,-11.22247956,0.2747109824,149.8013761,
907135711,-11.56832931,0.2639876042,-124.966161,
908969656,-3.755758894,0.6489512231,127.7040316,
910803601,-2.635626721,0.7382758528,80.26709945,
912637545,-6.089030677,0.4960762851,100.5332344,
914471490,-3.768035561,0.6480346411,80.07484242,
916305435,-1.451442656,0.8461120248,59.31938448,
918139379,-1.200851039,0.8708782575,43.56782592,
919973324,-1.076557993,0.8834299129,29.14241296,
921807269,-1.042622801,0.8868881658,14.73893967,
923641213,-1.121826387,0.8788377037,-2.835126251,
925475158,-1.499629611,0.8414310217,-26.19793975,
927309103,-2.480482725,0.7515811232,-76.17207231,
929143047,-4.330437471,0.6074046697,161.1849688,
930976992,-2.389699292,0.7594777156,61.21152397,
932810936,-2.210123927,0.775342881,11.83666067,
934644881,-7.136222458,0.4397328161,-28.32900223,
936478826,-6.498934911,0.4732092817,60.23692315,
938312770,-2.839716034,0.7211310546,16.64634647,
940146715,-32.72910847,0.02309641512,115.2514224,
941980660,-3.097852519,0.7000150448,32.41868013,
943814604,-1.488961486,0.8424651134,7.262741199,
945648549,-1.303406175,0.8606561793,-13.74577567,
947482494,-1.766400049,0.8159809082,-40.8195756,
949316438,-7.715626821,0.4113567792,-42.902248,
951150383,-9.517398217,0.3342951603,-57.99580999,
952984328,-3.356041855,0.6795132151,-69.59797567,
954818272,-6.003994156,0.5009568186,-150.1901391,
956652217,-6.045590631,0.4985634862,68.55877872,
958486162,-6.936585387,0.4499567079,33.71682227,
960320106,-9.588743264,0.3315605389,-153.3974163,
962154051,-4.383354749,0.6037154115,35.88003809,
963987995,-9.197627748,0.3468315626,-49.62906804,
965821940,-1.994631353,0.7948193515,9.970633103,
967655885,-1.513613503,0.8400774455,-19.74855362,
969489829,-2.701009651,0.7327393543,-39.19496146,
971323774,-1.798661676,0.8129557669,-71.89831018,
973157719,-4.426912585,0.6006954892,-152.3807533,
974991663,-7.670337771,0.4135072339,67.97721824,
976825608,-3.436357292,0.6732589499,-6.928850485,
978659553,-14.0504213,0.1983713437,-165.9437018,
980493497,-2.301736396,0.7672081015,11.58950173,
982327442,-1.552512662,0.8363236283,-16.99070154,
984161387,-1.181010213,0.8728698433,-37.86523006,
985995331,-1.165169989,0.874463125,-55.88920577,
987829276,-1.37143124,0.8539421253,-77.51595986,
989663221,-6.732473615,0.460655562,-113.2151509,
991497165,-2.457692422,0.7535557341,-116.9534766,
993331110,-3.829550793,0.6434613419,170.3782432,
995165055,-3.87989198,0.6397427914,51.45396189,
996998999,-3.257107295,0.687297296,-43.93903095,
998832944,-5.993575604,0.5015580668,167.9092789,
1000666888,-2.925759489,0.7140227108,27.20111348,
1002500833,-3.309150253,0.6831915519,-4.189508364,
1004334778,-2.820792162,0.7227038892,-65.99608496,
1006168722,-4.56313323,0.5913482808,34.4627894,
1008002667,-3.903301518,0.6380209275,-54.55447534,
1009836612,-3.705873989,0.6526890107,-18.63179298,
1011670556,-2.298469147,0.7674967456,-63.62466219,
1013504501,-3.051133059,0.7037904137,-84.91861848,
1015338446,-8.925479744,0.3578705929,127.1852361,
1017172390,-9.954828735,0.317876603,75.47416198,
1019006335,-3.436143926,0.6732754885,-23.81426548,
1020840280,-2.009299611,0.7934782365,-17.78350417,
1022674224,-1.514492439,0.8399924413,-47.11249239,
1024508169,-4.991303845,0.5629046131,-53.02231881,
1026342114,-2.980625925,0.709526636,-97.70136604,
1028176058,-5.739909443,0.5164217534,8.761120589,
1030010003,-3.041062394,0.7046068814,-45.85430214,
1031843947,-1.707780606,0.821506435,-49.64090141,
1033677892,-2.812022461,0.7234339351,-73.44761859,
1035511837,-3.284543217,0.6851297706,-75.07980796,
1037345781,-2.960376045,0.7111827232,-71.01046784,
1039179726,-1.292017266,0.8617854089,-74.89883282,
1041013671,-1.276850665,0.8632915038,-94.31484674,
1042847615,-4.009106892,0.6302961515,-88.32398222,
1044681560,-8.131861788,0.3921090902,-30.05287085,
1046515505,-1.620322456,0.8298199606,-81.84443902,
1048349449,-1.189163958,0.8720508347,-91.50218117,
1050183394,-1.345172592,0.8565276169,-106.77141,
1052017339,-1.236748941,0.8672864334,-118.6587521,
1053851283,-1.898395206,0.8036745944,-131.266709,
1055685228,-7.164411329,0.4383080364,-123.9388699,
1057519173,-3.718843174,0.6517151867,171.4199311,
1059353117,-7.423649432,0.4254196328,-6.393341601,
1061187062,-6.154657768,0.4923422563,-72.09650972,
1063021007,-10.00844281,0.3159205374,-106.6348004,
1064854951,-3.732561029,0.650686728,-142.1245495,
1066688896,-7.826106481,0.4061576859,97.57317914,
1068522840,-4.229566839,0.6144996758,-11.13846919,
1070356785,-2.808117602,0.7237592377,-44.56082139,
1072190730,-1.61566456,0.8302650793,-65.29404608,
1074024674,-1.471738189,0.8441372993,-79.12838156,
1075858619,-1.474673381,0.8438520912,-90.84645316,
1077692564,-1.759364274,0.8166421397,-106.5963601,
1079526508,-3.356347071,0.6794893379,-101.9711124,
1081360453,-2.55077919,0.74552299,-78.23344107,
1083194398,-3.079288662,0.701512747,-86.25762114,
1085028342,-2.544263019,0.7460824926,-103.6695154,
1086862287,-1.273183814,0.8636560294,-114.260372,
1088696232,-1.638341853,0.828100234,-121.8266684,
1090530176,-2.502280841,0.7496973193,-138.8817564,
1092364121,-4.856514821,0.5717079863,-123.7760996,
1094198066,-6.624111244,0.4664385513,-140.6574429,
1096032010,-2.526896409,0.7475757058,-100.0776034,
1097865955,-1.929793629,0.8007746541,-124.9419979,
1099699899,-1.381199738,0.8529822878,-138.0451298,
1101533844,-6.460606751,0.4753020227,-163.3199234,
1103367789,-10.21737833,0.3084118692,-148.6115074,
1105201733,-3.151408701,0.6957121131,-134.1227797,
1107035678,-11.07117178,0.2795383587,-147.7288806,
1108869623,-2.19683722,0.7765298218,-107.7055348,
1110703567,-1.314410758,0.8595664619,-132.8811544,
1112537512,-3.871686906,0.6403474062,-168.3486165,
1114371457,-1.531386248,0.8383602676,-133.5221404,
1116205401,-7.198400632,0.4365962171,-155.6565489,
1118039346,-1.674643328,0.8246465257,-141.289271,
1119873291,-2.387580709,0.759662983,-167.4924831,
1121707235,-1.951844897,0.7987442691,-169.4129861,
1123541180,-10.32457965,0.3046288406,-134.217691,
1125375125,-2.935239311,0.7132438481,-167.0274512,
1127209069,-9.164676264,0.3481498295,37.6713861,
1129043014,-3.911413851,0.6374253153,-99.83464377,
1130876958,-1.708620514,0.8214270009,-109.1239157,
1132710903,-1.477983455,0.8435305719,-133.5460733,
1134544848,-2.314172189,0.7661104575,-151.9370673,
1136378792,-1.459500469,0.8453274591,-141.8518569,
1138212737,-2.488227119,0.7509113073,-166.3971645,
1140046682,-1.606231497,0.8311672548,-158.8460345,
1141880626,-5.325856228,0.541635584,135.7150586,
1143714571,-7.843712244,0.405335263,-125.973585,
1145548516,-1.538116696,0.8377108977,-132.2723316,
1147382460,-1.425232712,0.8486690503,-145.1155698,
1149216405,-2.47657079,0.7519196951,-136.6458691,
1151050350,-1.152423496,0.8757473366,-161.0119378,
1152884294,-1.884642584,0.8049480837,172.3034779,
1154718239,-10.97082667,0.282786496,-34.62116285,
1156552184,-3.010679226,0.7070759061,-123.0546169,
1158386128,-1.377413263,0.8533542128,-148.153621,
1160220073,-1.125110964,0.8785054333,-160.9225637,
1162054018,-1.510482368,0.8403803355,-177.3464228,
1163887962,-4.861660363,0.5713694053,161.6254446,
1165721907,-2.978070579,0.7097354059,-176.0813403,
1167555851,-22.46026422,0.07533326473,-45.72850294,
1169389796,-1.270403946,0.8639324817,-139.74018,
1171223741,-1.025548389,0.8886332937,-155.1106236,
1173057685,-1.481529449,0.8431862728,-168.3508858,
1174891630,-1.076825407,0.883402715,-171.4365733,
1176725575,-5.012622645,0.5615247042,167.7742457,
1178559519,-2.600661513,0.7412537856,-168.1928102,
1180393464,-1.991421144,0.7951131623,-158.1520045,
1182227409,-3.396700137,0.6763398754,173.2592615,
1184061353,-1.20191548,0.8707715395,-167.1659455,
1185895298,-1.488179218,0.8425409908,-169.3203682,
1187729243,-0.9241830827,0.8990644921,179.9783618,
1189563187,-1.305596258,0.8604391986,179.8176946,
1191397132,-1.251869475,0.8657779608,167.5895881,
1193231077,-2.640142761,0.737892102,176.2883473,
1195065021,-1.450233529,0.8462298168,171.9691398,
1196898966,-1.161599771,0.8748226351,172.1170206,
1198732910,-1.219259046,0.8690345595,160.7002121,
1200566855,-2.409571254,0.757742135,170.5924692,
1202400800,-1.14802368,0.8761910566,159.7177104,
1204234744,-2.591491738,0.7420367474,161.6146776,
1206068689,-4.361158363,0.605260151,131.0555205,
1207902634,-9.331597062,0.3415231495,148.993553,
1209736578,-3.262710878,0.6868540384,166.9617941,
1211570523,-1.55528055,0.8360571638,160.4324716,
1213404468,-5.076323436,0.5574216445,137.488749,
1215238412,-4.148967457,0.6202283695,168.1867987,
1217072357,-2.628120131,0.7389141673,144.7381098,
1218906302,-2.274935463,0.7695790328,-174.3018716,
