Frequency,S11_Magnitude,S11_Magnitude (linear),S11_Phase,
500000000,-0.6107597315,0.9320989386,101.0067451,
501833944,-1.863636833,0.806897107,87.4366321,
503667889,-0.7120360882,0.9212938999,106.8518315,
505501833,-0.5898478443,0.9343457356,101.7048424,
507335778,-0.5754821362,0.935892341,98.78865202,
509169723,-0.5712516056,0.9363482857,96.24756284,
511003667,-0.5788416359,0.9355304297,93.70517766,
512837612,-0.5876164608,0.9345857975,90.93981097,
514671557,-0.6143951266,0.9317088992,87.30798474,
516505501,-0.8503103762,0.906743563,78.23883445,
518339446,-0.9732556217,0.8939993827,99.96588154,
520173391,-0.8733208212,0.9043446193,91.96156832,
522007335,-0.6007893631,0.9331694916,85.41910133,
523841280,-0.6735837944,0.9253814943,80.99451889,
525675225,-0.6718759047,0.9255634682,80.17361125,
527509169,-0.7302529202,0.9193637039,72.77716163,
529343114,-6.744284915,0.4600295763,53.25102332,
531177059,-0.9619945747,0.8951591831,86.88254155,
533011003,-0.6888892241,0.9237523129,79.60712227,
534844948,-0.6413383246,0.9288232624,75.67553171,
536678892,-0.6235721797,0.9307250246,72.57509481,
538512837,-0.6200487142,0.9311026534,69.67471331,
540346782,-0.6249660487,0.9305756784,66.79421463,
542180726,-0.640851915,0.9288752779,63.7312855,
544014671,-0.6715453466,0.9255986929,60.16733235,
545848616,-0.7819348386,0.9139096395,55.25280815,
547682560,-1.562434942,0.8353688039,44.94345518,
549516505,-2.812041115,0.7234323815,74.16568208,
551350450,-1.029578099,0.8882211189,61.45252444,
553184394,-0.7804946419,0.9140611863,52.56488125,
555018339,-1.811730073,0.8117335501,40.65151984,
556852284,-1.247999502,0.8661637916,40.46898544,
558686228,-11.08340226,0.2791450216,40.42069312,
560520173,-1.923329458,0.8013708246,68.12137136,
562354118,-1.103518268,0.8806920715,56.54258373,
564188062,-0.9635133877,0.8950026694,51.84506472,
566022007,-0.8706709409,0.9046205577,47.29137464,
567855951,-0.8284167467,0.9090319812,43.1976142,
569689896,-0.8088062935,0.9110866548,39.00343079,
571523841,-0.8731304477,0.9043644405,33.47731642,
573357785,-0.9135585377,0.900164897,32.31830066,
575191730,-0.907782043,0.900763745,23.82850449,
577025675,-1.420266426,0.8491544281,7.045162399,
578859619,-14.00607371,0.1993867593,127.7946279,
580693564,-1.532348244,0.8382674211,49.78734304,
582527509,-1.065854637,0.8845192075,35.9559988,
584361453,-0.9694883891,0.894387211,27.62568461,
586195398,-0.9783047099,0.8934798539,18.75902499,
588029343,-1.75364639,0.8171799088,-2.520275579,
589863287,-7.683261931,0.4128924137,120.1221737,
591697232,-1.103458461,0.8806981356,39.93876087,
593531177,-0.9446545076,0.8969480182,28.30973873,
595365121,-0.9387405011,0.8975589358,22.08281272,
597199066,-0.998117849,0.8914440848,19.47279135,
599033011,-0.8563944164,0.9061086559,13.9643557,
600866955,-0.8828119344,0.9033569773,10.12666578,
602700900,-0.9065075757,0.9008959224,6.367777417,
604534844,-0.9616229239,0.8951974858,2.084792818,
606368789,-3.70535532,0.6527279865,-0.3991267645,
608202734,-0.936224397,0.8978189758,-0.5775000404,
610036678,-0.948810724,0.8965189293,-4.986624661,
611870623,-0.9746946073,0.8938512867,-8.802584417,
613704568,-1.000966197,0.891151803,-12.58524094,
615538512,-1.035001162,0.8876667283,-16.48776176,
617372457,-1.072467253,0.8838460744,-20.66899817,
619206402,-1.223790386,0.8685813113,-27.01162048,
621040346,-1.272340157,0.8637399201,-29.39472728,
622874291,-1.376678157,0.8534264371,-35.04649509,
624708236,-1.576740683,0.8339940762,-41.83868421,
626542180,-2.000976322,0.7942389547,-50.95288283,
628376125,-3.320945106,0.6822644534,-65.83694197,
630210070,-12.99051017,0.2241168406,-51.64117496,
632044014,-5.103181591,0.5557006701,-72.30940768,
633877959,-3.436808521,0.6732239753,-52.22736863,
635711903,-2.792391755,0.7250707944,1.130285308,
637545848,-1.900031912,0.80352317,-51.4830556,
639379793,-14.8551074,0.180819236,-153.2438079,
641213737,-1.927011042,0.8010312291,-9.294224771,
643047682,-1.176716127,0.8733014749,-36.78252555,
644881627,-1.281718803,0.8628077945,-53.85197586,
646715571,-1.812311992,0.8116791691,-71.80008419,
648549516,-3.680703804,0.6545831321,-100.2516267,
650383461,-14.43609371,0.1897559116,162.8424402,
652217405,-4.194702572,0.616971171,4.536193625,
654051350,-1.708784031,0.8214115372,-31.71888186,
655885295,-1.422997512,0.8488874723,-55.42807683,
657719239,-1.581220697,0.833564029,-60.69766677,
659553184,-1.378644754,0.8532332323,-84.86877445,
661387129,-2.865588252,0.718986254,-132.8595955,
663221073,-4.923786691,0.5672972332,43.40515484,
665055018,-1.692042626,0.8229962735,-32.37192914,
666888962,-1.290374193,0.8619484447,-58.54465292,
668722907,-1.699883437,0.8222536843,-78.85077168,
670556852,-13.24217961,0.2177163372,-39.14633739,
672390796,-1.433796747,0.8478326996,-70.86772965,
674224741,-1.381355988,0.8529669437,-92.11890149,
676058686,-3.710106526,0.6523710401,-134.9102162,
677892630,-2.987354022,0.7089772489,-52.07580708,
679726575,-1.294507886,0.8615383333,-83.05932969,
681560520,-1.988632912,0.7953684402,-90.61419109,
683394464,-1.245810608,0.8663820974,-103.482509,
685228409,-1.360723626,0.8549954798,-115.5770982,
687062354,-4.022014143,0.6293602256,-122.6528931,
688896298,-1.404314562,0.8507153555,-135.9658386,
690730243,-9.99892103,0.3162670506,152.092066,
692564188,-1.850402526,0.8081274776,-130.6386787,
694398132,-2.342036145,0.7636567463,-162.7539043,
696232077,-6.966791408,0.4483946577,125.5849116,
698066022,-3.772645892,0.6476907659,-74.836006,
699899966,-1.663641353,0.8256917254,-121.5342334,
701733911,-1.693732746,0.8228361485,-148.7669455,
703567855,-4.458215225,0.5985345692,-179.7518059,
705401800,-2.813789407,0.7232867839,-155.6070667,
707235745,-2.450061541,0.7542180521,162.9063401,
709069689,-4.838313052,0.5729072885,90.52183716,
710903634,-3.992732302,0.631485503,-48.52131224,
712737579,-1.753751551,0.8171700151,-114.4800637,
714571523,-1.293737694,0.8616147306,-145.6712373,
716405468,-1.388367431,0.8522786876,-169.8408007,
718239413,-6.548831018,0.4704987231,-151.3645399,
720073357,-1.556383432,0.835951013,172.6424468,
721907302,-2.158661814,0.7799502638,143.9870083,
723741247,-8.563026255,0.3731201362,-152.0144642,
725575191,-1.671314126,0.8249626638,154.1042724,
727409136,-1.40852376,0.8503031971,131.1539617,
729243081,-1.501424284,0.8412571837,108.8246793,
731077025,-1.710760527,0.8212246441,83.58991684,
732910970,-1.967980312,0.7972618525,52.79475727,
734744914,-2.274254197,0.7696393961,11.66127428,
736578859,-2.397097691,0.758831089,-39.57079885,
738412804,-2.174406196,0.7785377761,-94.07417992,
740246748,-1.867238307,0.8065626085,-142.6537898,
742080693,-3.21119888,0.6909395551,168.6404713,
743914638,-1.635253015,0.8283947717,151.8007132,
745748582,-2.012544186,0.7931818917,115.0416176,
747582527,-14.53397506,0.1876295543,17.07732361,
749416472,-1.989834914,0.7952583802,111.329025,
751250416,-3.570779123,0.6629198812,66.26392698,
753084361,-1.582633884,0.8334284199,62.61606611,
754918306,-1.599971276,0.8317665217,35.6701492,
756752250,-1.668026929,0.8252749321,11.5936156,
758586195,-1.728834038,0.8195176249,-12.24125233,
760420140,-1.922727436,0.8014263698,-35.00700704,
762254084,-1.947523619,0.7991417476,-61.94969175,
764088029,-2.061209019,0.7887503211,-94.21105084,
765921973,-3.883991724,0.6394409038,-164.3960553,
767755918,-4.03359833,0.6285214207,-14.11978218,
769589863,-4.641576568,0.5860317848,-84.93488914,
771423807,-4.360697061,0.6052922968,-121.5120234,
773257752,-1.836869437,0.8093875656,-116.9152113,
775091697,-1.510100584,0.8404172749,-137.8362925,
776925641,-1.429734366,0.8482293228,-157.0100712,
778759586,-1.427893197,0.8484091431,-176.3200977,
780593531,-1.732729371,0.8191501808,158.4820593,
782427475,-2.806035213,0.7239327754,140.403001,
784261420,-16.75374616,0.1453157514,-45.15488777,
786095365,-2.132839414,0.7822724387,165.2125949,
787929309,-1.679458959,0.8241894519,127.6907694,
789763254,-2.322086875,0.7654126865,86.35556007,
791597199,-5.666476323,0.5208062458,126.0509776,
793431143,-3.483984548,0.6695773783,47.79936485,
795265088,-6.065123828,0.4974435552,-33.10189046,
797099033,-12.35190017,0.241215378,138.3541139,
798932977,-4.201295228,0.6165030629,13.01853743,
800766922,-2.953194556,0.7117709719,-76.30801206,
802600866,-2.460658351,0.7532984649,-126.1805874,
804434811,-2.011219642,0.7933028561,-159.4811218,
806268756,-1.845113622,0.8086197024,173.8023783,
808102700,-1.674804568,0.8246312176,150.9323424,
809936645,-6.38675255,0.4793606411,131.15107,
811770590,-1.578175152,0.833856354,118.6785602,
813604534,-1.774309009,0.8152382528,92.6318568,
815438479,-3.192405712,0.6924361204,62.78095355,
817272424,-2.727087764,0.7305427108,42.46085066,
819106368,-2.900915638,0.7160679207,-16.13311829,
820940313,-4.647348733,0.5856424696,-111.234901,
822774258,-12.17568351,0.2461590599,80.86683257,
824608202,-21.5187476,0.08395810353,105.6994453,
826442147,-6.954976602,0.4490049924,-109.1401792,
828276092,-2.902532758,0.7159346171,-168.0697299,
830110036,-1.857427893,0.8074741079,157.3230306,
831943981,-1.508800157,0.8405431092,132.3526569,
833777925,-1.376536991,0.8534403074,111.5288259,
835611870,-1.394404696,0.8516865036,90.74551631,
837445815,-2.594261613,0.7418001544,56.88479595,
839279759,-2.064143963,0.788483849,61.24539849,
841113704,-5.983794407,0.5021231905,-10.42349376,
842947649,-3.837565644,0.6428678658,112.427076,
844781593,-2.008960588,0.7935092077,67.57391055,
846615538,-2.297798255,0.7675560288,45.17172933,
848449483,-1.726095736,0.8197760256,16.01779358,
850283427,-2.016432925,0.7928268575,-16.69558876,
852117372,-2.848966241,0.7203634808,-64.04881151,
853951317,-5.568885016,0.5266908204,-152.6789026,
855785261,-12.36013864,0.2409866963,26.99498842,
857619206,-9.822702308,0.3227489846,-173.0488792,
859453151,-5.100065391,0.5559000722,72.43712009,
861287095,-5.000970044,0.5622785262,-7.212513288,
863121040,-2.954150657,0.7116926278,-93.50976639,
864954984,-2.906715166,0.7155899651,-176.1062884,
866788929,-6.44081284,0.4763864037,167.713904,
868622874,-3.316572027,0.682608039,107.6721157,
870456818,-10.38765307,0.3024247612,35.28832728,
872290763,-8.947236015,0.3569753263,48.04620162,
874124708,-12.1650583,0.2464603636,85.925502,
875958652,-2.806272365,0.72391301,33.86133376,
877792597,-6.689161166,0.4629583715,-36.68778099,
879626542,-7.821178877,0.4063881691,149.308799,
881460486,-4.173561853,0.6184746555,-44.35589326,
883294431,-3.8762427,0.6400116287,-149.1086003,
885128376,-3.09897161,0.6999248606,146.7905529,
886962320,-2.645535575,0.7374341087,91.53039608,
888796265,-4.950155386,0.5655776391,34.69711214,
890630210,-10.51234986,0.2981140928,-14.35726673,
892464154,-9.91911342,0.3191863636,-132.746332,
894298099,-5.31709557,0.5421821576,137.219827,
896132044,-7.817822623,0.4065452291,112.2053245,
897965988,-6.093780391,0.4958050894,45.72113982,
899799933,-10.43820826,0.3006696464,-120.8599986,
901633877,-6.961971343,0.4486435546,109.8356822,
903467822,-2.710064511,0.7319758867,132.4637029,
905301767,-1.919229646,0.8017491676,99.9945372,
907135711,-1.676509557,0.8244693632,83.81222048,
908969656,-1.781371417,0.8145756603,69.75008388,
910803601,-1.842602855,0.808853478,54.56514151,
912637545,-2.796349976,0.7247404498,38.41818735,
914471490,-2.196091093,0.7765965294,55.51929359,
916305435,-1.49892231,0.841499543,30.83301979,
918139379,-1.617269175,0.8301117118,9.387210601,
919973324,-4.874000462,0.5705582335,-20.85515786,
921807269,-9.582855516,0.331785364,95.96832719,
923641213,-3.323239583,0.6820842492,54.59232814,
925475158,-4.776081631,0.5770267123,-2.675718904,
927309103,-1.535083169,0.8380035175,9.211688595,
929143047,-2.142786406,0.7813771011,-40.12309122,
930976992,-5.257814068,0.5458952264,-150.6388068,
932810936,-3.133612183,0.6971390188,77.38632234,
934644881,-2.075819833,0.7874246541,48.95882925,
936478826,-3.207024141,0.6912717244,26.0871895,
938312770,-1.260627486,0.864905434,2.534658233,
940146715,-1.697205022,0.8225072768,-22.990087,
941980660,-18.38050465,0.120496593,-83.66561016,
943814604,-2.310728803,0.7664142303,-28.56759982,
945648549,-14.68057848,0.1844892546,-9.951104899,
947482494,-2.612315023,0.740259942,-30.13929412,
949316438,-2.546979212,0.7458492192,-59.44568472,
951150383,-7.235573195,0.4347317308,-113.8099853,
952984328,-10.6130668,0.294677285,50.80497734,
954818272,-4.623624204,0.5872442726,-124.8992141,
956652217,-5.523562549,0.5294462451,120.4129356,
958486162,-8.703555447,0.3671319894,24.6370499,
960320106,-3.248017323,0.6880169439,113.6042463,
962154051,-1.953795186,0.7985649429,63.27637574,
963987995,-1.546215766,0.8369301468,38.40351216,
965821940,-1.338531964,0.8571827087,21.49179569,
967655885,-1.212013247,0.8697598136,8.055230926,
969489829,-1.248185435,0.8661452505,-2.601199453,
971323774,-1.100405711,0.8810077209,-13.96955212,
973157719,-1.1309975,0.8779102608,-26.43683127,
974991663,-2.71159188,0.7318471839,-23.2165044,
976825608,-1.63399293,0.8285149579,-41.01826182,
978659553,-2.128670775,0.7826479666,-35.3042379,
980493497,-1.292324207,0.8617549558,-56.08639924,
982327442,-1.66564116,0.8255016431,-77.72434019,
984161387,-7.265829701,0.4332200169,-74.71352306,
985995331,-3.133811138,0.6971230506,-138.0432375,
987829276,-5.269151353,0.5451831597,93.60467977,
989663221,-2.742427412,0.7292536801,5.349333187,
991497165,-1.871298419,0.8061856789,-32.91245304,
993331110,-1.701291875,0.8221203647,-60.39909235,
995165055,-3.028785283,0.7056035154,-94.06825341,
996998999,-2.974040873,0.7100647549,-130.2418435,
998832944,-12.45011122,0.2385033257,-117.5534975,
1000666888,-5.763192477,0.5150393084,-19.34768957,
1002500833,-6.653183014,0.4648799859,179.9291202,
1004334778,-3.676542808,0.6548967868,59.25169687,
1006168722,-2.162101744,0.7796414362,-0.483558038,
1008002667,-6.325184703,0.4827705449,-88.88361777,
1009836612,-3.421076456,0.6744444375,11.76377509,
1011670556,-3.045562729,0.7042419049,-4.95410637,
1013504501,-1.770677043,0.8155792124,-33.80316365,
1015338446,-2.845372495,0.7206615895,-52.21633386,
1017172390,-6.607961119,0.4673066314,-13.59068464,
1019006335,-2.224641223,0.774048082,-16.11091945,
1020840280,-2.637092047,0.7381513148,-43.63031051,
1022674224,-1.212893509,0.8696716732,-43.95746303,
1024508169,-1.068713283,0.884228148,-55.84857532,
1026342114,-1.273741324,0.8636005968,-64.97848452,
1028176058,-1.616388372,0.8301958946,-76.81103168,
1030010003,-1.886611526,0.8047656364,-88.24121804,
1031843947,-2.80564766,0.723965077,-77.7790241,
1033677892,-1.910514207,0.8025540481,-84.24016364,
1035511837,-11.41690498,0.2686301478,-82.56804781,
1037345781,-2.39328022,0.7591646705,-94.39692399,
1039179726,-19.2486804,0.1090350131,-61.86170077,
1041013671,-2.368383789,0.7613437915,-70.36922652,
1042847615,-4.003904749,0.6306737608,-118.6686587,
1044681560,-7.463506884,0.4234719569,-86.00360986,
1046515505,-2.264878637,0.7704705943,-104.7949848,
1048349449,-4.806443951,0.5750131841,-56.83123026,
1050183394,-1.596942766,0.8320565844,-93.54919531,
1052017339,-1.25522122,0.8654439354,-101.9463452,
1053851283,-1.391853135,0.8519367312,-123.0347572,
1055685228,-2.459460928,0.7534023206,-145.7307905,
1057519173,-3.683809967,0.6543490883,174.1334421,
1059353117,-7.313889435,0.4308295946,6.775523996,
1061187062,-4.52705464,0.5938096732,-103.1111502,
1063021007,-3.54321349,0.6650270728,-106.3551446,
1064854951,-7.949203452,0.4004421896,-24.76999167,
1066688896,-16.21120049,0.1546820701,-42.37347336,
1068522840,-4.308257543,0.6089576952,-54.05197677,
1070356785,-3.406646008,0.6755658684,-69.98441919,
1072190730,-1.322887093,0.8587280424,-93.21856199,
1074024674,-1.361901133,0.8548795797,-112.2701905,
1075858619,-6.615246491,0.4669148379,-128.8637888,
1077692564,-3.912523352,0.6373438983,-137.3443895,
1079526508,-13.8695646,0.2025451134,110.2591729,
1081360453,-2.835264605,0.7215007215,-80.14570449,
1083194398,-5.09929055,0.5559496645,-125.114009,
1085028342,-2.770828774,0.7268730405,-120.0328166,
1086862287,-6.624820574,0.4664004613,-170.3733271,
1088696232,-4.777210516,0.5769517224,-104.1090032,
1090530176,-2.949557612,0.712069066,-107.9343011,
1092364121,-2.169218262,0.7790029224,-130.7413393,
1094198066,-5.435135122,0.5348638473,178.6959649,
1096032010,-5.798435365,0.5129537768,-172.0811547,
1097865955,-4.271881912,0.6115132963,-86.23527289,
1099699899,-2.505286771,0.7494379161,-146.1049073,
1101533844,-12.86903892,0.2272731094,126.5217675,
1103367789,-5.728487412,0.5171012998,-106.5826234,
1105201733,-5.18338011,0.5505933915,-102.5354125,
1107035678,-8.670980926,0.3685114223,-107.6559065,
1108869623,-2.577208573,0.743257964,-92.39612814,
1110703567,-1.99057313,0.7951907939,-130.283153,
1112537512,-16.23075898,0.1543341559,-170.4280754,
1114371457,-3.399067672,0.6761555488,-123.2685802,
1116205401,-6.072641682,0.4970131917,170.7202422,
1118039346,-5.847843142,0.5100442347,-77.90300639,
1119873291,-3.054963785,0.7034800904,-135.1753635,
1121707235,-3.000000976,0.7079457049,-97.49702962,
1123541180,-1.7859394,0.8141473808,-129.0085361,
1125375125,-10.54558339,0.2969756425,-153.1112694,
1127209069,-2.321202743,0.7654906014,-127.1617223,
1129043014,-1.444340525,0.8468041423,-129.2312736,
1130876958,-2.107719613,0.7845380639,-123.3416965,
1132710903,-1.292818591,0.8617059078,-140.9237649,
1134544848,-1.634783309,0.8284395699,-159.8028988,
1136378792,-13.89013307,0.2020660474,-161.7763139,
1138212737,-1.926583829,0.8010706286,-142.2405654,
1140046682,-1.34270438,0.8567710453,-156.1242266,
1141880626,-2.099537917,0.7852774097,178.0812314,
1143714571,-13.13706968,0.220366978,-148.8687792,
1145548516,-14.45259949,0.1893956611,4.525189986,
1147382460,-11.27189883,0.2731524236,-121.730155,
1149216405,-13.31134218,0.2159896253,96.15601249,
1151050350,-2.498069622,0.7500608866,-112.7646658,
1152884294,-1.735328242,0.8189051228,-119.6534338,
1154718239,-1.50280123,0.8411238325,-134.6147679,
1156552184,-1.3378071,0.8572542463,-136.1090092,
1158386128,-1.029160835,0.8882637896,-146.5133641,
1160220073,-1.540492817,0.837481764,-150.5411943,
1162054018,-2.636155652,0.7382308966,-156.7342212,
1163887962,-1.236718546,0.8672894683,-157.7838586,
1165721907,-0.9053827519,0.901012596,-154.2345831,
1167555851,-0.745177657,0.9177853417,-161.0502467,
1169389796,-0.8889749701,0.9027162316,-165.6757996,
1171223741,-0.8207870457,0.9098308273,-171.9054644,
1173057685,-2.442853546,0.7548442005,173.6328346,
1174891630,-1.374268592,0.8536632202,-164.0275421,
1176725575,-2.022155201,0.7923047141,-164.6752172,
1178559519,-0.8219752473,0.9097063739,-174.001006,
1180393464,-1.16231949,0.8747501498,179.3948456,
1182227409,-0.9225817714,0.8992302569,-179.6834641,
1184061353,-1.242653153,0.8666970979,174.8345399,
1185895298,-0.904572597,0.9010966397,169.7738145,
1187729243,-2.278703943,0.7692452139,160.9220813,
1189563187,-1.353119274,0.8557443418,162.6838131,
1191397132,-15.06339524,0.1765347627,141.6570768,
1193231077,-1.612332951,0.8305836016,-168.0952559,
1195065021,-1.122830545,0.8787361089,177.6586658,
1196898966,-1.026091669,0.8885777136,169.5100488,
1198732910,-0.8895168025,0.9026599212,162.5685745,
1200566855,-1.316808454,0.8593292157,151.2562771,
1202400800,-2.209312021,0.7754153589,161.9367677,
1204234744,-2.94839113,0.7121647006,156.1460023,
1206068689,-14.05139268,0.1983491602,142.4462947,
1207902634,-3.081793318,0.7013104885,160.2217689,
1209736578,-3.133550585,0.6971439628,-166.2517512,
1211570523,-1.392514077,0.8518719067,175.2955128,
1213404468,-1.064563821,0.8846506663,165.2631444,
1215238412,-2.011978317,0.7932335677,158.7151353,
1217072357,-1.819830485,0.8109768848,147.9546022,
1218906302,-2.029997842,0.7915896513,141.7835668,
