Frequency,S11_Magnitude,S11_Phase,S11_VSWR,
30000000,-0.5001109388,-109.5307757,34.74544715,
30104444,-0.4922340137,-110.3008928,35.30115298,
30208888,-0.4933987747,-111.3569981,35.21786259,
30313333,-0.4965175654,-112.4165564,34.99676687,
30417777,-0.5006936657,-113.4804444,34.70503138,
30522222,-0.5060099677,-114.559932,34.34061219,
30626666,-0.5107577525,-115.6431777,34.02157793,
30731111,-0.5149492184,-116.7457934,33.74481705,
30835555,-0.5201539879,-117.8546224,33.40735808,
30940000,-0.5251400366,-118.9701359,33.09035555,
31044444,-0.531871322,-120.104719,32.67182552,
31148888,-0.5387105292,-121.2559777,32.25730066,
31253333,-0.5451118988,-122.4245552,31.87874024,
31357777,-0.5517721571,-123.5825395,31.49419658,
31462222,-0.5632189842,-124.7628036,30.85454528,
31566666,-0.5741745483,-125.9570427,30.26624006,
31671111,-0.5853901168,-127.1875838,29.6867913,
31775555,-0.5991934356,-128.42134,29.00343511,
31880000,-0.6218749006,-129.6667141,27.94645555,
31984444,-0.6458704437,-130.9517716,26.90908532,
32088888,-0.6745303858,-132.2631171,25.76682864,
32193333,-0.7106067875,-133.6004214,24.46003587,
32297777,-0.7592819051,-134.9444807,22.89378942,
32402222,-0.8224858383,-136.2964278,21.13684762,
32506666,-0.9052409563,-137.6258637,19.20759363,
32611111,-1.013586454,-138.855402,17.1583666,
32715555,-1.145762014,-139.8955481,15.18374801,
32820000,-1.288843439,-140.6149193,13.50330143,
32924444,-1.415725995,-140.9090159,12.29773336,
33028888,-1.485673882,-140.8558313,11.72135526,
33133333,-1.476711824,-140.7292355,11.79214668,
33237777,-1.403702892,-140.8228605,12.40260387,
33342222,-1.301725624,-141.2656397,13.37016112,
33446666,-1.197024929,-142.0278579,14.5354239,
33551111,-1.105654869,-143.0052077,15.73296559,
33655555,-1.029965028,-144.1140561,16.88613635,
33760000,-0.9707120686,-145.2877149,17.91453591,
33864444,-0.9225823516,-146.5068399,18.84721551,
33968888,-0.8861802899,-147.7582899,19.61998665,
34073333,-0.8555682678,-149.0073758,20.32078955,
34177777,-0.8330257287,-150.2892045,20.86981464,
34282222,-0.811205173,-151.5613067,21.43034203,
34386666,-0.7946402755,-152.8239237,21.87643211,
34491111,-0.7835404098,-154.0342136,22.18591126,
34595555,-0.7737145655,-155.2174362,22.46728348,
34700000,-0.7657457214,-156.4147958,22.7007852,
34804444,-0.7615283279,-157.5891526,22.82634138,
34908888,-0.7581467859,-158.7515633,22.92802307,
35013333,-0.7543002459,-159.9257227,23.04479614,
35117777,-0.7536328856,-161.1078176,23.06517726,
35222222,-0.7507958426,-162.3482959,23.15222492,
35326666,-0.7449468755,-163.6420572,23.33377984,
35431111,-0.7435020302,-164.8358594,23.37906882,
35535555,-0.7442160306,-165.9828897,23.35666634,
35640000,-0.745588665,-167.1300021,23.31371915,
35744444,-0.7467607326,-168.2804443,23.27717237,
35848888,-0.7466572575,-169.4285926,23.28039426,
35953333,-0.7488246653,-170.5946011,23.21309422,
36057777,-0.7471353481,-171.7259861,23.26551551,
36162222,-0.7490630001,-172.8842921,23.20571748,
36266666,-0.7480386606,-174.0007121,23.2374553,
36371111,-0.7476557494,-175.13421,23.24934165,
36475555,-0.7491907946,-176.2822618,23.20176403,
36580000,-0.7502774895,-177.4417296,23.16820047,
36684444,-0.750158772,-178.6178778,23.17186244,
36788888,-0.7491404228,-179.7941304,23.20332217,
36893333,-0.7496193493,179.0408927,23.1885161,
36997777,-0.7488670172,177.8707818,23.21178303,
37102222,-0.7474556414,176.6920821,23.25555826,
37206666,-0.7477654953,175.5210405,23.24593366,
37311111,-0.7476324672,174.3551477,23.25006477,
37415555,-0.7463737899,173.1876598,23.28922511,
37520000,-0.745341191,171.9564615,23.32145046,
37624444,-0.7494732247,170.8141268,23.19303155,
37728888,-0.7470322514,169.6383592,23.26872239,
37833333,-0.7475382422,168.453739,23.25299175,
37937777,-0.7468612905,167.2573903,23.27404217,
38042222,-0.7462827607,166.052367,23.29206236,
38146666,-0.7454206353,164.8566033,23.31896799,
38251111,-0.7453334184,163.7072506,23.32169337,
38355555,-0.7457428697,162.6015456,23.30890426,
38460000,-0.7451468549,161.5101127,23.32752529,
38564444,-0.7446822915,160.4175209,23.34206013,
38668888,-0.7445186104,159.3031122,23.34718556,
38773333,-0.7449440118,158.189752,23.33386943,
38877777,-0.7452222472,157.0786663,23.3251682,
38982222,-0.7447310067,155.9811357,23.34053512,
39086666,-0.7442996618,154.8821296,23.35404514,
39191111,-0.7446864646,153.8306899,23.34192949,
39295555,-0.7457587969,152.786006,23.30840706,
39400000,-0.7462863071,151.7462557,23.29195181,
39504444,-0.7464113958,150.7027707,23.28805319,
39608888,-0.7462735314,149.641875,23.29235007,
39713333,-0.7472187091,148.5919337,23.26292317,
39817777,-0.7484863713,147.5273072,23.22357288,
39922222,-0.7481537609,146.4612176,23.23388473,
40026666,-0.7497593712,145.3916156,23.18419089,
40131111,-0.7495636063,144.3256938,23.19023843,
40235555,-0.7503189164,143.2660376,23.16692289,
40340000,-0.7507902596,142.1874356,23.15239687,
40444444,-0.7510566805,141.0742074,23.14419428,
40548888,-0.7503017445,139.9160854,23.16745245,
40653333,-0.7488118863,138.7560656,23.21348988,
40757777,-0.7483168428,137.6374629,23.22882759,
40862222,-0.7495524627,136.5855205,23.19058277,
40966666,-0.7561763375,135.6189815,22.98769334,
41071111,-0.7606050768,134.662588,22.8540134,
41175555,-0.7660435924,133.6571143,22.69196958,
41280000,-0.7704822125,132.6242108,22.56141471,
41384444,-0.7745726033,131.570029,22.4424281,
41488888,-0.778026953,130.5106582,22.34291856,
41593333,-0.7815637501,129.448939,22.24194591,
41697777,-0.7847721238,128.3836079,22.15113729,
41802222,-0.7892221495,127.3271804,22.02640845,
41906666,-0.793403799,126.2819503,21.91047786,
42011111,-0.7986850878,125.2341062,21.76579723,
42115555,-0.8035234765,124.1751884,21.6349203,
42220000,-0.8076187784,123.0998434,21.5253699,
42324444,-0.8107461412,121.9953722,21.44245794,
42428888,-0.8206874197,121.0672413,21.18309691,
42533333,-0.8268863531,120.0578133,21.02453015,
42637777,-0.8343117007,119.0345332,20.8376961,
42742222,-0.8416616584,118.0171811,20.65600802,
42846666,-0.8491427351,117.0019082,20.47431119,
42951111,-0.85746107,115.9938621,20.27600497,
43055555,-0.8661020318,114.9921787,20.07404435,
43160000,-0.874381934,113.9971533,19.88427065,
43264444,-0.883888956,112.9922942,19.67076016,
43368888,-0.8928517943,111.9721799,19.47363855,
43473333,-0.901556199,110.9286063,19.28595548,
43577777,-0.9127535504,109.939114,19.04978884,
43682222,-0.9270906251,109.0117538,18.75573745,
43786666,-0.9384316992,108.0072535,18.52950426,
43891111,-0.9575131747,107.1685774,18.16097003,
43995555,-0.972184922,106.2544989,17.88745197,
44100000,-0.9867484719,105.3074381,17.62400327,
44204444,-1.002436991,104.3656461,17.34877802,
44308888,-1.019886233,103.4164057,17.05262125,
44413333,-1.036944989,102.4747345,16.77273797,
44517777,-1.056531327,101.5416786,16.46254356,
44622222,-1.076183941,100.6054672,16.16266158,
44726666,-1.098656107,99.66721204,15.83291989,
44831111,-1.120573877,98.72757807,15.52406969,
44935555,-1.144124741,97.80067057,15.2054135,
45040000,-1.169076444,96.8676845,14.88182978,
45144444,-1.195437682,95.91533788,14.55466245,
45248888,-1.222011913,94.9412956,14.23916056,
45353333,-1.250296704,93.9470977,13.91810814,
45457777,-1.282237984,92.98786133,13.57260979,
45562222,-1.314538141,91.99511502,13.24033401,
45666666,-1.354368663,91.15927112,12.85245495,
45771111,-1.394763641,90.28588059,12.48175018,
45875555,-1.444786874,89.59615041,12.05147608,
45980000,-1.492260807,88.87070625,11.6698685,
46084444,-1.539789932,88.05598097,11.31144544,
46188888,-1.590065221,87.2277329,10.95569268,
46293333,-1.643732599,86.40856411,10.60001618,
46397777,-1.700322057,85.60015181,10.24936349,
46502222,-1.759400518,84.78922456,9.907428943,
46606666,-1.82220614,83.9757003,9.568316897,
46711111,-1.887707399,83.2774202,9.23877373,
46815555,-1.957712875,82.70819615,8.911040429,
46920000,-2.029558996,82.23313572,8.598294419,
47024444,-2.101865324,81.76976007,8.305226245,
47128888,-2.173897681,81.32318946,8.032744657,
47233333,-2.245302936,80.93276841,7.779977743,
47337777,-2.316716778,80.59535801,7.542848591,
47442222,-2.383576269,80.32311667,7.333794809,
47546666,-2.444061975,80.11427867,7.154584492,
47651111,-2.501398269,79.96613964,6.992758555,
47755555,-2.548732222,79.88840487,6.864686652,
47860000,-2.587816649,79.8582661,6.762491879,
47964444,-2.61392578,79.86794931,6.695938904,
48068888,-2.626076774,79.8856883,6.665420272,
48173333,-2.622947817,79.89397954,6.673251773,
48277777,-2.603394259,79.89278629,6.722622247,
48382222,-2.574614141,80.13116255,6.796663169,
48486666,-2.531859313,80.24452633,6.909786713,
48591111,-2.475799096,80.28189709,7.064077223,
48695555,-2.40953634,80.23671306,7.255769718,
48800000,-2.331692072,80.06895996,7.494976128,
48904444,-2.245406161,79.75598783,7.779624035,
49008888,-2.159108009,79.55848361,8.087199807,
49113333,-2.070633841,79.31906357,8.429289153,
49217777,-1.979794335,78.96122855,8.812493172,
49322222,-1.890551754,78.5309718,9.224982799,
49426666,-1.801003473,78.02166481,9.680144495,
49531111,-1.7161245,77.45703782,10.15558802,
49635555,-1.634835853,76.82252255,10.65735933,
49740000,-1.556109255,76.15842086,11.1934417,
49844444,-1.48076828,75.44191382,11.75999827,
49948888,-1.410624741,74.68297721,12.34200982,
50053333,-1.345622449,73.9113861,12.93565627,
50157777,-1.284825573,73.1127313,13.54537421,
50262222,-1.228035388,72.26671428,14.16954836,
50366666,-1.174880904,71.40178576,14.80852868,
50471111,-1.12684721,70.58428732,15.43788473,
50575555,-1.084247034,69.81930361,16.04277473,
50680000,-1.04338299,69.03022197,16.6694911,
50784444,-1.007763237,68.20783102,17.25728977,
50888888,-0.9740450057,67.37836625,17.85336451,
50993333,-0.9436192036,66.53757684,18.42783759,
51097777,-0.9163688037,65.7086233,18.97477213,
51202222,-0.8916434636,64.89375225,19.49998231,
51306666,-0.8685451435,64.09565115,20.0176721,
51411111,-0.8479008045,63.27688038,20.50425248,
51515555,-0.8294664884,62.40996936,20.95923016,
51620000,-0.815027173,61.61207672,21.32999257,
51724444,-0.8018925662,60.79347217,21.67885934,
51828888,-0.78914318,59.96650523,22.0286096,
51933333,-0.7787920298,59.1180197,22.32099845,
52037777,-0.7694638918,58.2641952,22.59123375,
52142222,-0.7611042614,57.43627349,22.83904332,
52246666,-0.7557624747,56.68051961,23.00026574,
52351111,-0.7527528238,55.91849443,23.09210954,
52455555,-0.7520974906,55.13992794,23.11220548,
52560000,-0.7512788146,54.3452002,23.13735965,
52664444,-0.7509694497,53.53692408,23.14687931,
52768888,-0.7485344267,52.67820837,23.22208378,
52873333,-0.7465888174,51.86787738,23.28252575,
52977777,-0.7517035057,51.13560508,23.12430399,
53082222,-0.7573562165,50.38504607,22.95192624,
53186666,-0.762923117,49.60974633,22.78466333,
53291111,-0.7690049308,48.83235239,22.60469914,
53395555,-0.7759687188,48.05352978,22.40210342,
53500000,-0.7828914405,47.25956222,22.20427712,
53604444,-0.787438772,46.418805,22.07622498,
53708888,-0.8001828617,45.71169817,21.72511364,
53813333,-0.8137165654,44.98202336,21.36429727,
53917777,-0.8260346488,44.21146007,21.04617534,
54022222,-0.8372565605,43.41904682,20.76451702,
54126666,-0.8498338988,42.64098532,20.45768609,
54231111,-0.864889336,41.88797649,20.10214441,
54335555,-0.8834414913,41.18402761,19.68070627,
54440000,-0.9016369957,40.49160288,19.28423035,
54544444,-0.9212959074,39.7768401,18.87348329,
54648888,-0.9427913995,39.06918224,18.44398611,
54753333,-0.9667595936,38.37131968,17.98762531,
54857777,-0.9922042384,37.71963843,17.52730405,
54962222,-1.016798183,37.04809189,17.104292,
55066666,-1.043228856,36.39135134,16.67194805,
55171111,-1.071301804,35.73245792,16.23613038,
55275555,-1.099810911,35.08411838,15.81633957,
55380000,-1.129107846,34.47834908,15.4070625,
55484444,-1.154044137,33.75162293,15.0750967,
55588888,-1.180156671,33.0942444,14.74253058,
55693333,-1.215906997,32.62829519,14.31041888,
55797777,-1.246107566,32.09001565,13.96473682,
55902222,-1.277449016,31.55183641,13.62330751,
56006666,-1.3043863,31.05114439,13.34299071,
56111111,-1.330255576,30.57816908,13.08449399,
56215555,-1.354912104,30.15718631,12.8473208,
56320000,-1.378252077,29.77279281,12.63064558,
56424444,-1.400116822,29.42229849,12.43423255,
56528888,-1.416514681,29.09590068,12.29091648,
56633333,-1.426751054,28.7862908,12.2031251,
56737777,-1.43115117,28.47981001,12.16577469,
56842222,-1.42638561,28.18284701,12.20623756,
56946666,-1.416628065,27.8744606,12.28993708,
57051111,-1.398194027,27.57366312,12.45125832,
57155555,-1.371411224,27.23627631,12.69338662,
57260000,-1.338010655,26.88488083,13.00895307,
57364444,-1.294385983,26.47715695,13.44569256,
57468888,-1.243547412,25.89361704,13.99338844,
57573333,-1.197424981,25.56701654,14.53058305,
57677777,-1.142503439,25.01911822,15.22692895,
57782222,-1.075102935,24.34844922,16.17887151,
57886666,-1.018097343,23.8296803,17.08251558,
57991111,-0.9563560915,23.15120702,18.18289835,
58095555,-0.8954356328,22.40654382,19.41754507,
58200000,-0.8380730717,21.60113878,20.74431804,
58304444,-0.7841736179,20.73015364,22.16802077,
58408888,-0.7271707476,19.74796829,23.90349782,
58513333,-0.6829380678,18.9335435,25.44993263,
58617777,-0.635746393,17.92872055,27.33721204,
58722222,-0.5890280282,16.8737067,29.50358109,
58826666,-0.5569066133,15.95322712,31.20402879,
58931111,-0.5265913202,14.94067863,32.99921427,
59035555,-0.498747434,13.8714599,34.84038388,
59140000,-0.4749369065,12.76058209,36.5861381,
59244444,-0.4528914855,11.58981516,38.3661768,
59348888,-0.4416688751,10.51736377,39.34060824,
59453333,-0.4325789243,9.381096321,40.16693541,
59557777,-0.4212535413,8.184498216,41.24638127,
59662222,-0.415463731,7.052115658,41.82095796,
59766666,-0.4207138103,5.926662167,41.29927526,
59871111,-0.4262800226,4.740322336,40.76021628,
59975555,-0.4326189052,3.513141857,40.16322488,
60080000,-0.4415170555,2.285436961,39.35413003,
60184444,-0.4536240022,1.055580374,38.30425079,
60288888,-0.4691296649,-0.1763439308,37.03880476,
60393333,-0.4899532104,-1.409258689,35.46539725,
60497777,-0.5160596461,-2.670332538,33.67224945,
60602222,-0.5465717735,-3.935722394,31.79364914,
60706666,-0.5802523695,-5.222336687,29.94945,
60811111,-0.6183673477,-6.544445778,28.10484071,
60915555,-0.6614716304,-7.878938886,26.27501069,
61020000,-0.7088167811,-9.219197691,24.52173712,
61124444,-0.7587031958,-10.58531947,22.9112297,
61228888,-0.8151217062,-11.97880031,21.32752247,
61333333,-0.8795070801,-13.36373304,19.76859521,
61437777,-0.945083987,-14.82901597,18.39933247,
61542222,-1.015724952,-16.24565802,17.12232347,
61646666,-1.095702556,-17.70199265,15.87548532,
61751111,-1.278771171,-19.5431082,13.6092727,
61855555,-1.277018211,-20.6593759,13.62788684,
61960000,-1.376602202,-22.1694529,12.64572026,
62064444,-1.48473552,-23.67133339,11.72872724,
62168888,-1.603793655,-25.21861242,10.86243622,
62273333,-1.731437706,-26.77307104,10.06635413,
62377777,-1.869113781,-28.33323136,9.32996345,
62482222,-2.016766487,-29.91126358,8.65234248,
62586666,-2.174602508,-31.4870845,8.030168091,
62691111,-2.344586668,-33.02938871,7.454248075,
62795555,-2.533339697,-34.56465788,6.905805541,
62900000,-2.735681488,-36.12430055,6.402480024,
63004444,-2.944891548,-37.65533213,5.955353061,
63108888,-3.17680591,-39.02569912,5.529137963,
63213333,-3.422024541,-40.4360013,5.141955789,
63317777,-3.682330421,-41.79800792,4.788051268,
63422222,-3.959904419,-43.07248248,4.46264039,
63526666,-4.250813205,-44.27148445,4.167937267,
63631111,-4.560813382,-45.36909806,3.896035628,
63735555,-4.886929643,-46.33715871,3.648023472,
63840000,-5.22815987,-47.15818082,3.422451432,
63944444,-5.581801766,-47.8225279,3.218591933,
64048888,-5.946100311,-48.27850284,3.03475527,
64153333,-6.31919099,-48.52129401,2.869248771,
64257777,-6.696006265,-48.56414808,2.721578799,
64362222,-7.0701172,-48.38689292,2.591258963,
64466666,-7.446519876,-47.78103886,2.474037359,
64571111,-7.804224637,-46.89316098,2.373717773,
64675555,-8.137034417,-45.77409887,2.288801052,
64780000,-8.439642008,-44.37483082,2.217804409,
64884444,-8.700860471,-42.7417002,2.160785611,
64988888,-8.9108495,-40.92071291,2.117566003,
65093333,-9.063474612,-38.98747195,2.087515347,
65197777,-9.158312757,-36.99262172,2.069391199,
65302222,-9.188368215,-35.06110917,2.063732517,
65406666,-9.175212233,-33.01296488,2.066204477,
65511111,-9.10571335,-31.20671066,2.079392439,
65615555,-8.986849202,-29.66654595,2.102463503,
65720000,-8.827967549,-28.38899465,2.134358342,
65824444,-8.63646271,-27.42071708,2.174496458,
65928888,-8.428008994,-26.67877261,2.22043244,
66033333,-8.20871707,-26.16763905,2.27147465,
66137777,-7.975792923,-25.98879521,2.328995763,
66242222,-7.738901851,-26.06744333,2.391301805,
66346666,-7.498494962,-26.40390875,2.458828741,
66451111,-7.26636126,-26.95759336,2.528541079,
66555555,-7.037897613,-27.6949543,2.601909096,
66660000,-6.817353112,-28.6176101,2.677659792,
66764444,-6.6022818,-29.74112331,2.756660671,
66868888,-6.39456124,-31.01228372,2.838255052,
66973333,-6.198898052,-32.45670303,2.920346093,
67077777,-6.013709139,-34.05721776,3.003177099,
67182222,-5.830367383,-35.81413622,3.090577344,
67286666,-5.657268367,-37.71746617,3.178493962,
67391111,-5.498054601,-39.68504966,3.264422884,
67495555,-5.345031546,-41.8087536,3.351999906,
67600000,-5.19460094,-44.08536998,3.443284935,
67704444,-5.056234177,-46.46161055,3.532191453,
67808888,-4.920582661,-48.97873502,3.62434733,
67913333,-4.789335362,-51.64070377,3.71861599,
68017777,-4.667035083,-54.39624213,3.811354359,
68122222,-4.550768389,-57.29703718,3.904253005,
68226666,-4.437090397,-60.31291301,3.999900354,
68331111,-4.327995146,-63.48222105,4.096521564,
68435555,-4.220365981,-66.78641864,4.196842799,
68540000,-4.11645177,-70.22330749,4.298778935,
68644444,-4.014051741,-73.80570568,4.404491433,
68748888,-3.912453382,-77.54795802,4.514944614,
68853333,-3.808653631,-81.46022781,4.633982041,
68957777,-3.712008192,-85.52559976,4.750898023,
69062222,-3.611107055,-89.74821002,4.879743861,
69166666,-3.510977521,-94.13779175,5.015033532,
69271111,-3.408740513,-98.6797515,5.161486072,
69375555,-3.303769385,-103.3935679,5.321410544,
69480000,-3.197756709,-108.2876964,5.493710415,
69584444,-3.090544105,-113.3388206,5.680122526,
69688888,-2.978880177,-118.543321,5.888695186,
69793333,-2.863347573,-123.9027811,6.121790713,
69897777,-2.746599733,-129.4116334,6.37744576,
70002222,-2.626053552,-135.05271,6.665478326,
70106666,-2.502908756,-140.8000078,6.988596268,
70211111,-2.377044569,-146.671341,7.353696407,
70315555,-2.250903584,-152.6253064,7.760833962,
70420000,-2.125430257,-158.6512512,8.214042633,
70524444,-1.999951055,-164.740672,8.72444382,
70628888,-1.877362623,-170.8664395,9.289284406,
70733333,-1.754992223,-176.9959733,9.932145863,
70837777,-1.636403428,176.8916628,10.64721028,
70942222,-1.525038629,170.8083915,11.42028987,
71046666,-1.418237352,164.7666211,12.27605325,
71151111,-1.317932268,158.7905756,13.2063656,
71255555,-1.224479963,152.8986939,14.2105548,
71360000,-1.137461772,147.0958971,15.29422674,
71464444,-1.05925663,141.4162809,16.42029239,
71568888,-0.9865831956,135.8491748,17.62694937,
71673333,-0.9207681939,130.4058279,18.88427987,
71777777,-0.8600763832,125.0963778,20.21445004,
71882222,-0.8059134519,119.9122476,21.57085245,
71986666,-0.757183336,114.857363,22.95716,
72091111,-0.7141799367,109.9401931,24.3377954,
72195555,-0.6757491616,105.1417774,25.72040252,
72300000,-0.6432348165,100.4658789,27.01924281,
72404444,-0.6139742534,95.89541416,28.30576665,
72508888,-0.5888094251,91.42902901,29.51452628,
72613333,-0.5676112884,87.06168244,30.61595373,
72717777,-0.5475841521,82.76413874,31.73490756,
72822222,-0.5312814216,78.55160551,32.70807955,
