Frequency,S11_Magnitude,S11_Magnitude (linear),S11_Phase,S11_Unwrapped Phase,S11_VSWR,
30000000,-0.9445629828,0.8969574695,-133.9596921,-133.9596921,18.40946123,
30104444,-0.9667774772,0.8946663976,-137.3488497,-137.3488497,17.98729326,
30208888,-0.9730371061,0.8940218738,-141.0228848,-141.0228848,17.87181885,
30313333,-0.9828368554,0.8930137733,-144.6658708,-144.6658708,17.69399512,
30417777,-0.9926973268,0.8920005736,-148.3113057,-148.3113057,17.51861688,
30522222,-1.004226291,0.8908173879,-151.9482683,-151.9482683,17.31793507,
30626666,-1.01489725,0.8897236555,-155.6095203,-155.6095203,17.13625587,
30731111,-1.025735924,0.8886141076,-159.2739662,-159.2739662,16.95559525,
30835555,-1.038134885,0.8873465309,-162.9228078,-162.9228078,16.7535589,
30940000,-1.049582265,0.886177842,-166.6015483,-166.6015483,16.57127115,
31044444,-1.062390397,0.8848720555,-170.2991637,-170.2991637,16.37197696,
31148888,-1.074213359,0.8836684146,-173.9723347,-173.9723347,16.19223539,
31253333,-1.085849776,0.8824853637,-177.6459429,-177.6459429,16.01915662,
31357777,-1.097322623,0.8813204932,178.6660292,-181.3339708,15.85210913,
31462222,-1.108296062,0.8802077678,174.9571078,-185.0428922,15.69557335,
31566666,-1.118954137,0.8791283658,171.2827581,-188.7172419,15.54647936,
31671111,-1.132349642,0.8777736062,167.5807333,-192.4192667,15.36307787,
31775555,-1.144662643,0.8765301676,163.8530647,-196.1469353,15.19828878,
31880000,-1.155771925,0.8754097993,160.1500957,-199.8499043,15.05262684,
31984444,-1.165515218,0.8744283694,156.4423266,-203.5576734,14.92716436,
32088888,-1.178219655,0.8731503195,152.7293053,-207.2706947,14.76669324,
32193333,-1.189916336,0.8719753003,149.0123068,-210.9876932,14.62198548,
32297777,-1.201420142,0.8708211991,145.2648215,-214.7351785,14.48241652,
32402222,-1.211664635,0.8697947225,141.5390892,-218.4609108,14.36036049,
32506666,-1.221914083,0.8687689603,137.7914789,-222.2085211,14.24029684,
32611111,-1.237004505,0.8672609157,134.055919,-225.944081,14.06715231,
32715555,-1.248242769,0.8661395332,130.3076975,-229.6923025,13.94093102,
32820000,-1.257802768,0.8651867536,126.5568843,-233.4431157,13.83533743,
32924444,-1.271382016,0.8638352045,122.7921609,-237.2078391,13.68808434,
33028888,-1.283547297,0.8626261813,119.0324288,-240.9675712,13.55881491,
33133333,-1.298195959,0.8611725973,115.2513027,-244.7486973,13.40637772,
33237777,-1.316015638,0.8594076557,111.4831012,-248.5168988,13.22552565,
33342222,-1.335216495,0.8575099643,107.6966385,-252.3033615,13.03606919,
33446666,-1.357895596,0.8552739022,103.8844108,-256.1155892,12.81920766,
33551111,-1.386572166,0.8524548612,100.0816807,-259.9183193,12.5551738,
33655555,-1.424975382,0.8486941935,96.28612788,-263.7138721,12.21826337,
33760000,-1.476515446,0.8436731497,92.53002509,-267.4699749,11.79370752,
33864444,-1.541262657,0.8374075404,88.91346875,-271.0865312,11.30069343,
33968888,-1.613543672,0.8304678351,85.50357746,-274.4964225,10.79717136,
34073333,-1.65783109,0.8262442411,82.40160976,-277.5983902,10.51040986,
34177777,-1.64203863,0.8277478635,79.37956567,-280.6204343,10.61088647,
34282222,-1.581295244,0.833556875,76.14098284,-283.8590172,11.01611661,
34386666,-1.515281401,0.8399161461,72.61576483,-287.3842352,11.49345234,
34491111,-1.463054706,0.8449816247,68.92149579,-291.0785042,11.9016963,
34595555,-1.426981962,0.8484981542,65.15427208,-294.8457279,12.20115929,
34700000,-1.396449728,0.8514860036,61.3724186,-298.6275814,12.46674421,
34804444,-1.383839863,0.8527230584,57.57753189,-302.4224681,12.57985831,
34908888,-1.372183423,0.8538681786,53.77997879,-306.2200212,12.68627299,
35013333,-1.362182043,0.8548519326,49.99466124,-310.0053388,12.77903293,
35117777,-1.35059567,0.8559930065,46.02845262,-313.9715474,12.8882144,
35222222,-1.345054835,0.8565392291,42.32505811,-317.6749419,12.94109336,
35326666,-1.340965703,0.8569425645,38.66451627,-321.3354837,12.98039881,
35431111,-1.338025261,0.8572327151,34.9507627,-325.0492373,13.00881162,
35535555,-1.335128236,0.8575186777,31.23454115,-328.7654589,13.03692756,
35640000,-1.332920514,0.8577366637,27.50304382,-332.4969562,13.05843594,
35744444,-1.32948235,0.8580762517,23.78889188,-336.2111081,13.09207426,
35848888,-1.32910668,0.8581133648,20.08660865,-339.9133914,13.0957603,
35953333,-1.326535015,0.8583674673,16.36047134,-343.6395287,13.12104947,
36057777,-1.32297773,0.8587190817,12.64324341,-347.3567566,13.15619338,
36162222,-1.320745401,0.8589398063,8.932866842,-351.0671332,13.17834435,
36266666,-1.317685322,0.8592424681,5.212808262,-354.7871917,13.20883112,
36371111,-1.314226097,0.8595847364,1.49327971,-358.5067203,13.24346576,
36475555,-1.31196613,0.8598084194,-2.221067787,-362.2210678,13.26619196,
36580000,-1.307529611,0.8602476986,-5.934350813,-365.9343508,13.31103445,
36684444,-1.306049367,0.860394314,-9.633707055,-369.6337071,13.32606405,
36788888,-1.303424295,0.8606543839,-13.35519341,-373.3551934,13.35280173,
36893333,-1.299697985,0.8610236901,-17.07277772,-377.0727777,13.39094189,
36997777,-1.297515037,0.8612401108,-20.79675828,-380.7967583,13.41338712,
37102222,-1.29403925,0.8615848178,-24.51339063,-384.5133906,13.44928199,
37206666,-1.29316742,0.861671302,-28.24557689,-388.2455769,13.4583158,
37311111,-1.289652078,0.8620201071,-31.9381602,-391.9381602,13.49486558,
37415555,-1.288389947,0.8621453748,-35.73189867,-395.7318987,13.50803698,
37520000,-1.283009989,0.8626795449,-39.46086189,-399.4608619,13.56447256,
37624444,-1.284257218,0.8625556795,-43.06655142,-403.0665514,13.55134699,
37728888,-1.281891767,0.8627906134,-46.77342819,-406.7734282,13.57626224,
37833333,-1.282149768,0.862764986,-50.4962529,-410.4962529,13.57354025,
37937777,-1.279990209,0.8629795206,-54.22829176,-414.2282918,13.59635821,
38042222,-1.278792157,0.8630985603,-57.95849757,-417.9584976,13.60905016,
38146666,-1.277098001,0.8632669214,-61.6873054,-421.6873054,13.62703846,
38251111,-1.277398713,0.8632370349,-65.41587417,-425.4158742,13.62384206,
38355555,-1.277997559,0.8631775214,-69.09882728,-429.0988273,13.61748114,
38460000,-1.279660341,0.863012295,-72.77968133,-432.7796813,13.5998504,
38564444,-1.277656021,0.8632114631,-76.46102023,-436.4610202,13.62110821,
38668888,-1.277338222,0.8632430468,-80.13612411,-440.1361241,13.62448492,
38773333,-1.277508577,0.8632261163,-83.80404009,-443.8040401,13.62267464,
38877777,-1.27744552,0.8632323831,-87.49559866,-447.4955987,13.62334466,
38982222,-1.281882251,0.8627915588,-91.2004975,-451.2004975,13.57636266,
39086666,-1.282175555,0.8627624246,-94.89256931,-454.8925693,13.57326825,
39191111,-1.285370257,0.8624451557,-98.59372279,-458.5937228,13.53965515,
39295555,-1.286925279,0.8622907673,-102.2745018,-462.2745018,13.52335447,
39400000,-1.288790051,0.8621056621,-105.9557433,-465.9557433,13.50385875,
39504444,-1.291089964,0.8618774177,-109.6334401,-469.6334401,13.47989146,
39608888,-1.296805865,0.8613104309,-113.2760886,-473.2760886,13.42069517,
39713333,-1.30158647,0.8608365068,-116.9128641,-476.9128641,13.37158521,
39817777,-1.304379623,0.860559729,-120.5576943,-480.5576943,13.34305876,
39922222,-1.3089218,0.8601098277,-124.2128052,-484.2128052,13.29692999,
40026666,-1.314716096,0.8595362459,-127.8647469,-487.8647469,13.23854867,
40131111,-1.320598782,0.8589543054,-131.5222878,-491.5222878,13.17980184,
40235555,-1.325039636,0.8585152583,-135.1765597,-495.1765597,13.13579991,
40340000,-1.331725935,0.8578546373,-138.8176708,-498.8176708,13.07010374,
40444444,-1.338742125,0.8571619689,-142.4566881,-502.4566881,13.0018732,
40548888,-1.346209535,0.8564253686,-146.1350825,-506.1350825,12.9300375,
40653333,-1.352670644,0.8557885426,-149.8445114,-509.8445114,12.8685236,
40757777,-1.35895069,0.8551700165,-153.5400407,-513.5400407,12.80929523,
40862222,-1.366040445,0.8544722789,-157.2056328,-517.2056328,12.7430861,
40966666,-1.373134467,0.8537746911,-160.8471589,-520.8471589,12.67752283,
41071111,-1.383404254,0.8527658247,-164.4506192,-524.4506192,12.58380278,
41175555,-1.394114295,0.8517149791,-168.0506937,-528.0506937,12.48753898,
41280000,-1.405521443,0.850597159,-171.6515324,-531.6515324,12.3866263,
41384444,-1.41594796,0.8495767173,-175.2617377,-535.2617377,12.29581408,
41488888,-1.424643803,0.8487265925,-178.8956409,-538.8956409,12.2210944,
41593333,-1.434570518,0.8477571749,177.4451947,-542.5548053,12.13690809,
41697777,-1.44274912,0.8469593056,173.7965342,-546.2034658,12.06841953,
41802222,-1.45287671,0.8459723419,170.1606431,-549.8393569,11.98468097,
41906666,-1.461933956,0.8450906606,166.4945884,-553.5054116,11.91077741,
42011111,-1.474198847,0.8438981943,162.835412,-557.164588,11.8121516,
42115555,-1.484098117,0.8429369552,159.1684824,-560.8315176,11.73374015,
42220000,-1.495688213,0.8418129247,155.5230531,-564.4769469,11.64325797,
42324444,-1.509016706,0.8405221538,151.9022679,-568.0977321,11.54092683,
42428888,-1.523866785,0.8390863588,148.3156414,-571.6843586,11.42902706,
42533333,-1.538749858,0.8376498346,144.7229873,-575.2770127,11.3190512,
42637777,-1.549578532,0.8366061896,141.1111747,-578.8888253,11.24036575,
42742222,-1.563117921,0.8353031207,137.494971,-582.505029,11.14352093,
42846666,-1.576116015,0.8340540572,133.8753917,-586.1246083,11.05211749,
42951111,-1.590700609,0.8326547608,130.2562643,-589.7437357,10.95134089,
43055555,-1.604797452,0.8313044923,126.6555533,-593.3444467,10.85568026,
43160000,-1.618593608,0.8299851452,123.0490302,-596.9509698,10.76367796,
43264444,-1.635794695,0.828343112,119.4484155,-600.5515845,10.65114912,
43368888,-1.650490025,0.8269428542,115.8524149,-604.1475851,10.55687615,
43473333,-1.667968699,0.8252804648,112.2712222,-607.7287778,10.4469169,
43577777,-1.683684779,0.8237885685,108.6328434,-611.3671566,10.35000143,
43682222,-1.699175235,0.8223207294,104.8401677,-615.1598323,10.25623711,
43786666,-1.721870869,0.8201748664,101.363438,-618.636562,10.12191583,
43891111,-1.744536262,0.8180374512,97.87532518,-622.1246748,9.991272729,
43995555,-1.767850806,0.8158446308,94.33492397,-625.665076,9.860394721,
44100000,-1.78965497,0.8137991868,90.79496208,-629.2050379,9.741091649,
44204444,-1.815603428,0.8113716492,87.25489535,-632.7451046,9.602860025,
44308888,-1.839300915,0.809161022,83.72710395,-636.272896,9.480039355,
44413333,-1.866333364,0.8066466449,80.19330451,-639.8066955,9.34375638,
44517777,-1.894552082,0.8040302637,76.67181642,-643.3281836,9.205657451,
44622222,-1.924475796,0.801265069,73.14451439,-646.8554856,9.063656098,
44726666,-1.955402849,0.798417151,69.63603501,-650.363965,8.921478985,
44831111,-1.98804525,0.7954222543,66.13781294,-653.8621871,8.776234425,
44935555,-2.023220701,0.7922075279,62.63698301,-657.363017,8.624987758,
45040000,-2.059063275,0.7889451964,59.15259831,-660.8474017,8.476211703,
45144444,-2.093214773,0.7858492832,55.58366633,-664.4163337,8.339216929,
45248888,-2.136793012,0.781916449,52.2216853,-667.7783147,8.170797114,
45353333,-2.181213277,0.7779278796,48.78141664,-671.2185834,8.006083234,
45457777,-2.221521641,0.7743261353,45.33491395,-674.6650861,7.862346567,
45562222,-2.268942731,0.7701101784,41.86032066,-678.1396793,7.699819707,
45666666,-2.314077086,0.7661188458,38.38484224,-681.6151578,7.551351676,
45771111,-2.36511276,0.7616305608,35.12089662,-684.8791034,7.390337312,
45875555,-2.421141954,0.756733399,31.88873454,-688.1112655,7.221432747,
45980000,-2.477209143,0.7518644362,28.60106633,-691.3989337,7.060110247,
46084444,-2.531876016,0.7471472447,25.32092946,-694.6790705,6.909741768,
46188888,-2.590559436,0.7421163984,22.09102046,-697.9089795,6.7554369,
46293333,-2.648558732,0.7371774866,18.90572047,-701.0942795,6.609698172,
46397777,-2.707305039,0.7322084695,15.73823304,-704.261767,6.468496095,
46502222,-2.767497716,0.7271518514,12.62354818,-707.3764518,6.330084556,
46606666,-2.826045026,0.7222669602,9.55198358,-710.4480164,6.201159795,
46711111,-2.881278815,0.7176886189,6.494967851,-713.5050321,6.084376096,
46815555,-2.937445303,0.7130627256,3.57112919,-716.4288708,5.970164486,
46920000,-2.987439423,0.7089702782,0.785690231,-719.2143098,5.872150333,
47024444,-3.032220529,0.7053245063,-2.022777539,-722.0227775,5.787127002,
47128888,-3.070085627,0.7022564208,-4.80462242,-724.8046224,5.717189352,
47233333,-3.101772124,0.6996992264,-7.558090063,-727.5580901,5.659989504,
47337777,-3.127559126,0.6976250131,-10.29878277,-730.2987828,5.614303719,
47442222,-3.142536324,0.6964231254,-13.01736857,-733.0173686,5.588117103,
47546666,-3.147439785,0.6960300833,-15.70524031,-735.7052403,5.579598473,
47651111,-3.142878557,0.6963956861,-18.34708933,-738.3470893,5.58752168,
47755555,-3.12805962,0.6975848161,-20.96632201,-740.966322,5.613424546,
47860000,-3.107681197,0.6992233779,-23.5878178,-743.5878178,5.64945296,
47964444,-3.07394001,0.701944862,-26.24724187,-746.2472419,5.710167835,
48068888,-3.035434635,0.7050635579,-28.92128956,-748.9212896,5.781122014,
48173333,-2.985059916,0.7091645278,-31.69263922,-751.6926392,5.876740257,
48277777,-2.932509994,0.7134680018,-34.4052798,-754.4052798,5.980023218,
48382222,-2.873394135,0.7183404018,-37.12638944,-757.1263894,6.10076991,
48486666,-2.811017773,0.7235176188,-39.89845714,-759.8984571,6.233733996,
48591111,-2.747168869,0.7288557034,-42.7428169,-762.7428169,6.3761463,
48695555,-2.680149466,0.7345012288,-45.61995727,-765.6199573,6.53299155,
48800000,-2.613486447,0.7401601134,-48.53170948,-768.5317095,6.697047695,
48904444,-2.544373533,0.7460729999,-51.57911851,-771.5791185,6.876279401,
49008888,-2.477153433,0.7518692586,-54.57308831,-774.5730883,7.060266892,
49113333,-2.415219718,0.7572495329,-57.63975071,-777.6397507,7.238913085,
49217777,-2.351427123,0.7628315449,-60.71377084,-780.7137708,7.432824674,
49322222,-2.287426924,0.7684730716,-63.81876324,-783.8187632,7.638304035,
49426666,-2.227737532,0.7737722018,-66.96591525,-786.9659153,7.840646535,
49531111,-2.170691664,0.77887079,-70.12836931,-790.1283693,8.044485803,
49635555,-2.11720788,0.7836815204,-73.31930867,-793.3193087,8.245627112,
49740000,-2.064088386,0.7884888942,-76.52557201,-796.525572,8.455768255,
49844444,-2.016500531,0.7928206867,-79.76738465,-799.7673846,8.653473448,
49948888,-1.96808032,0.797252673,-83.01971689,-803.0197169,8.864495031,
50053333,-1.923710496,0.8013356704,-86.26430066,-806.2643007,9.067232521,
50157777,-1.883543552,0.8050499408,-89.55640262,-809.5564026,9.259037664,
50262222,-1.846298592,0.8085093942,-92.83595903,-812.835959,9.444376588,
50366666,-1.810909069,0.8118102801,-96.11003744,-816.1100374,9.627573074,
50471111,-1.774756987,0.8151962077,-99.33742831,-819.3374283,9.822288737,
50575555,-1.743360748,0.8181481686,-102.5559123,-822.5559123,9.99796458,
50680000,-1.714244165,0.8208953427,-105.7834406,-825.7834406,10.16665546,
50784444,-1.685776248,0.8235902329,-109.037072,-829.037072,10.33724075,
50888888,-1.660494099,0.8259909615,-112.2764174,-832.2764174,10.49365583,
50993333,-1.637901131,0.8281422528,-115.5362502,-835.5362502,10.63753181,
51097777,-1.61446845,0.8303794206,-118.8146599,-838.8146599,10.7910221,
51202222,-1.593395187,0.8323964908,-122.1076005,-842.1076005,10.93292437,
51306666,-1.574965701,0.8341645222,-125.2819761,-845.2819761,11.06014555,
51411111,-1.559034274,0.8356959285,-128.5032485,-848.5032485,11.17255289,
51515555,-1.54187712,0.8373483021,-131.78931,-851.78931,11.29621348,
51620000,-1.528067288,0.8386806741,-135.0319733,-855.0319733,11.39777062,
51724444,-1.514344945,0.8400067052,-138.2924441,-858.2924441,11.50052386,
51828888,-1.501679541,0.8412324616,-141.4879033,-861.4879033,11.5970335,
51933333,-1.490058208,0.8423587464,-144.7294674,-864.7294674,11.68703436,
52037777,-1.480172469,0.8433180124,-147.9560256,-867.9560256,11.76470915,
52142222,-1.470975063,0.8442114669,-151.1786187,-871.1786187,11.83791535,
52246666,-1.462241179,0.84506077,-154.4140888,-874.4140888,11.90828669,
52351111,-1.45368441,0.8458936787,-157.6700444,-877.6700444,11.97805296,
52455555,-1.44357027,0.8468792392,-160.9689844,-880.9689844,12.06158609,
52560000,-1.436759074,0.8475435952,-164.1774417,-884.1774417,12.11850428,
52664444,-1.433455849,0.8478659755,-167.3598156,-887.3598156,12.14630311,
52768888,-1.42830906,0.8483685239,-170.5682441,-890.5682441,12.18987358,
52873333,-1.423528947,0.8488355358,-173.775441,-893.775441,12.23062276,
52977777,-1.419087361,0.8492697044,-177.0086165,-897.0086165,12.26873268,
53082222,-1.413917397,0.8497753521,179.7584118,-900.2415882,12.31339449,
53186666,-1.408284202,0.8503266489,176.5272745,-903.4727255,12.36243216,
53291111,-1.402728734,0.8508706891,173.2568791,-906.7431209,12.41117979,
53395555,-1.399728397,0.8511646532,170.0403906,-909.9596094,12.43766816,
53500000,-1.398085796,0.8513256335,166.864401,-913.135599,12.45221807,
53604444,-1.395975676,0.8515324767,163.6675488,-916.3324512,12.47095954,
53708888,-1.392785172,0.8518453193,160.4372643,-919.5627357,12.49940475,
53813333,-1.39015468,0.8521033368,157.1982366,-922.8017634,12.52295553,
53917777,-1.388195067,0.8522956005,153.9767714,-926.0232286,12.54055808,
54022222,-1.387602899,0.8523537085,150.7368224,-929.2631776,12.54588713,
54126666,-1.383685998,0.852738164,147.5065803,-932.4934197,12.58125129,
54231111,-1.381832278,0.8529201726,144.2522524,-935.7477476,12.59805784,
54335555,-1.381046402,0.852997346,141.0822623,-938.9177377,12.60519654,
54440000,-1.380216045,0.853078895,137.8926615,-942.1073385,12.61274815,
54544444,-1.378864855,0.8532116116,134.6714128,-945.3285872,12.62505592,
54648888,-1.378702628,0.8532275472,131.428872,-948.571128,12.62653524,
54753333,-1.375711001,0.8535214697,128.2159337,-951.7840663,12.65387812,
54857777,-1.375851994,0.8535076151,125.0254681,-954.9745319,12.6525868,
54962222,-1.378539615,0.8532435604,121.8021465,-958.1978535,12.62802208,
55066666,-1.378879942,0.8532101296,118.5707412,-961.4292588,12.62491836,
55171111,-1.378161104,0.8532807435,115.3565765,-964.6434235,12.63147584,
55275555,-1.38051241,0.8530497883,112.1328133,-967.8671867,12.61005184,
55380000,-1.377282868,0.8533670237,108.9419556,-971.0580444,12.63949673,
55484444,-1.383269779,0.8527790273,105.6660476,-974.3339524,12.58502096,
55588888,-1.3823072,0.8528735384,102.4456571,-977.5543429,12.59374771,
55693333,-1.381031749,0.852998785,99.20998956,-980.7900104,12.60532973,
55797777,-1.38362451,0.8527442006,95.94766971,-984.0523303,12.58180804,
55902222,-1.381294034,0.8529730276,92.67393926,-987.3260607,12.60294623,
56006666,-1.380376243,0.8530631615,89.40298948,-990.5970105,12.61129054,
56111111,-1.378824048,0.8532156201,86.1384068,-993.8615932,12.625428,
56215555,-1.379375063,0.8531614955,82.87174488,-997.1282551,12.62040568,
56320000,-1.379955584,0.8531044764,79.59597368,-1000.404026,12.61511876,
56424444,-1.380087113,0.8530915581,76.335427,-1003.664573,12.61392153,
56528888,-1.381594492,0.8529435225,73.09163197,-1006.908368,12.60021696,
56633333,-1.382479918,0.8528565792,69.84629623,-1010.153704,12.59218094,
56737777,-1.383309585,0.8527751191,66.59912653,-1013.400873,12.58466034,
56842222,-1.384985551,0.8526105898,63.36582869,-1016.634171,12.56949592,
56946666,-1.385152128,0.8525942387,60.13831103,-1019.861689,12.56799071,
57051111,-1.388480143,0.8522676282,56.93432864,-1023.065671,12.53799425,
57155555,-1.388127076,0.8523022721,53.61089084,-1026.389109,12.54116971,
57260000,-1.393384133,0.8517865799,50.42564532,-1029.574355,12.49405471,
57364444,-1.394205125,0.8517060726,47.18831643,-1032.811684,12.48672892,
57468888,-1.395127383,0.8516156442,43.93836818,-1036.061632,12.47850984,
57573333,-1.39667992,0.851463438,40.68789979,-1039.3121,12.46469834,
57677777,-1.398019779,0.8513321039,37.43204732,-1042.567953,12.45280355,
57782222,-1.398281349,0.851306467,34.16824494,-1045.831755,12.45048409,
57886666,-1.398988166,0.8512371945,30.9255535,-1049.074446,12.44422078,
57991111,-1.398004083,0.8513336423,27.66000189,-1052.339998,12.45294276,
58095555,-1.397664335,0.8513669428,24.36730469,-1055.632695,12.45595683,
58200000,-1.393558904,0.851769441,21.01635491,-1058.983645,12.49249449,
58304444,-1.389601295,0.8521576268,17.85082495,-1062.149175,12.52792137,
58408888,-1.383075321,0.8527981194,14.61552824,-1065.384472,12.58678294,
