Frequency,S11_Magnitude,S11_Magnitude (linear),S11_Phase,S11_Unwrapped Phase,S11_VSWR,
30000000,-0.964325036,0.8949190402,-133.7161186,-133.7161186,18.03294378,
30104444,-0.9640140141,0.8949510858,-137.3438703,-137.3438703,18.03874986,
30208888,-0.9705829842,0.8942745075,-141.017034,-141.017034,17.91691354,
30313333,-0.9806252593,0.8932411809,-144.6611711,-144.6611711,17.73381531,
30417777,-0.9907512169,0.8922004525,-148.3087873,-148.3087873,17.55295357,
30522222,-1.001917633,0.8910541934,-151.9508795,-151.9508795,17.35775108,
30626666,-1.013012756,0.8899167112,-155.608199,-155.608199,17.16806185,
30731111,-1.024056613,0.8887859269,-159.27204,-159.27204,16.9833356,
30835555,-1.036497721,0.8875137986,-162.9200883,-162.9200883,16.77995857,
30940000,-1.048028721,0.8863363565,-166.5965723,-166.5965723,16.59577591,
31044444,-1.060597308,0.8850547446,-170.2905831,-170.2905831,16.39958724,
31148888,-1.072673416,0.8838250962,-173.9585759,-173.9585759,16.21542204,
31253333,-1.08468343,0.8826038723,-177.6312254,-177.6312254,16.03633705,
31357777,-1.096500097,0.8814039555,178.6808025,-181.3191975,15.86396884,
31462222,-1.106849677,0.8803543533,174.9679439,-185.0320561,15.71602817,
31566666,-1.118349475,0.8791895679,171.2957023,-188.7042977,15.55486173,
31671111,-1.1320304,0.8778058686,167.5916498,-192.4083502,15.36739815,
31775555,-1.143947766,0.8766023119,163.8718425,-196.1281575,15.20775908,
31880000,-1.155211412,0.8754662925,160.1709338,-199.8290662,15.05990892,
31984444,-1.165045204,0.8744756879,156.4583004,-203.5416996,14.93316838,
32088888,-1.177167628,0.8732560811,152.7460475,-207.2539525,14.77984977,
32193333,-1.188804428,0.8720869317,149.0293267,-210.9706733,14.63561899,
32297777,-1.200555807,0.8709078591,145.2872945,-214.7127055,14.49280991,
32402222,-1.210519655,0.869909387,141.5556408,-218.4443592,14.37389942,
32506666,-1.220927457,0.8688676489,137.8170892,-222.1829108,14.2517665,
32611111,-1.236308784,0.8673303842,134.0812189,-225.9187811,14.07504177,
32715555,-1.24714854,0.8662486544,130.3319979,-229.6680021,13.95312059,
32820000,-1.256770948,0.8652895376,126.5853181,-233.4146819,13.84665678,
32924444,-1.270629101,0.8639100872,122.8159317,-237.1840683,13.69616637,
33028888,-1.282817403,0.8626986727,119.0595031,-240.9404969,13.56650157,
33133333,-1.29737354,0.8612541409,115.2805993,-244.7194007,13.41484462,
33237777,-1.314505236,0.8595571123,111.5139445,-248.4860555,13.24066418,
33342222,-1.334335641,0.8575969305,107.7219675,-252.2780325,13.04464108,
33446666,-1.356402661,0.8554209197,103.9159043,-256.0840957,12.83325995,
33551111,-1.385775356,0.8525330657,100.1094023,-259.8905977,12.56236237,
33655555,-1.424920898,0.8486995171,96.30940813,-263.6905919,12.21872847,
33760000,-1.476505519,0.8436741139,92.56284149,-267.4371585,11.79378643,
33864444,-1.541650192,0.8373701789,88.95568446,-271.0443155,11.29786756,
33968888,-1.613749369,0.8304481683,85.55800521,-274.4419948,10.79580297,
34073333,-1.655823383,0.8264352461,82.46892037,-277.5310796,10.52307686,
34177777,-1.637877965,0.8281444616,79.43947638,-280.5605236,10.63768138,
34282222,-1.576905632,0.8339782383,76.19779532,-283.8022047,11.04661353,
34386666,-1.511466625,0.8402851118,72.65471459,-287.3452854,11.52231412,
34491111,-1.458477918,0.8454269815,68.96015085,-291.0398491,11.93886876,
34595555,-1.423414455,0.8488467247,65.1998121,-294.8001879,12.23160214,
34700000,-1.393213806,0.8518032832,61.42126947,-298.5787305,12.49557563,
34804444,-1.379635832,0.8531358821,57.61603562,-302.3839644,12.61803025,
34908888,-1.368330625,0.8542470127,53.81647675,-306.1835232,12.72184568,
35013333,-1.358271581,0.8552368809,50.03176017,-309.9682398,12.81567358,
35117777,-1.347299845,0.8563178711,46.07001665,-313.9299834,12.91961558,
35222222,-1.3409736,0.8569417854,42.36648273,-317.6335173,12.98032266,
35326666,-1.336520555,0.8573812313,38.69808672,-321.3019133,13.02339971,
35431111,-1.333294253,0.8576997576,34.98877133,-325.0112287,13.05478984,
35535555,-1.330736745,0.8579523393,31.27634449,-328.7236555,13.07978133,
35640000,-1.32873699,0.8581498887,27.54634933,-332.4536507,13.09938971,
35744444,-1.3248171,0.858537254,23.82880088,-336.1711991,13.13799786,
35848888,-1.32340965,0.8586763815,20.12659429,-339.8734057,13.15191616,
35953333,-1.321359214,0.858879109,16.40296209,-343.5970379,13.17224612,
36057777,-1.31800748,0.8592105996,12.68173982,-347.3182602,13.20561487,
36162222,-1.315403033,0.8594682708,8.970184216,-351.0298158,13.2316615,
36266666,-1.311671776,0.8598375577,5.249056049,-354.750944,13.26915775,
36371111,-1.308655491,0.8601361991,1.534118008,-358.465882,13.29962568,
36475555,-1.306156588,0.8603836931,-2.18231366,-362.1823137,13.32497424,
36580000,-1.301952577,0.8608002236,-5.890960924,-365.8909609,13.36783918,
36684444,-1.300287936,0.8609652108,-9.592647543,-369.5926475,13.38488893,
36788888,-1.298044772,0.8611875871,-13.32054879,-373.3205488,13.4079334,
36893333,-1.294042086,0.8615845364,-17.0421161,-377.0421161,13.44925262,
36997777,-1.292194626,0.861767812,-20.76400754,-380.7640075,13.46841021,
37102222,-1.288155676,0.8621686284,-24.48836377,-384.4883638,13.51048464,
37206666,-1.287594812,0.862224302,-28.21544312,-388.2154431,13.51634816,
37311111,-1.284256863,0.8625557147,-31.90687465,-391.9068747,13.55135072,
37415555,-1.28254879,0.8627253522,-35.74451095,-395.744511,13.56933259,
37520000,-1.275913786,0.8633846253,-39.42409284,-399.4240928,13.6396407,
37624444,-1.278739063,0.8631038361,-43.03933322,-403.0393332,13.60961318,
37728888,-1.276492851,0.8633270677,-46.74274649,-406.7427465,13.63347545,
37833333,-1.276212016,0.8633549815,-50.46312643,-410.4631264,13.63646477,
37937777,-1.274139813,0.8635609776,-54.19024107,-414.1902411,13.65856296,
38042222,-1.273615036,0.8636131532,-57.9356487,-417.9356487,13.66417068,
38146666,-1.271854611,0.863788205,-61.67402396,-421.674024,13.68301625,
38251111,-1.272150364,0.8637587936,-65.41547984,-425.4154798,13.67984652,
38355555,-1.273239026,0.8636505396,-69.09398184,-429.0939818,13.66819153,
38460000,-1.274330242,0.8635420452,-72.75168604,-432.751686,13.65652921,
38564444,-1.272500197,0.8637240056,-76.42403623,-436.4240362,13.67609911,
38668888,-1.2720247,0.8637712902,-80.09844677,-440.0984468,13.68119315,
38773333,-1.273601848,0.8636144645,-83.76467462,-443.7646746,13.66431167,
38877777,-1.273510429,0.8636235541,-87.45696026,-447.4569603,13.66528906,
38982222,-1.277745726,0.8632025482,-91.15716788,-451.1571679,13.62015537,
39086666,-1.278424084,0.8631351357,-94.85395988,-454.8539599,13.61295424,
39191111,-1.281480967,0.8628314202,-98.55937767,-458.5593777,13.58059858,
39295555,-1.282707259,0.8627096124,-102.2521162,-462.2521162,13.56766228,
39400000,-1.284776838,0.8625040799,-105.9184639,-465.9184639,13.54588615,
39504444,-1.286549302,0.8623280931,-109.5861726,-469.5861726,13.52729206,
39608888,-1.292803987,0.8617073566,-113.2213309,-473.2213309,13.46208526,
39713333,-1.298779888,0.861114705,-116.8573293,-476.8573293,13.40037262,
39817777,-1.301673172,0.860827914,-120.5047886,-480.5047886,13.37069788,
39922222,-1.306284533,0.8603710196,-124.1638724,-484.1638724,13.32367403,
40026666,-1.312323119,0.8597730821,-127.8230375,-487.8230375,13.26259687,
40131111,-1.318091853,0.8592022534,-131.4866744,-491.4866744,13.20477279,
40235555,-1.322794062,0.85873724,-135.1507685,-495.1507685,13.15801305,
40340000,-1.329682252,0.8580565037,-138.7971347,-498.7971347,13.09011368,
40444444,-1.336781749,0.8573554493,-142.4261985,-502.4261985,13.02086509,
40548888,-1.344703645,0.8565738617,-146.0966274,-506.0966274,12.94445966,
40653333,-1.351378609,0.8559158515,-149.8137273,-509.8137273,12.88077745,
40757777,-1.357388969,0.8553237897,-153.5068068,-513.5068068,12.82397283,
40862222,-1.364647223,0.8546093478,-157.1687301,-517.1687301,12.75604256,
40966666,-1.371835766,0.8539023557,-160.8064777,-520.8064777,12.68947467,
41071111,-1.383618224,0.8527448178,-164.4023928,-524.4023928,12.58186496,
41175555,-1.393678411,0.8517577218,-168.0072273,-528.0072273,12.49142785,
41280000,-1.404387329,0.8507082285,-171.6154105,-531.6154105,12.39658563,
41384444,-1.415019987,0.8496674881,-175.2399487,-535.2399487,12.3038421,
41488888,-1.423558845,0.848832614,-178.8801373,-538.8801373,12.23036703,
41593333,-1.432863829,0.847923767,177.4618893,-542.5381107,12.15129893,
41697777,-1.441561946,0.8470750746,173.809346,-546.190654,12.07831274,
41802222,-1.451450857,0.8461112259,170.1705854,-549.8294146,11.99639958,
41906666,-1.460866282,0.845194546,166.5032985,-553.4967015,11.91944145,
42011111,-1.472628858,0.8440507442,162.838851,-557.161149,11.82468447,
42115555,-1.482970287,0.8430464144,159.1819579,-560.8180421,11.74262065,
42220000,-1.49481237,0.8418978132,155.5345559,-564.4654441,11.65004641,
42324444,-1.50791263,0.8406290006,151.921369,-568.078631,11.54933462,
42428888,-1.522424472,0.8392257027,148.3364922,-571.6635078,11.43979936,
42533333,-1.53697578,0.8378209406,144.7406094,-575.2593906,11.33204834,
42637777,-1.548637348,0.8366968474,141.1240569,-578.8759431,11.24716099,
42742222,-1.562075551,0.8354033692,137.5202787,-582.4797213,11.150917,
42846666,-1.574350146,0.8342236402,133.9011888,-586.0988112,11.06444636,
42951111,-1.588995814,0.8328182036,130.2779782,-589.7220218,10.96302494,
43055555,-1.603047592,0.8314719838,126.678813,-593.321187,10.86746302,
43160000,-1.615962215,0.8302366275,123.073897,-596.926103,10.78110432,
43264444,-1.633871521,0.8285265387,119.4730786,-600.5269214,10.66361246,
43368888,-1.648827903,0.8271011123,115.878347,-604.121653,10.5674544,
43473333,-1.6659361,0.8254736126,112.2981561,-607.7018439,10.45958517,
43577777,-1.681686959,0.8239780678,108.6599232,-611.3400768,10.36222046,
43682222,-1.697029872,0.8225238627,104.8621877,-615.1378123,10.26912063,
43786666,-1.720103031,0.8203418135,101.4040026,-618.5959974,10.13225085,
43891111,-1.742188113,0.8182586298,97.91124413,-622.0887559,10.00464907,
43995555,-1.765021348,0.8161104382,94.37666836,-625.6233316,9.87609313,
44100000,-1.786549781,0.8140901704,90.83547,-629.16453,9.757903463,
44204444,-1.812552593,0.8116566857,87.29239922,-632.7076008,9.618906266,
44308888,-1.836352714,0.8094357174,83.76000027,-636.2399997,9.495146169,
44413333,-1.863092689,0.8069476581,80.22312718,-639.7768728,9.359884686,
44517777,-1.891133621,0.804346764,76.70597528,-643.2940247,9.222166733,
44622222,-1.920496949,0.801632198,73.18332472,-646.8166753,9.082281397,
44726666,-1.951633249,0.7987637322,69.67258079,-650.3274192,8.938566352,
44831111,-1.983953428,0.7957970568,66.17203192,-653.8279681,8.794178126,
44935555,-2.019331653,0.7925623128,62.67951388,-657.3204861,8.641449571,
45040000,-2.054546867,0.7893555315,59.18626199,-660.813738,8.494671348,
45144444,-2.089700461,0.7861673022,55.64227323,-664.3577268,8.35310652,
45248888,-2.132842868,0.7822721276,52.25830919,-667.7416908,8.185778458,
45353333,-2.176019611,0.7783931752,48.82013963,-671.1798604,8.024992806,
45457777,-2.217203344,0.7747111968,45.38129231,-674.6187077,7.877494005,
45562222,-2.264504387,0.7705037924,41.91311331,-678.0868867,7.714740959,
45666666,-2.311658457,0.7663322051,38.54260628,-681.4573937,7.559159813,
45771111,-2.359128006,0.7621555205,35.12624511,-684.8737549,7.40885609,
45875555,-2.415209395,0.7572504329,31.86664111,-688.1333589,7.238943631,
45980000,-2.471583419,0.7523515656,28.6325238,-691.3674762,7.075964642,
46084444,-2.52645661,0.7476135593,25.35532484,-694.6446752,6.924355979,
46188888,-2.585468858,0.7425514613,22.1310871,-697.8689129,6.768542833,
46293333,-2.643495835,0.7376073034,18.93891658,-701.0610834,6.622163368,
46397777,-2.702057968,0.7326509239,15.77846883,-704.2215312,6.480856225,
46502222,-2.762270044,0.7275896253,12.66694254,-707.3330575,6.34186428,
46606666,-2.820951859,0.7226906019,9.599482012,-710.400518,6.212160906,
46711111,-2.875822957,0.7181395614,6.550046795,-713.4499532,6.095710239,
46815555,-2.931414723,0.7135579742,3.581109762,-716.4188902,5.982215666,
46920000,-2.981813906,0.7094295997,0.8191110104,-719.180889,5.883013542,
47024444,-3.027082638,0.7057418444,-1.983684704,-721.9836847,5.796752993,
47128888,-3.065093028,0.7026601897,-4.770183931,-724.7701839,5.726310875,
47233333,-3.09661163,0.7001150579,-7.517179609,-727.5171796,5.669224491,
47337777,-3.122078148,0.698065368,-10.26053116,-730.2605312,5.623950313,
47442222,-3.137276476,0.6968449807,-12.98137834,-732.9813783,5.597284798,
47546666,-3.141641232,0.6964948963,-15.67911906,-735.6791191,5.58967502,
47651111,-3.13736737,0.6968376885,-18.32543205,-738.3254321,5.597126108,
47755555,-3.122987424,0.6979922954,-20.9388845,-740.9388845,5.622347607,
47860000,-3.101688636,0.699705952,-23.56309883,-743.5630988,5.660138664,
47964444,-3.069008574,0.7023435061,-26.21156451,-746.2115645,5.7191546,
48068888,-3.030049627,0.7055008132,-28.91552495,-748.915525,5.791190229,
48173333,-2.979888282,0.7095868946,-31.66786986,-751.6678699,5.886741551,
48277777,-2.927041409,0.7139173385,-34.37811213,-754.3781121,5.990986415,
48382222,-2.868141916,0.7187749022,-37.09262004,-757.09262,6.111740792,
48486666,-2.805514215,0.7239761997,-39.86407217,-759.8640722,6.245751989,
48591111,-2.741676033,0.7293167674,-42.71761355,-762.7176136,6.388710342,
48695555,-2.67477141,0.7349561519,-45.59596829,-765.5959683,6.54592123,
48800000,-2.608304263,0.7406018402,-48.50616641,-768.5061664,6.710154928,
48904444,-2.538832154,0.7465491277,-51.54753313,-771.5475331,6.891075621,
49008888,-2.471125283,0.7523912493,-54.53774304,-774.537743,7.07725896,
49113333,-2.40965469,0.7577348562,-57.61234832,-777.6123483,7.255417881,
49217777,-2.34584082,0.7633223154,-60.68806112,-780.6880611,7.450310825,
49322222,-2.281679705,0.7689817178,-63.7961396,-783.7961396,7.657323484,
49426666,-2.222638084,0.7742266135,-66.94485327,-786.9448533,7.858440008,
49531111,-2.165518001,0.7793348548,-70.11630719,-790.1163072,8.063506599,
49635555,-2.111705462,0.7841781315,-73.30150906,-793.3015091,8.266901514,
49740000,-2.058538011,0.7889929079,-76.51149828,-796.5114983,8.4783544,
49844444,-2.011418777,0.7932846689,-79.75950974,-799.7595097,8.675141121,
49948888,-1.96314746,0.7977055745,-83.01063602,-803.010636,8.886579897,
50053333,-1.919025609,0.8017680014,-86.267209,-806.267209,9.089188498,
50157777,-1.878672946,0.8055014986,-89.55101426,-809.5510143,9.282855576,
50262222,-1.841900092,0.8089189238,-92.83887481,-812.8388748,9.466761229,
50366666,-1.806540213,0.8122187096,-96.09774986,-816.0977499,9.650688341,
50471111,-1.770261395,0.8156182414,-99.31882937,-819.3188294,9.847060008,
50575555,-1.738920855,0.8185664814,-102.5299554,-822.5299554,10.02332147,
50680000,-1.709594228,0.8213349216,-105.7611671,-825.7611671,10.19412936,
50784444,-1.681842517,0.8239633111,-109.0204209,-829.0204209,10.361268,
50888888,-1.657474307,0.8262781808,-112.2608481,-832.2608481,10.51265862,
50993333,-1.63449036,0.8284675112,-115.526612,-835.526612,10.6595988,
51097777,-1.611471514,0.8306659801,-118.803911,-838.803911,10.81097573,
51202222,-1.590040642,0.8327180296,-122.0996444,-842.0996444,10.95586108,
51306666,-1.572265549,0.8344238763,-125.2836278,-845.2836278,11.07903625,
51411111,-1.556452954,0.8359443221,-128.5016305,-848.5016305,11.19098312,
51515555,-1.539557779,0.837571924,-131.8065239,-851.8065239,11.31314222,
51620000,-1.525496954,0.8389288938,-135.0335699,-855.0335699,11.41687629,
51724444,-1.51180482,0.840252395,-138.3109391,-858.3109391,11.51974951,
51828888,-1.499257991,0.8414670225,-141.479012,-861.479012,11.61567172,
51933333,-1.487685069,0.8425889251,-144.7222904,-864.7222904,11.70558632,
52037777,-1.478142299,0.8435151459,-147.9410087,-867.9410087,11.78078963,
52142222,-1.469163981,0.8443875105,-151.1656784,-871.1656784,11.85243882,
52246666,-1.46057726,0.8452226702,-154.4034255,-874.4034255,11.92178901,
52351111,-1.451486264,0.8461077768,-157.6622384,-877.6622384,11.99610831,
52455555,-1.441770654,0.847054721,-160.9587032,-880.9587032,12.07657231,
52560000,-1.434608061,0.8477535107,-164.1698999,-884.1698999,12.13659191,
52664444,-1.431188163,0.8480873627,-167.3524705,-887.3524705,12.16546164,
52768888,-1.426577152,0.8485376998,-170.5627657,-890.5627657,12.20460601,
52873333,-1.421925535,0.848992245,-173.7683917,-893.7683917,12.24435292,
52977777,-1.417171868,0.8494570139,-176.9994933,-896.9994933,12.28524199,
53082222,-1.4120292,0.8499601021,179.7677969,-900.2322031,12.32978779,
53186666,-1.406813907,0.8504705993,176.5364712,-903.4635288,12.37529603,
53291111,-1.401160956,0.8510242827,173.2620795,-906.7379205,12.42500668,
53395555,-1.398628769,0.851272417,170.0561158,-909.9438842,12.44740471,
53500000,-1.396849883,0.851446777,166.876514,-913.123486,12.4631882,
53604444,-1.394866693,0.8516412042,163.6777986,-916.3222014,12.48083199,
53708888,-1.390989982,0.8520213959,160.453175,-919.546825,12.5154674,
53813333,-1.388480065,0.8522676357,157.2141034,-922.7858966,12.53799494,
53917777,-1.3865617,0.8524558883,153.9976485,-926.0023515,12.55526817,
54022222,-1.386224696,0.8524889635,150.7595324,-929.2404676,12.55830755,
54126666,-1.38249488,0.8528551101,147.5285627,-932.4714373,12.59204524,
54231111,-1.380163765,0.8530840297,144.2720245,-935.7279755,12.61322391,
54335555,-1.378999198,0.8531984153,141.1017769,-938.8982231,12.62383113,
54440000,-1.378820767,0.8532159424,137.9099846,-942.0900154,12.62545792,
54544444,-1.377202382,0.8533749313,134.6864223,-945.3135777,12.64023231,
54648888,-1.377162711,0.8533788289,131.4555878,-948.5444122,12.64059491,
54753333,-1.373774706,0.8537117615,128.2427452,-951.7572548,12.67163909,
54857777,-1.374387682,0.8536515159,125.0543164,-954.9456836,12.66601104,
54962222,-1.376430967,0.853450725,121.8332033,-958.1667967,12.64728689,
55066666,-1.377559639,0.8533398321,118.5995943,-961.4004057,12.63696789,
55171111,-1.375159177,0.8535756966,115.3853919,-964.6146081,12.65893471,
55275555,-1.377846276,0.8533116721,112.1584199,-967.8415801,12.63434997,
55380000,-1.374136312,0.853676221,108.961452,-971.038548,12.6683184,
55484444,-1.379923744,0.8531076037,105.6822077,-974.3177923,12.61540863,
55588888,-1.37944877,0.8531542557,102.4722136,-977.5277864,12.61973416,
55693333,-1.377888427,0.8533075311,99.22639508,-980.7736049,12.63396509,
55797777,-1.380432792,0.8530576076,95.96906856,-984.0309314,12.61077609,
55902222,-1.37819405,0.853277507,92.70026506,-987.2997349,12.63117515,
56006666,-1.376993514,0.8533954525,89.42137136,-990.5786286,12.64214162,
56111111,-1.375786936,0.8535140079,86.15762035,-993.8423797,12.65318261,
56215555,-1.376310052,0.8534626058,82.88731982,-997.1126802,12.64839338,
56320000,-1.377024761,0.8533923824,79.61104474,-1000.388955,12.64185595,
56424444,-1.376774217,0.8534169988,76.35926035,-1003.64074,12.64414689,
56528888,-1.378325362,0.8532646074,73.12535794,-1006.874642,12.62997682,
56633333,-1.379426746,0.853156419,69.87450205,-1010.125498,12.61993481,
56737777,-1.379224811,0.853176254,66.62761757,-1013.372382,12.62177478,
56842222,-1.381240859,0.8529782495,63.39146762,-1016.608532,12.60342938,
56946666,-1.381116608,0.8529904514,60.16460045,-1019.8354,12.60455847,
57051111,-1.38376105,0.8527307958,56.96090082,-1023.039099,12.58057179,
57155555,-1.384061958,0.8527012548,53.6462826,-1026.353717,12.57784819,
57260000,-1.388470288,0.8522685951,50.45957602,-1029.540424,12.53808286,
57364444,-1.389388467,0.8521785071,47.22343777,-1032.776562,12.52983224,
57468888,-1.390835788,0.8520365214,43.97405222,-1036.025948,12.51684902,
57573333,-1.391260158,0.8519948941,40.71410151,-1039.285898,12.51304733,
57677777,-1.39289359,0.8518346866,37.46377495,-1042.536225,12.498436,
57782222,-1.393114343,0.8518130373,34.19599706,-1045.804003,12.49646395,
57886666,-1.393838044,0.851742068,30.95440342,-1049.045597,12.49000335,
57991111,-1.393137235,0.8518107924,27.68731411,-1052.312686,12.49625949,
58095555,-1.392776067,0.8518462123,24.37689736,-1055.623103,12.49948611,
58200000,-1.387312528,0.8523822033,21.0604778,-1058.939522,12.54850191,
58304444,-1.384294197,0.8526784561,17.89906742,-1062.100933,12.57574695,
58408888,-1.377947526,0.8533017253,14.66236862,-1065.337631,12.6334255,
