Frequency,S11_Magnitude,S11_Phase,S11_VSWR,
30000000,-65.44897866,81.82798648,1.001068595,
30104444,-65.96488606,84.95407522,1.001006942,
30208888,-66.41313052,85.85032757,1.000956271,
30313333,-66.66513746,88.05781761,1.000928912,
30417777,-67.02666307,88.24238021,1.000891026,
30522222,-67.58079435,91.67055329,1.000835934,
30626666,-67.95380231,95.53515425,1.000800781,
30731111,-68.57203367,95.01340772,1.000745745,
30835555,-68.50557626,100.5021791,1.000751475,
30940000,-69.77601303,99.724966,1.000649188,
31044444,-70.07903936,103.2312638,1.000626923,
31148888,-70.81089518,112.8817651,1.000576249,
31253333,-71.4520473,107.438417,1.000535234,
31357777,-72.97402298,118.4779847,1.000449186,
31462222,-73.4637857,117.1906032,1.000424554,
31566666,-74.39856224,122.6510013,1.000381228,
31671111,-75.16883233,129.2914854,1.00034887,
31775555,-76.18415855,141.1875712,1.000310377,
31880000,-77.26793602,148.4002805,1.000273963,
31984444,-77.14624142,158.6668825,1.000277829,
32088888,-77.02207262,158.298878,1.00028183,
32193333,-78.15651424,-176.7375286,1.000247319,
32297777,-78.85227804,-160.1111675,1.000228279,
32402222,-78.21922178,-152.193023,1.00024554,
32506666,-77.37332,-143.195402,1.000270659,
32611111,-75.99721959,-134.2915256,1.00031713,
32715555,-74.92779825,-136.5011745,1.000358689,
32820000,-74.26076039,-129.1778685,1.000387325,
32924444,-73.94374261,-119.5682041,1.000401726,
33028888,-72.59553646,-110.0126238,1.000469197,
33133333,-71.60228678,-105.2195088,1.000526053,
33237777,-70.83879575,-102.316251,1.000574401,
33342222,-70.53523676,-100.3234038,1.000594836,
33446666,-69.95032296,-96.04538257,1.000636285,
33551111,-68.992718,-93.73838664,1.000710474,
33655555,-68.65123902,-89.85599462,1.000738973,
33760000,-67.74161624,-88.30929069,1.000820592,
33864444,-67.59455712,-85.96754941,1.00083461,
33968888,-67.16362122,-83.55000265,1.00087708,
34073333,-66.6500981,-83.61091447,1.000930523,
34177777,-65.7837819,-80.13390795,1.001028168,
34282222,-65.97970737,-78.00426761,1.001005224,
34386666,-65.45976465,-76.43710097,1.001067268,
34491111,-65.08808077,-76.80467019,1.001113955,
34595555,-64.40297176,-73.39591231,1.001205433,
34700000,-64.30036804,-72.82228522,1.001219766,
34804444,-63.831569,-71.62314912,1.001287452,
34908888,-63.83620215,-70.06687785,1.001286765,
35013333,-63.53453893,-69.65986248,1.00133227,
35117777,-63.32393916,-68.33733311,1.00136499,
35222222,-62.85295637,-65.26095618,1.001441103,
35326666,-62.48523165,-65.27735105,1.00150347,
35431111,-62.34090704,-64.10074507,1.00152868,
35535555,-62.03572108,-60.99655622,1.001583389,
35640000,-61.87756602,-61.03962494,1.001612507,
35744444,-61.77040178,-58.63154897,1.001632542,
35848888,-61.30995882,-59.11473769,1.001721495,
35953333,-61.04118994,-56.71219563,1.001775644,
36057777,-60.80544235,-56.26589142,1.001824542,
36162222,-60.8293733,-55.72229322,1.001819518,
36266666,-60.42324087,-53.80580708,1.001906697,
36371111,-60.43885319,-52.1963892,1.00190327,
36475555,-60.10251441,-52.09087064,1.001978489,
36580000,-60.08542872,-49.59423151,1.001982389,
36684444,-59.65967622,-49.30022828,1.002082083,
36788888,-59.68168482,-47.97078478,1.002076809,
36893333,-59.45420213,-47.49233369,1.002131977,
36997777,-59.26619286,-46.0447876,1.002178679,
37102222,-59.27010966,-45.22733135,1.002177695,
37206666,-59.0746473,-43.56002658,1.002227312,
37311111,-58.84347862,-42.02750651,1.002287455,
37415555,-58.53208355,-41.96587631,1.002371048,
37520000,-58.56377615,-40.63166266,1.002362402,
37624444,-58.46831873,-39.32805815,1.002388539,
37728888,-58.31132112,-37.71941737,1.002432158,
37833333,-58.05616871,-36.21645068,1.002504754,
37937777,-58.11943299,-35.54745045,1.002486554,
38042222,-57.78111099,-34.08143238,1.002585446,
38146666,-57.92918828,-33.60837272,1.002541687,
38251111,-57.68197325,-31.79080261,1.002615163,
38355555,-57.76588623,-30.93505465,1.002589988,
38460000,-57.53786046,-29.36097287,1.002658973,
38564444,-57.62427922,-28.01904802,1.002632615,
38668888,-57.32599991,-27.89505932,1.002724716,
38773333,-57.33547103,-26.64708306,1.002721743,
38877777,-57.18403352,-25.53183127,1.002769678,
38982222,-57.07801517,-23.80493849,1.002803739,
39086666,-57.06878076,-22.8510817,1.002806726,
39191111,-57.02921709,-22.45527331,1.002819558,
39295555,-56.92693403,-21.04180125,1.002853004,
39400000,-56.95755121,-20.35054158,1.002842951,
39504444,-56.83742429,-18.50631641,1.002882599,
39608888,-56.72974186,-17.87784872,1.002918611,
39713333,-56.59211933,-16.1143676,1.002965292,
39817777,-56.66801208,-15.54967722,1.002939458,
39922222,-56.63820649,-14.86455251,1.002949577,
40026666,-56.49498843,-13.3324311,1.002998688,
40131111,-56.46295726,-12.51636533,1.003009783,
40235555,-56.33505809,-11.37335031,1.003054498,
40340000,-56.36865969,-10.49663258,1.003042687,
40444444,-56.3109322,-8.707656438,1.003063007,
40548888,-56.28632954,-8.151974259,1.003071709,
40653333,-56.22029089,-6.645851448,1.003095188,
40757777,-56.28167735,-5.974127293,1.003073357,
40862222,-56.16953598,-5.086938199,1.003113356,
40966666,-56.13770266,-4.067128609,1.003124805,
41071111,-56.14377484,-2.965239641,1.003122618,
41175555,-56.19152933,-1.404658348,1.00310547,
41280000,-56.14921567,-0.9756908984,1.003120659,
41384444,-56.08943059,0.9575310739,1.003142247,
41488888,-56.07619255,1.59888103,1.003147047,
41593333,-56.06005203,2.393749467,1.003152909,
41697777,-56.06366884,3.681752143,1.003151595,
41802222,-56.13010066,4.82507975,1.003127545,
41906666,-56.04278565,6.189268135,1.003159193,
42011111,-56.12436953,6.777653939,1.003129613,
42115555,-56.04277855,8.053472311,1.003159196,
42220000,-55.97545818,9.179491659,1.003183816,
42324444,-56.0110739,9.863004479,1.003170767,
42428888,-56.19423255,11.35802129,1.003104502,
42533333,-56.15374563,12.28740657,1.003119029,
42637777,-56.00823594,13.05739032,1.003171804,
42742222,-56.08210906,14.20547132,1.003144901,
42846666,-56.07426689,15.89976093,1.003147746,
42951111,-56.03198486,16.71043731,1.00316313,
43055555,-56.19814206,17.66495286,1.003103103,
43160000,-56.01007201,19.11720838,1.003171133,
43264444,-56.17171231,19.57135042,1.003112574,
43368888,-56.19700405,20.9088419,1.00310351,
43473333,-56.21577049,21.77510466,1.003096802,
43577777,-56.22470827,22.92909295,1.003093612,
43682222,-56.2349543,23.95018149,1.003089959,
43786666,-56.29673793,25.01454358,1.003068024,
43891111,-56.19697544,26.08993682,1.003103521,
43995555,-56.36967352,27.05248306,1.003042331,
44100000,-56.49228448,28.06363614,1.002999623,
44204444,-56.42900927,29.0000666,1.003021587,
44308888,-56.53578708,30.76175317,1.002984615,
44413333,-56.59201416,31.55355605,1.002965328,
44517777,-56.6050217,31.69700409,1.002960884,
44622222,-56.67009668,33.08500626,1.002938751,
44726666,-56.7553466,34.19187625,1.002910007,
44831111,-56.78932751,35.75176347,1.002898629,
44935555,-56.8610639,36.58928862,1.002874753,
45040000,-56.83508427,38.16285546,1.002883377,
45144444,-57.0349676,38.85617736,1.002817689,
45248888,-56.99586651,39.95052523,1.00283042,
45353333,-57.0668721,41.19182384,1.002807344,
45457777,-57.24628689,42.60485524,1.002749871,
45562222,-57.36798336,43.72137265,1.00271156,
45666666,-57.43503244,44.23854901,1.002690681,
45771111,-57.51266669,45.41101948,1.002666707,
45875555,-57.56327156,46.07126085,1.002651195,
45980000,-57.68912031,47.18957024,1.00261301,
46084444,-57.88325584,47.68857761,1.002555181,
46188888,-57.82548849,49.26940395,1.002572254,
46293333,-58.17316083,50.61322948,1.002471202,
46397777,-58.17034765,51.78203202,1.002472003,
46502222,-58.36312623,52.9074335,1.002417677,
46606666,-58.39913366,53.63838853,1.002407664,
46711111,-58.47471912,54.68990847,1.002386778,
46815555,-58.66544076,56.57912584,1.002334881,
46920000,-58.94707369,56.73940939,1.002260304,
47024444,-59.13131902,58.27623712,1.002212811,
47128888,-59.14641393,58.14457236,1.002208964,
47233333,-59.25962201,61.05392921,1.002180329,
47337777,-59.55371156,61.32529783,1.002107666,
47442222,-59.8908115,62.2643185,1.002027353,
47546666,-59.82594593,64.08830675,1.002042566,
47651111,-60.02251691,63.8574853,1.001996814,
47755555,-60.14475743,66.72387994,1.001968881,
47860000,-60.43529837,66.78008113,1.00190405,
47964444,-60.6173121,67.49086492,1.001864529,
48068888,-60.84431979,68.33173968,1.001816386,
48173333,-60.97439709,69.57004354,1.001789363,
48277777,-61.2245929,70.78574908,1.001738512,
48382222,-61.60424611,72.99901393,1.001664098,
48486666,-61.82227928,72.61544418,1.001622812,
48591111,-62.00204629,75.18255001,1.001589545,
48695555,-62.12760432,73.62653916,1.001566714,
48800000,-62.6053825,77.4743229,1.001482801,
48904444,-63.03614826,77.98964111,1.001411006,
49008888,-63.3552503,78.8806401,1.001360075,
49113333,-63.53738104,80.13595995,1.001331834,
49217777,-63.89391907,80.2216869,1.001278237,
49322222,-64.23754801,83.45527801,1.001228625,
49426666,-64.39834249,84.57739145,1.001206076,
49531111,-64.74562285,85.54794118,1.001158778,
49635555,-65.28811224,86.34404813,1.001088581,
49740000,-65.97406859,88.16686356,1.001005877,
49844444,-66.62021045,87.47112257,1.000933732,
49948888,-66.74072037,90.01965339,1.000920861,
50053333,-67.19929984,91.71501053,1.000873483,
50157777,-68.23633129,92.29041911,1.000775143,
50262222,-69.00630864,92.00200541,1.000709363,
50366666,-69.50973163,95.99434221,1.000669405,
50471111,-69.5932188,95.02744038,1.000662999,
50575555,-70.95365285,94.70899885,1.000566853,
50680000,-71.89066544,100.8512702,1.00050887,
50784444,-73.44994523,101.9921664,1.000425231,
50888888,-74.34612148,106.2221558,1.000383537,
50993333,-75.70380311,105.4448557,1.000328028,
51097777,-76.40096882,113.2156435,1.000302724,
51202222,-78.91148547,110.1482233,1.000226728,
51306666,-79.0302786,127.5901335,1.000223648,
51411111,-85.65294706,134.9118386,1.000104329,
51515555,-85.79318606,172.867873,1.000102658,
51620000,-85.9653751,-154.0124531,1.000100643,
51724444,-83.05359679,-114.4199162,1.000140728,
51828888,-80.33774154,-112.7859427,1.000192391,
51933333,-78.19764565,-96.68175671,1.000246151,
52037777,-76.09459313,-84.55501861,1.000313594,
52142222,-74.74176522,-82.62096806,1.000366456,
52246666,-73.50605988,-76.72534468,1.000422492,
52351111,-72.82998677,-79.80617248,1.000456699,
52455555,-71.27118708,-74.58997068,1.000546499,
52560000,-70.27466873,-70.9509203,1.000612956,
52664444,-69.34778253,-73.51665177,1.000682007,
52768888,-68.78491399,-70.69919429,1.000727683,
52873333,-68.09970389,-68.10145801,1.000787437,
52977777,-67.20737704,-68.7316526,1.000872671,
53082222,-66.24529447,-68.00371568,1.000974938,
53186666,-65.6275798,-65.22589531,1.001046835,
53291111,-65.31954185,-65.3428787,1.001084647,
53395555,-64.64265147,-67.34210539,1.001172606,
53500000,-64.30138541,-64.24384762,1.001219623,
53604444,-64.10433112,-64.22284986,1.001247626,
53708888,-63.89231963,-62.62486466,1.001278473,
53813333,-63.27679629,-60.48714162,1.001372423,
53917777,-63.20337325,-60.80496233,1.001384082,
54022222,-62.85928951,-58.06317545,1.001440052,
54126666,-62.39031844,-56.65674212,1.001520001,
54231111,-62.23482974,-54.61425853,1.001547478,
54335555,-61.87856055,-53.29062584,1.001612323,
54440000,-61.72098302,-52.65067941,1.001641864,
54544444,-61.23640561,-51.17453929,1.001736147,
54648888,-60.84798262,-50.47683224,1.00181562,
54753333,-60.69671807,-48.95846172,1.001847545,
54857777,-60.25850455,-48.06324656,1.00194324,
54962222,-60.15928788,-45.3066448,1.001965587,
55066666,-59.99903126,-43.78447989,1.002002226,
55171111,-59.61455428,-42.48808331,1.002092939,
55275555,-59.37941074,-42.85183808,1.002150434,
55380000,-60.6840846,-39.82555616,1.001850237,
55484444,-58.85379701,-39.43700442,1.002284736,
55588888,-58.7398402,-38.98424698,1.002314943,
55693333,-58.50532729,-37.42604542,1.002378372,
55797777,-58.34823136,-36.15718985,1.002421832,
55902222,-58.23200322,-35.79996773,1.002454497,
56006666,-57.95443231,-34.44727824,1.002534302,
56111111,-57.82172003,-32.9843908,1.002573371,
56215555,-57.67414355,-31.50972841,1.002617525,
56320000,-57.42465654,-30.49994583,1.002693902,
56424444,-57.25956103,-29.97692803,1.002745666,
56528888,-57.0717805,-28.41242953,1.002805755,
56633333,-56.97086865,-27.11576084,1.002838589,
56737777,-56.82874539,-26.64367439,1.002885485,
56842222,-56.69453105,-25.61694559,1.002930484,
56946666,-56.59830932,-23.53227662,1.002963176,
57051111,-56.40831077,-22.57827284,1.003028807,
57155555,-56.26126038,-21.94012522,1.003080601,
57260000,-56.15238406,-20.94670721,1.003119519,
57364444,-56.02866673,-19.80229748,1.003164341,
57468888,-55.95084759,-18.08754079,1.003192864,
57573333,-55.78524377,-17.71860442,1.003254422,
57677777,-55.69021829,-16.6166264,1.003290281,
57782222,-55.58690809,-13.97168887,1.003329715,
57886666,-55.46687436,-13.83384247,1.003376127,
57991111,-55.41394268,-12.30059847,1.003396799,
58095555,-55.23829024,-11.50655622,1.003466311,
58200000,-55.20649299,-11.02707968,1.003479046,
58304444,-55.01824382,-8.619506497,1.003555406,
58408888,-54.95934792,-8.110367549,1.003579639,
58513333,-54.86555489,-6.301075582,1.003618573,
58617777,-54.88105173,-5.6666876,1.003612111,
58722222,-54.74416244,-4.193038294,1.003669594,
58826666,-54.65439486,-2.955432356,1.003707786,
58931111,-54.63864634,-2.322465366,1.003714527,
59035555,-54.47018376,-0.2588368108,1.003787411,
59140000,-54.49885389,0.1364464363,1.003774907,
59244444,-54.3978554,1.499083125,1.003819142,
59348888,-54.02079959,4.832161992,1.00398892,
59453333,-54.26646326,4.106981078,1.003877466,
59557777,-54.16056979,5.095618786,1.003925121,
59662222,-54.17730591,6.184321166,1.00391755,
59766666,-54.08062775,6.968837032,1.003961485,
59871111,-54.06776005,8.613403715,1.003967369,
59975555,-53.9926292,9.633975234,1.004001904,
60080000,-53.970698,10.94208348,1.004012042,
60184444,-53.97277538,12.01128654,1.00401108,
60288888,-53.90620958,13.26176388,1.004042,
60393333,-53.88171788,14.44803099,1.004053437,
60497777,-53.81889346,15.84057628,1.004082921,
60602222,-53.77214561,16.76297261,1.004105,
60706666,-53.73713513,17.61152234,1.004121614,
60811111,-53.78815421,18.64889317,1.004097426,
60915555,-53.72673172,20.13849527,1.004126564,
61020000,-53.81118359,20.9359104,1.004086554,
61124444,-53.62853247,22.6149884,1.00417358,
61228888,-53.71761259,23.85104962,1.004130907,
61333333,-53.61044005,23.80988522,1.0041823,
61437777,-53.88897653,29.185385,1.004050044,
61542222,-53.57609077,27.10191576,1.004198907,
61646666,-53.67216695,28.63263814,1.004152622,
61751111,-52.23506543,23.64366362,1.004901622,
61855555,-53.63591125,30.62759621,1.004170028,
61960000,-53.68939561,32.01374201,1.004144377,
62064444,-53.65580331,32.55278516,1.004160469,
62168888,-53.72046506,33.65919631,1.004129548,
62273333,-53.76788757,35.02928534,1.004107017,
62377777,-53.75657706,36.56536923,1.00411238,
62482222,-53.80033038,37.72728731,1.004091674,
62586666,-53.79910779,38.9438155,1.004092252,
62691111,-53.76878798,39.87575163,1.004106591,
62795555,-53.84871915,41.32584167,1.004068897,
62900000,-53.85080204,42.73412013,1.004067919,
63004444,-53.93145722,43.99595577,1.004030245,
63108888,-53.91736036,45.30528643,1.004036804,
63213333,-53.95402996,46.27864081,1.004019763,
63317777,-53.98742857,47.82788133,1.004004306,
63422222,-54.00242333,48.69489411,1.003997385,
63526666,-54.09823271,50.17060281,1.003953448,
63631111,-54.16541391,51.61930413,1.003922928,
63735555,-54.14193971,52.42950446,1.003933565,
63840000,-54.23886659,54.00429665,1.003889829,
63944444,-54.25281521,54.91769469,1.003883575,
64048888,-54.41848079,56.35367355,1.003810066,
64153333,-54.4710823,57.95086653,1.003787019,
64257777,-54.41088532,58.87598841,1.003813406,
64362222,-54.49177901,60.68440758,1.003777989,
64466666,-54.51727022,62.63953565,1.003766896,
64571111,-54.45342266,63.47951012,1.003794741,
64675555,-54.45141851,65.08019147,1.003795618,
64780000,-54.34852376,65.77706123,1.003840936,
64884444,-54.36067286,66.67312673,1.003835557,
64988888,-54.51830174,66.61533169,1.003766448,
65093333,-54.51542028,67.53600253,1.0037677,
65197777,-54.76523928,68.47596525,1.003660684,
65302222,-54.96546407,69.01128299,1.003577115,
65406666,-55.22735063,70.38046447,1.003470687,
65511111,-55.42223576,72.39091796,1.003393552,
65615555,-55.66110392,74.00889772,1.003301346,
65720000,-55.73850574,75.22936668,1.00327201,
65824444,-55.89371757,76.38558383,1.003213967,
65928888,-56.07119599,78.33710535,1.003148861,
66033333,-56.20632408,79.50429078,1.003100177,
66137777,-56.31504715,80.5890965,1.003061554,
66242222,-56.45993909,82.88473084,1.003010831,
66346666,-56.65290047,83.19645766,1.002944584,
66451111,-56.86295045,85.57859457,1.002874128,
66555555,-56.81773864,86.10295116,1.002889149,
66660000,-57.13953229,88.61143416,1.002783925,
66764444,-57.35659125,89.56886637,1.002715124,
66868888,-57.56003139,91.07850894,1.002652186,
66973333,-57.65071556,91.86373543,1.002624604,
67077777,-57.876657,93.61329376,1.002557126,
67182222,-58.11027624,94.83883679,1.00248918,
67286666,-58.23952033,96.68245204,1.002452371,
67391111,-58.51448019,98.62366324,1.002375864,
67495555,-58.74989296,99.36705772,1.002312263,
67600000,-59.01465312,101.1930108,1.002242767,
67704444,-59.2575286,102.6558159,1.002180855,
67808888,-59.34713192,103.3993831,1.002158449,
67913333,-59.70227575,105.0403543,1.002071886,
68017777,-60.01571,108.4619192,1.001998381,
68122222,-60.25132762,108.27368,1.001944848,
68226666,-60.49238028,110.4881421,1.001891566,
68331111,-60.92747312,112.6089252,1.001799065,
68435555,-61.26139614,112.4239491,1.001731155,
68540000,-61.43875408,116.2080607,1.001696135,
68644444,-61.92163239,115.6341867,1.001604341,
68748888,-62.20865258,118.911684,1.001552152,
68853333,-62.50698958,122.7013759,1.001499706,
68957777,-62.93066027,125.9027669,1.001428259,
69062222,-63.25336634,124.2353052,1.001376133,
69166666,-63.91587911,127.5190062,1.001275008,
69271111,-64.35687646,130.6871479,1.001211851,
69375555,-64.81993044,133.8215742,1.001148902,
69480000,-65.04152676,134.8850962,1.001119945,
69584444,-66.21974029,135.9720104,1.000977812,
69688888,-66.47939375,142.9919643,1.000949,
69793333,-67.12833831,142.1796564,1.000880652,
69897777,-67.49346972,150.2045725,1.000844384,
70002222,-68.12075961,153.8234295,1.00078553,
70106666,-68.82784477,153.2526921,1.000724094,
70211111,-69.43495585,159.7997252,1.000675194,
70315555,-70.81315255,168.4850742,1.000576099,
70420000,-70.75995151,178.4207876,1.00057964,
70524444,-71.74889151,-178.2628371,1.000517247,
70628888,-71.96356375,-170.3337199,1.000504616,
70733333,-72.96199609,-157.1437194,1.000449809,
70837777,-73.10223547,-150.6444891,1.000442603,
70942222,-73.62226352,-136.0111977,1.000416876,
71046666,-72.70241771,-126.6100069,1.000463457,
71151111,-71.74188389,-117.3113856,1.000517664,
71255555,-72.69346615,-106.9098369,1.000463935,
71360000,-71.38476897,-103.1744107,1.000539397,
71464444,-70.37132386,-93.74134092,1.000606171,
71568888,-70.08063422,-88.07792864,1.000626808,
71673333,-69.23663023,-85.3574691,1.000690794,
71777777,-68.39120999,-78.81946434,1.000761438,
71882222,-67.83567298,-76.68223686,1.000811751,
71986666,-67.1627902,-68.89445898,1.000877164,
72091111,-66.2697405,-67.73829465,1.000972196,
72195555,-65.60777038,-64.50225614,1.001049227,
72300000,-65.19369805,-61.64559782,1.001100485,
72404444,-64.74274175,-59.66034424,1.001159163,
72508888,-64.45787508,-56.61310928,1.001197833,
72613333,-63.90777553,-54.15389729,1.001276199,
72717777,-63.4883766,-50.27603037,1.001339374,
72822222,-63.13455801,-49.95642434,1.001395099,
72926666,-62.53713451,-48.37058107,1.001494506,
73031111,-62.35785209,-43.97880378,1.001525698,
73135555,-61.88859289,-45.34502773,1.00161046,
