Frequency,S11_Magnitude,S11_Phase,S11_VSWR,
30000000,-63.79745766,76.6509847,1.001292521,
30104444,-65.3551678,79.81524575,1.001080205,
30208888,-65.50793159,80.8612083,1.001061363,
30313333,-65.78381809,81.14145077,1.001028164,
30417777,-66.16512638,84.17142827,1.000983982,
30522222,-66.63187004,87.51243525,1.000932479,
30626666,-66.87018891,90.10564608,1.00090723,
30731111,-67.43614759,89.77543865,1.000849977,
30835555,-68.13272088,94.73926158,1.000784448,
30940000,-68.93435554,94.78051034,1.000715266,
31044444,-69.2094569,98.95668288,1.000692959,
31148888,-69.75183311,113.8951964,1.000650998,
31253333,-70.16472072,103.2748515,1.000620767,
31357777,-71.16635496,108.0682072,1.000553137,
31462222,-71.61552618,111.4412726,1.000525252,
31566666,-73.02990757,118.5754627,1.000446305,
31671111,-73.24935629,125.7444822,1.000435168,
31775555,-74.54640751,133.2017905,1.000374793,
31880000,-75.05947245,139.2428978,1.000353291,
31984444,-75.73615128,140.7480568,1.000326809,
32088888,-75.12238709,147.5403179,1.000350741,
32193333,-77.17934584,173.0407234,1.000276772,
32297777,-77.33466454,179.8161442,1.000271867,
32402222,-77.05734297,-169.7932972,1.000280688,
32506666,-76.57463984,-157.631303,1.000296731,
32611111,-75.99273668,-149.1365583,1.000317294,
32715555,-74.42534538,-147.0811641,1.000380054,
32820000,-73.63688584,-136.2569729,1.000416175,
32924444,-73.20179075,-129.9385942,1.000437558,
33028888,-72.24117149,-122.7672259,1.00048874,
33133333,-71.59166047,-117.4431946,1.000526698,
33237777,-70.48653665,-114.5014766,1.000598182,
33342222,-69.97168506,-110.4988999,1.000634722,
33446666,-69.83579456,-107.3691659,1.000644734,
33551111,-69.06800978,-104.8418776,1.00070434,
33655555,-68.26645937,-100.6069256,1.000772458,
33760000,-67.79961466,-96.62364961,1.000815129,
33864444,-67.32529587,-95.72691497,1.000860899,
33968888,-66.60734223,-92.76713211,1.000935117,
34073333,-66.06735614,-91.5032595,1.000995126,
34177777,-65.69080545,-88.3151788,1.001039239,
34282222,-65.32637593,-86.2345271,1.001083793,
34386666,-65.0609484,-84.97320109,1.001117442,
34491111,-64.61155194,-84.21803036,1.001176814,
34595555,-63.93207544,-80.66359358,1.001272631,
34700000,-63.72884001,-78.98401807,1.001302779,
34804444,-63.29756334,-78.48869114,1.001369144,
34908888,-63.06320705,-78.27653135,1.001406614,
35013333,-62.72379397,-75.75741005,1.001462709,
35117777,-62.54185163,-74.52957582,1.001493694,
35222222,-62.17489537,-72.55108434,1.001558201,
35326666,-62.06683079,-71.83823615,1.001577724,
35431111,-61.66440931,-69.14758171,1.001652602,
35535555,-61.44950687,-66.69922216,1.001694035,
35640000,-61.17326885,-67.92624748,1.001748824,
35744444,-60.93346079,-64.59070392,1.001797824,
35848888,-60.71461607,-65.34425589,1.001843739,
35953333,-60.34170695,-62.87204503,1.001924697,
36057777,-60.21176587,-60.97592014,1.001953735,
36162222,-59.92710887,-60.78739237,1.00201889,
36266666,-59.69106816,-59.21953306,1.002074564,
36371111,-59.59126391,-58.07069756,1.002098564,
36475555,-59.29386925,-56.88468318,1.00217174,
36580000,-59.22072686,-54.75838292,1.002190125,
36684444,-58.95785842,-55.10558395,1.002257496,
36788888,-58.86684703,-53.3952194,1.002281302,
36893333,-58.67964338,-52.16064929,1.002331061,
36997777,-58.49638366,-50.34859687,1.002380825,
37102222,-58.25683064,-49.57702978,1.002447483,
37206666,-58.0976232,-48.0471162,1.002492814,
37311111,-58.02848442,-46.28125701,1.00251276,
37415555,-57.67631963,-46.10024964,1.002616868,
37520000,-57.69639828,-44.96109281,1.002610818,
37624444,-57.58616189,-43.15140657,1.002644209,
37728888,-57.37238618,-41.77140679,1.002710184,
37833333,-57.16267907,-40.13430952,1.002776505,
37937777,-57.19718014,-39.46818672,1.002765484,
38042222,-56.99475958,-37.58808841,1.002830781,
38146666,-57.06762634,-36.61074406,1.002807099,
38251111,-56.76233731,-35.47398494,1.002907663,
38355555,-56.75063814,-34.99809268,1.002911588,
38460000,-56.65865038,-33.35343974,1.002942632,
38564444,-56.58725707,-32.31754666,1.002966955,
38668888,-56.41932019,-30.45194807,1.003024965,
38773333,-56.40392251,-30.09852721,1.00303034,
38877777,-56.19301911,-28.74182527,1.003104937,
38982222,-56.11560705,-27.28015145,1.003132776,
39086666,-56.06053805,-26.01275065,1.003152733,
39191111,-56.03756027,-25.41377165,1.003161097,
39295555,-55.90417145,-24.10306815,1.003210095,
39400000,-55.9202805,-22.52692647,1.003204138,
39504444,-55.81558067,-21.5210157,1.003243057,
39608888,-55.73544319,-20.24295966,1.003273166,
39713333,-55.55935984,-19.14601147,1.00334031,
39817777,-55.59976665,-18.52898577,1.003324781,
39922222,-55.58371105,-17.11744088,1.003330943,
40026666,-55.48759637,-15.46544347,1.003368069,
40131111,-55.48187258,-14.32308379,1.003370293,
40235555,-55.33621221,-13.67356517,1.003427386,
40340000,-55.37147128,-12.51879499,1.003413477,
40444444,-55.22926616,-10.78923508,1.00346992,
40548888,-55.33585718,-10.44575132,1.003427526,
40653333,-55.17953798,-8.87554741,1.003489878,
40757777,-55.25674371,-7.942274029,1.003458942,
40862222,-55.16376014,-6.37757269,1.003496234,
40966666,-55.11801273,-5.59484889,1.003514729,
41071111,-55.1001592,-4.684056107,1.003521974,
41175555,-55.1127492,-2.968698393,1.003516864,
41280000,-55.10897362,-2.164816448,1.003518395,
41384444,-55.04543747,-0.4219454664,1.003544272,
41488888,-54.95726742,0.1610351233,1.003580498,
41593333,-54.99998254,1.263034453,1.003562902,
41697777,-54.88938818,3.052543602,1.003608639,
41802222,-54.97801664,3.547936297,1.00357194,
41906666,-54.88798823,5.321471591,1.003609222,
42011111,-54.97739217,5.828552318,1.003572197,
42115555,-55.00862597,6.656246037,1.003559352,
42220000,-54.92259234,8.542873033,1.003594846,
42324444,-55.0186641,9.205454063,1.003555233,
42428888,-54.96334754,10.62030132,1.003577988,
42533333,-55.02714474,12.42814627,1.003551758,
42637777,-54.99199285,13.39839643,1.003566186,
42742222,-55.00486276,14.01413994,1.003560897,
42846666,-54.92971097,15.52201806,1.003591896,
42951111,-54.97268769,16.17784131,1.003574136,
43055555,-55.05078707,17.22259364,1.003542086,
43160000,-54.9579134,18.74691096,1.003580231,
43264444,-55.10654967,19.34743657,1.003519379,
43368888,-55.10520876,20.88249464,1.003519924,
43473333,-55.11338353,22.19519648,1.003516606,
43577777,-55.19354852,23.35769634,1.003484244,
43682222,-55.16151972,24.55390917,1.003497138,
43786666,-55.28373997,25.30896035,1.003448189,
43891111,-55.16040066,26.32495439,1.003497589,
43995555,-55.42815535,27.65401042,1.003391236,
44100000,-55.39706312,29.19450525,1.003403418,
44204444,-55.34217116,30.35545082,1.003425031,
44308888,-55.49356077,31.99599263,1.003365753,
44413333,-55.43624296,32.68923971,1.003388074,
44517777,-55.63566342,33.06461176,1.003311046,
44622222,-55.63857198,34.6101651,1.003309936,
44726666,-55.7491324,36.01425025,1.003268003,
44831111,-55.74636144,36.78488027,1.003269047,
44935555,-55.92355359,37.64122885,1.003202929,
45040000,-55.98000031,39.04293359,1.003182148,
45144444,-55.99876896,40.0640343,1.003175269,
45248888,-55.99523794,41.53119176,1.003176562,
45353333,-56.10540033,43.22980451,1.003136466,
45457777,-56.32003949,43.74340635,1.003059792,
45562222,-56.29661852,45.00140633,1.003068067,
45666666,-56.40961422,45.91672598,1.003028352,
45771111,-56.51371917,47.92403681,1.002992218,
45875555,-56.70984629,48.27505283,1.002925314,
45980000,-56.74647138,50.05632611,1.002912987,
46084444,-56.93650679,51.03180902,1.002849857,
46188888,-56.89278861,52.18784238,1.002864258,
46293333,-57.14482294,52.85942946,1.002782227,
46397777,-57.32434251,54.68967311,1.002725237,
46502222,-57.38534291,55.8621284,1.002706139,
46606666,-57.54553921,56.54869518,1.002656621,
46711111,-57.59112705,57.12680127,1.002642695,
46815555,-57.81950164,59.36509151,1.002574029,
46920000,-57.88529696,60.01144074,1.00255458,
47024444,-58.20152143,61.36057943,1.002463136,
47128888,-58.30811971,61.96831741,1.002433056,
47233333,-58.39375353,64.15030924,1.002409157,
47337777,-58.63635495,64.89061588,1.002342722,
47442222,-58.84497496,65.47271134,1.00228706,
47546666,-59.03255606,67.60708634,1.002238143,
47651111,-59.15323495,68.53422206,1.002207228,
47755555,-59.40335722,70.30922018,1.002144507,
47860000,-59.61351192,70.65233688,1.00209319,
47964444,-59.80384592,72.05454828,1.002047775,
48068888,-59.95089852,73.39698163,1.002013363,
48173333,-60.19385734,73.70133933,1.001957772,
48277777,-60.53303633,75.21758285,1.001882725,
48382222,-60.95962561,77.02047707,1.001792412,
48486666,-60.86291996,77.6999376,1.001812497,
48591111,-61.2231476,79.33745725,1.001738802,
48695555,-61.54408603,80.80949058,1.001675674,
48800000,-61.754633,82.28845658,1.001635511,
48904444,-62.07323773,84.30664375,1.001576559,
49008888,-62.55703562,86.00981789,1.001491083,
49113333,-62.89027612,86.79592476,1.00143492,
49217777,-62.95225624,86.75057735,1.00142471,
49322222,-63.61277679,88.83521045,1.001320316,
49426666,-63.79189615,91.93058235,1.00129335,
49531111,-64.35474574,91.57599329,1.001212149,
49635555,-64.78524335,92.21359173,1.001153502,
49740000,-65.14826533,95.15238838,1.001106259,
49844444,-65.62220459,95.70126039,1.001047483,
49948888,-66.23782571,97.53918501,1.000975777,
50053333,-66.8075268,100.3192241,1.000913802,
50157777,-67.60186052,103.0471248,1.000833908,
50262222,-68.0482101,104.934034,1.000792121,
50366666,-68.82802303,106.4155472,1.000724079,
50471111,-69.23601851,107.5755584,1.000690843,
50575555,-70.63982534,105.4896114,1.000587714,
50680000,-72.00519658,113.772812,1.000502203,
50784444,-73.15344247,116.6898271,1.000440001,
50888888,-74.16558183,123.5616761,1.000391594,
50993333,-74.79987078,125.9608469,1.000364012,
51097777,-76.2971541,136.1817744,1.000306365,
51202222,-79.14730194,148.2101265,1.000220655,
51306666,-78.6848582,158.7224943,1.000232722,
51411111,-80.48193807,177.6166716,1.000189223,
51515555,-79.93308314,-160.4479472,1.000201567,
51620000,-79.22687578,-141.5325983,1.000218642,
51724444,-78.84464253,-125.6106556,1.00022848,
51828888,-76.90952938,-116.7468439,1.000285506,
51933333,-75.28473606,-107.0861055,1.000344245,
52037777,-73.9604686,-91.52131975,1.000400953,
52142222,-72.48464399,-94.38203676,1.000475227,
52246666,-71.87076259,-84.46804522,1.000510038,
52351111,-70.80484747,-86.05640809,1.000576651,
52455555,-69.67182457,-81.41917852,1.000657024,
52560000,-69.0067775,-76.72749254,1.000709325,
52664444,-68.01732954,-75.10868403,1.000794943,
52768888,-67.45614466,-74.56300314,1.000848022,
52873333,-66.83467809,-70.39205889,1.000910949,
52977777,-66.22108832,-68.69949669,1.00097766,
53082222,-65.30577527,-67.97122523,1.001086368,
53186666,-64.6685575,-65.97481487,1.001169111,
53291111,-64.32685099,-65.73492533,1.00121605,
53395555,-63.64300802,-65.87016327,1.001315725,
53500000,-63.50926074,-63.21172608,1.001336156,
53604444,-63.00540041,-62.04394057,1.001416013,
53708888,-62.71909381,-61.37864505,1.001463501,
53813333,-62.37278975,-59.36727183,1.001523074,
53917777,-62.34557829,-59.99563598,1.001527857,
54022222,-61.97252409,-56.93326686,1.001594961,
54126666,-61.52771077,-55.36550255,1.001678838,
54231111,-61.31354358,-52.87803807,1.001720784,
54335555,-61.15647315,-52.523671,1.001752212,
54440000,-60.78777944,-50.35859103,1.00182826,
54544444,-60.51529183,-48.60886621,1.001886578,
54648888,-60.10742049,-48.19141268,1.001977371,
54753333,-60.1576523,-46.50933781,1.001965957,
54857777,-59.72099223,-45.8916304,1.002067422,
54962222,-59.4756693,-43.40952626,1.002126709,
55066666,-59.18072809,-42.01761067,1.002200245,
55171111,-59.0243775,-40.92988716,1.002240254,
55275555,-58.76465359,-40.12058391,1.002308332,
55380000,-58.73133086,-43.10266216,1.002317215,
55484444,-58.43851785,-37.90659299,1.002396758,
55588888,-58.20128849,-36.39079686,1.002463203,
55693333,-58.00340279,-35.82444676,1.002520036,
55797777,-57.87098179,-33.36082329,1.002558799,
55902222,-57.7288263,-33.11147312,1.002601077,
56006666,-57.46700704,-31.05748113,1.002680781,
56111111,-57.38957209,-30.30552923,1.00270482,
56215555,-57.18776771,-29.21223416,1.002768486,
56320000,-57.05729384,-28.01212454,1.002810445,
56424444,-56.83049369,-27.29651101,1.002884904,
56528888,-56.73820799,-25.65562803,1.002915763,
56633333,-56.59554894,-24.4526714,1.00296412,
56737777,-56.48995103,-22.63949969,1.00300043,
56842222,-56.36187304,-22.63309973,1.003045069,
56946666,-56.1698109,-20.05469576,1.003113257,
57051111,-56.03574774,-19.45971079,1.003161758,
57155555,-56.03122447,-19.20446189,1.003163408,
57260000,-55.89941352,-17.90873689,1.003211857,
57364444,-55.83285166,-16.45490648,1.003236605,
57468888,-55.69313662,-15.01016283,1.003289174,
57573333,-55.55394585,-14.56644231,1.003342396,
57677777,-55.44797626,-12.70820964,1.003383493,
57782222,-55.31369483,-11.25980959,1.003436298,
57886666,-55.26824121,-10.66941842,1.003454358,
57991111,-55.21340757,-8.857886431,1.003476273,
58095555,-55.06497556,-8.866264125,1.003536295,
58200000,-55.0286928,-6.750696537,1.003551124,
58304444,-54.90028573,-5.574384489,1.003604107,
58408888,-54.8337591,-4.792663679,1.003631867,
58513333,-54.71602332,-2.807544609,1.003681523,
58617777,-54.81090987,-2.071071725,1.003641451,
58722222,-54.67726056,-0.4779916277,1.00369802,
58826666,-54.57514077,0.3301648142,1.003741836,
58931111,-54.49460642,1.031758964,1.003776757,
59035555,-54.46749671,3.020420431,1.003788585,
59140000,-54.4543805,3.806364042,1.003794321,
59244444,-54.37353482,4.863376013,1.003829871,
59348888,-54.13103935,4.613673374,1.003938514,
59453333,-54.30717817,7.565375924,1.003859298,
59557777,-54.20958044,7.997715876,1.003902992,
59662222,-54.23552024,10.11780582,1.003891331,
59766666,-54.14835092,10.89912314,1.003930657,
59871111,-54.14597489,12.17337081,1.003931734,
59975555,-54.04640489,13.14081168,1.003977155,
60080000,-54.07853456,14.40571716,1.003962441,
60184444,-54.02850162,15.02813293,1.003985378,
60288888,-54.06829843,17.03459864,1.003967123,
60393333,-54.01906684,17.68332011,1.003989718,
60497777,-53.96060731,18.83015871,1.004016715,
60602222,-53.96458702,19.80745686,1.004014871,
60706666,-53.94277047,20.89028538,1.004024988,
60811111,-54.05615892,22.3305853,1.003972682,
60915555,-53.97918487,23.48388318,1.004008116,
61020000,-54.02374023,24.55622106,1.003987567,
61124444,-53.88048416,25.86470623,1.004054014,
61228888,-53.97516259,26.82364003,1.004009976,
61333333,-53.78778552,27.49706932,1.0040976,
61437777,-54.16421919,35.34782887,1.003923469,
61542222,-53.88244853,30.1198265,1.004053095,
61646666,-54.0555344,31.31527566,1.003972969,
61751111,-54.31768684,29.45128407,1.003854623,
61855555,-53.98882834,34.15723144,1.004003659,
61960000,-53.950395,34.6562217,1.004021449,
62064444,-54.00042073,35.91361961,1.003998309,
62168888,-54.05505516,36.72078767,1.003973188,
62273333,-54.15646181,38.16326376,1.003926981,
62377777,-54.16019303,39.35828773,1.003925291,
62482222,-54.22216294,40.75896512,1.003897331,
62586666,-54.29014623,41.89174968,1.003866888,
62691111,-54.2231064,43.03987016,1.003896907,
62795555,-54.37055942,44.20661246,1.003831185,
62900000,-54.39022769,45.74088167,1.003822503,
63004444,-54.37073469,46.68180987,1.003831108,
63108888,-54.40789437,48.02525878,1.003814722,
63213333,-54.45212373,49.07982276,1.003795309,
63317777,-54.49960427,50.72118724,1.00377458,
63422222,-54.61738965,51.58086003,1.003723646,
63526666,-54.67110533,53.09690581,1.003700646,
63631111,-54.70555178,54.47210927,1.003685972,
63735555,-54.81764408,55.01349875,1.003638624,
63840000,-54.9082347,56.70511355,1.003600804,
63944444,-54.95329867,58.00077086,1.003582137,
64048888,-55.06558773,59.27735298,1.003536045,
64153333,-55.11497717,60.91892243,1.00351596,
64257777,-55.16396768,61.4399037,1.003496151,
64362222,-55.23755048,63.21963282,1.003466607,
64466666,-55.18830146,64.94782192,1.003486353,
64571111,-55.20156929,65.99435634,1.003481022,
64675555,-55.25202025,67.59452705,1.003460827,
64780000,-55.22748803,67.4817977,1.003470632,
64884444,-55.13638898,68.41439424,1.003507288,
64988888,-55.39448816,68.09145701,1.003404429,
65093333,-55.36380655,69.38684928,1.003416496,
65197777,-55.69501526,70.1803551,1.003288461,
65302222,-55.91787663,70.96026604,1.003205026,
65406666,-56.24122014,72.36575673,1.003087727,
65511111,-56.37313455,73.8064225,1.003041117,
65615555,-56.62559665,76.0253437,1.002953868,
65720000,-56.75995841,76.32587149,1.002908461,
65824444,-56.95464261,78.05716143,1.002843904,
65928888,-57.12367883,79.84202893,1.002789018,
66033333,-57.35341679,80.80029431,1.002716117,
66137777,-57.50223538,82.56314497,1.002669916,
66242222,-57.70842946,84.57205774,1.0026072,
66346666,-57.88056839,84.35207591,1.002555973,
66451111,-58.12433239,86.88613266,1.00248515,
66555555,-58.18780967,87.96055378,1.002467033,
66660000,-58.59900642,89.1849571,1.002352829,
66764444,-58.74335692,90.55329343,1.002314005,
66868888,-58.9926563,91.9695934,1.00224846,
66973333,-59.10903374,93.58381326,1.002218502,
67077777,-59.31071207,94.32606092,1.002167528,
67182222,-59.63885594,96.12880205,1.002087085,
67286666,-59.8490852,97.50542826,1.002037126,
67391111,-60.1383723,99.3685109,1.00197033,
67495555,-60.48156243,100.438266,1.001893926,
67600000,-60.7443337,101.2746796,1.001837436,
67704444,-60.96104515,103.4227388,1.001792118,
67808888,-61.2458479,104.0226781,1.001734259,
67913333,-61.83210703,106.2256352,1.001620976,
68017777,-61.97691194,109.6745614,1.001594155,
68122222,-62.19854486,109.4394408,1.001553961,
68226666,-62.58748938,111.7372707,1.001485861,
68331111,-63.16064521,113.449507,1.001390912,
68435555,-63.52234311,114.2721079,1.001334143,
68540000,-63.87414953,115.5399502,1.001281152,
68644444,-64.45440824,118.2383248,1.001198311,
68748888,-64.61182973,120.7610335,1.001176776,
68853333,-65.36422332,125.5871159,1.001079079,
68957777,-65.82266187,128.5985098,1.001023574,
69062222,-66.39487458,128.2399723,1.000958284,
69166666,-66.94206075,132.3469525,1.000899751,
69271111,-67.7267581,134.0832285,1.000821998,
69375555,-68.2167516,138.6719689,1.000776893,
69480000,-69.16554273,140.0605567,1.000696473,
69584444,-70.241324,142.7110215,1.000615315,
69688888,-71.70324302,150.4392456,1.000519973,
69793333,-71.62553981,149.5111487,1.000524647,
69897777,-72.41998347,164.1402542,1.000478779,
70002222,-73.08119038,171.173044,1.000443677,
70106666,-74.80719878,173.9652065,1.000363705,
70211111,-74.73506323,-172.5104009,1.000366738,
70315555,-76.09883507,-157.091459,1.000313441,
70420000,-75.96507831,-145.0114737,1.000318306,
70524444,-75.49158735,-126.4894241,1.000336143,
70628888,-74.2090383,-121.9893564,1.000389639,
70733333,-73.92666006,-105.0208699,1.000402517,
70837777,-73.61331761,-101.2479822,1.000417306,
70942222,-72.6816446,-91.36407928,1.000464567,
71046666,-71.55526439,-88.88999098,1.00052891,
71151111,-70.37279553,-82.2272335,1.000606069,
71255555,-70.35187994,-76.23810697,1.00060753,
71360000,-69.09507406,-74.67021035,1.000702148,
71464444,-68.20365107,-72.24743331,1.000778066,
71568888,-67.28995744,-65.02653997,1.00086441,
71673333,-67.17031471,-64.05894744,1.000876404,
71777777,-66.36920724,-62.77352554,1.000961121,
71882222,-65.63227056,-61.87791856,1.00104627,
71986666,-65.33824858,-57.05646266,1.001082312,
72091111,-64.79967124,-56.61556998,1.001151586,
72195555,-64.14265756,-54.74136783,1.001242129,
72300000,-63.8436633,-51.69087901,1.001285659,
72404444,-63.34624874,-52.12766825,1.001361486,
72508888,-63.16903834,-48.10779729,1.001389568,
72613333,-62.79654643,-47.47886789,1.001450499,
72717777,-62.1805996,-44.95284811,1.001557177,
72822222,-62.01238391,-42.71702627,1.001587652,
72926666,-61.57162257,-43.44475192,1.001670365,
73031111,-61.51449603,-39.99534371,1.001681397,
73135555,-61.106963,-38.79290767,1.001762237,
