Frequency,S11_Magnitude,S11_Phase,S11_VSWR,
30000000,-65.60092829,87.84377842,1.001050054,
30104444,-65.98649783,92.810421,1.001004438,
30208888,-66.2073903,93.68123574,1.000979204,
30313333,-66.69127672,94.61289625,1.00092612,
30417777,-66.91620067,97.6459086,1.000902435,
30522222,-67.61566031,101.6368998,1.000832583,
30626666,-67.52027147,103.4553558,1.000841781,
30731111,-68.30383573,105.9568849,1.00076914,
30835555,-68.62601096,108.8733265,1.000741123,
30940000,-69.71152757,111.4534596,1.000654027,
31044444,-69.77711151,113.6821556,1.000649106,
31148888,-69.74708176,124.7314979,1.000651354,
31253333,-71.80876116,123.1019309,1.000513693,
31357777,-72.42141074,127.9498871,1.0004787,
31462222,-72.28628175,131.0250947,1.000486207,
31566666,-72.9601982,137.8246364,1.000449902,
31671111,-73.55584584,142.8019679,1.000420077,
31775555,-74.3270898,151.4639378,1.000384378,
31880000,-75.35431533,161.4664339,1.000341498,
31984444,-74.61291185,164.2226319,1.000371933,
32088888,-75.21600793,168.1967457,1.00034698,
32193333,-75.30012945,-173.3039997,1.000343636,
32297777,-75.05428346,-166.761629,1.000353503,
32402222,-74.98417141,-155.4436969,1.000356368,
32506666,-74.23999119,-143.8551715,1.000388253,
32611111,-74.55035193,-142.9697317,1.000374622,
32715555,-73.38260209,-139.7985252,1.000428542,
32820000,-72.56060194,-129.6847599,1.000471088,
32924444,-72.39864768,-124.2790777,1.000479956,
33028888,-71.65723087,-120.0130537,1.000522735,
33133333,-70.58566857,-115.9650663,1.000591391,
33237777,-70.11538638,-108.6397647,1.000624304,
33342222,-69.46565799,-106.5319744,1.000672811,
33446666,-69.42792181,-104.1432671,1.000675742,
33551111,-68.57375187,-99.69661685,1.000745597,
33655555,-68.13460654,-96.91150512,1.000784278,
33760000,-67.54298151,-94.41115823,1.000839582,
33864444,-67.5283115,-91.29611203,1.000841002,
33968888,-66.62705436,-89.42785587,1.000932996,
34073333,-66.44914054,-89.23823943,1.000952313,
34177777,-65.74618035,-84.36687185,1.001032631,
34282222,-65.74854828,-83.58240859,1.001032349,
34386666,-65.38768238,-81.53107187,1.001076167,
34491111,-64.97741869,-80.20194897,1.001128246,
34595555,-64.52659584,-77.79627225,1.001188388,
34700000,-64.40741312,-75.86651797,1.001204816,
34804444,-63.762478,-75.92385438,1.00129774,
34908888,-63.84916624,-72.59395188,1.001284845,
35013333,-63.39307189,-72.46193003,1.001354161,
35117777,-63.18480897,-69.15240005,1.001387045,
35222222,-62.98193813,-67.49960402,1.001419846,
35326666,-62.8205656,-67.81153765,1.001446491,
35431111,-62.37507608,-65.98781019,1.001522673,
35535555,-62.14316262,-63.84833731,1.001563908,
35640000,-62.05606757,-63.06835156,1.001579681,
35744444,-61.78474843,-59.70299841,1.001629845,
35848888,-61.59267591,-62.5645717,1.001666318,
35953333,-61.15906463,-59.5262845,1.001751689,
36057777,-60.92716395,-57.11988238,1.001799129,
36162222,-60.9779621,-57.25025708,1.001788628,
36266666,-60.67871534,-55.16845555,1.001851382,
36371111,-60.61912942,-55.86254848,1.001864138,
36475555,-60.22337561,-53.41440022,1.001951123,
36580000,-60.27511666,-51.9960228,1.001939524,
36684444,-60.08031652,-51.81125611,1.001983557,
36788888,-59.90231346,-49.51717948,1.002024668,
36893333,-59.73310272,-48.30868163,1.002064538,
36997777,-59.46052983,-47.12373986,1.002130423,
37102222,-59.33378271,-45.83948488,1.002161773,
37206666,-59.26662574,-44.43761115,1.00217857,
37311111,-59.04936003,-42.65631745,1.002233813,
37415555,-58.90816101,-42.62920286,1.002270464,
37520000,-58.76561819,-41.77347721,1.002308075,
37624444,-58.77782216,-39.70118363,1.002304831,
37728888,-58.54051758,-38.52052727,1.002368744,
37833333,-58.31489717,-37.55244271,1.002431155,
37937777,-58.31334278,-35.96121153,1.002431591,
38042222,-58.19561051,-34.55979272,1.002464815,
38146666,-58.19325257,-34.05360777,1.002465485,
38251111,-58.0241931,-32.57895905,1.002514004,
38355555,-57.91754202,-31.83808817,1.002545102,
38460000,-57.80981799,-30.5860822,1.002576904,
38564444,-57.77273189,-29.17465632,1.002587945,
38668888,-57.63217074,-28.2866345,1.002630221,
38773333,-57.73274447,-27.01377021,1.002599902,
38877777,-57.52914499,-25.92007871,1.002661646,
38982222,-57.54801518,-24.45632239,1.002655862,
39086666,-57.33059753,-23.67994988,1.002723272,
39191111,-57.40268695,-22.80977543,1.002700733,
39295555,-57.27941712,-21.28578139,1.002739388,
39400000,-57.26366368,-20.56955066,1.002744368,
39504444,-57.14246736,-19.24934742,1.002782983,
39608888,-57.17920976,-18.42378179,1.002771219,
39713333,-57.00511212,-16.38953104,1.002827404,
39817777,-57.00863418,-16.52553876,1.002826256,
39922222,-56.91385491,-15.07441656,1.002857309,
40026666,-56.87624658,-13.55941124,1.002869726,
40131111,-56.80508937,-12.81897954,1.002893366,
40235555,-56.74222486,-11.91902788,1.002914413,
40340000,-56.88753234,-10.38189658,1.002865994,
40444444,-56.68688048,-8.897078088,1.00293307,
40548888,-56.81891319,-8.350047409,1.002888758,
40653333,-56.62748413,-6.878741801,1.002953225,
40757777,-56.63860799,-6.151497221,1.00294944,
40862222,-56.61911085,-4.676758943,1.002956078,
40966666,-56.56762974,-3.913372436,1.002973677,
41071111,-56.55497843,-2.798100032,1.002978018,
41175555,-56.59088025,-1.602919324,1.002965716,
41280000,-56.44784033,0.1672561635,1.003015034,
41384444,-56.58003209,1.235842923,1.002969427,
41488888,-56.44429786,1.867858596,1.003016266,
41593333,-56.50989675,2.429940073,1.002993538,
41697777,-56.40030345,3.574154323,1.003031605,
41802222,-56.45435639,4.958106814,1.003012769,
41906666,-56.50353889,6.305974162,1.002995733,
42011111,-56.49956666,7.222432894,1.002997105,
42115555,-56.47855428,8.037462269,1.003004375,
42220000,-56.4423175,9.379312354,1.003016954,
42324444,-56.4581204,10.38070201,1.003011462,
42428888,-56.56629193,11.60207021,1.002974135,
42533333,-56.61152813,12.40017581,1.002958664,
42637777,-56.4188947,13.51412077,1.003025113,
42742222,-56.48153027,14.79924565,1.003003345,
42846666,-56.49257232,16.4723579,1.002999523,
42951111,-56.49277978,17.74516898,1.002999451,
43055555,-56.68819029,17.59210597,1.002932627,
43160000,-56.53289596,17.84694503,1.00298561,
43264444,-56.65560498,19.7510011,1.002943666,
43368888,-56.60678062,21.18752528,1.002960284,
43473333,-56.7370747,22.55682556,1.002916144,
43577777,-56.67648856,23.77925919,1.002936586,
43682222,-56.69632721,24.30727111,1.002929877,
43786666,-56.77759739,25.71305786,1.002902552,
43891111,-56.71336788,26.55476177,1.002924126,
43995555,-56.97052371,28.24554648,1.002838702,
44100000,-57.00986755,28.29384884,1.002825855,
44204444,-56.9531151,29.65592156,1.002844405,
44308888,-56.92161435,31.74156661,1.002854754,
44413333,-57.05176329,32.11950379,1.002812238,
44517777,-57.075085,32.77978347,1.002804687,
44622222,-57.2966926,33.78593526,1.002733938,
44726666,-57.28127698,35.31449397,1.002738801,
44831111,-57.29190713,37.14053357,1.002735447,
44935555,-57.57496089,36.87379729,1.002647625,
45040000,-57.48840404,38.43980641,1.002674177,
45144444,-57.47227713,39.64968102,1.002679153,
45248888,-57.58556057,40.79929969,1.002644392,
45353333,-57.73624178,41.8659232,1.002598854,
45457777,-57.77082664,43.1992588,1.002588513,
45562222,-57.91512579,44.16544358,1.002545811,
45666666,-58.10639247,44.57102419,1.002490295,
45771111,-58.06675562,46.09636344,1.002501699,
45875555,-58.16764723,47.14994844,1.002472773,
45980000,-58.32996971,48.1419826,1.002426935,
46084444,-58.49354465,49.32123725,1.002381604,
46188888,-58.47112889,50.20644134,1.002387766,
46293333,-58.78158667,52.24203049,1.002303831,
46397777,-58.86562104,52.97469739,1.002281624,
46502222,-59.00515301,54.19080943,1.002245224,
46606666,-59.0104249,55.73156876,1.00224386,
46711111,-59.07425003,56.06612444,1.002227414,
46815555,-59.35893088,57.00135065,1.002155516,
46920000,-59.51109753,57.81098942,1.002118043,
47024444,-59.73404259,59.00975264,1.002064315,
47128888,-59.84539487,60.31609509,1.002037992,
47233333,-59.93747686,62.4176036,1.002016479,
47337777,-60.17526359,62.60309725,1.001961971,
47442222,-60.5143819,63.45656431,1.001886776,
47546666,-60.47148043,65.56332173,1.001896127,
47651111,-60.80875187,65.57680592,1.001823846,
47755555,-60.82348403,68.1288988,1.001820753,
47860000,-61.1406007,68.47563622,1.00175542,
47964444,-61.40082456,69.21607359,1.001703564,
48068888,-61.53419695,70.13613756,1.001677584,
48173333,-61.81659085,71.28705966,1.001623876,
48277777,-62.00529898,73.49834376,1.001588949,
48382222,-62.35835447,75.24718778,1.00152561,
48486666,-62.44819443,75.65776782,1.001509899,
48591111,-62.68160438,77.1164129,1.001469836,
48695555,-63.00944596,78.66566209,1.001415354,
48800000,-63.26944625,80.7333848,1.001373586,
48904444,-63.99082061,81.47148142,1.001264047,
49008888,-64.24832443,82.81505041,1.001227101,
49113333,-64.60954237,84.31307792,1.001177087,
49217777,-64.54457638,83.41892182,1.001185929,
49322222,-65.27288636,86.9620681,1.001090492,
49426666,-65.29009595,88.34204012,1.001088332,
49531111,-65.80909783,91.00466775,1.001025174,
49635555,-66.2813731,90.08659333,1.000970895,
49740000,-66.58318196,92.99615476,1.000937723,
49844444,-67.47719125,92.09367437,1.000845968,
49948888,-67.77584458,94.12509361,1.000817363,
50053333,-68.5326764,96.45768668,1.000749133,
50157777,-69.23204798,98.81070348,1.000691159,
50262222,-69.84527851,103.0253756,1.00064403,
50366666,-70.13285317,104.4634986,1.00062305,
50471111,-71.14441101,104.0655714,1.000554536,
50575555,-72.14033896,106.1217608,1.000494448,
50680000,-73.34881572,113.6082675,1.000430212,
50784444,-74.73388893,117.7598957,1.000366788,
50888888,-75.73355964,125.4098079,1.000326906,
50993333,-77.33995655,127.7760258,1.000271701,
51097777,-77.03533979,132.1339499,1.0002814,
51202222,-79.69110703,150.0638131,1.000207262,
51306666,-80.48498773,168.8423589,1.000189157,
51411111,-81.19744625,-170.3643458,1.000174259,
51515555,-80.08512521,-155.1820328,1.000198069,
51620000,-79.96610158,-144.3215087,1.000200802,
51724444,-78.67200478,-127.681453,1.000233067,
51828888,-76.9497895,-118.0023423,1.000284186,
51933333,-75.6881339,-110.3495611,1.000328621,
52037777,-74.28487125,-98.21930674,1.000386252,
52142222,-72.99982671,-95.82164488,1.000447853,
52246666,-72.11383616,-90.37823142,1.000495959,
52351111,-71.45503078,-92.75411014,1.00053505,
52455555,-70.15731864,-85.34712724,1.000621297,
52560000,-69.56859781,-81.83587159,1.000664882,
52664444,-68.67255191,-81.99468632,1.000737161,
52768888,-68.1546328,-79.09431386,1.000782471,
52873333,-67.65787748,-74.22246812,1.000828545,
52977777,-67.15948622,-73.97577759,1.000877498,
53082222,-66.21814274,-72.26027707,1.000977992,
53186666,-65.20066785,-70.60383277,1.001099601,
53291111,-64.96406697,-70.16736623,1.001129983,
53395555,-64.31136019,-71.05390301,1.001218222,
53500000,-64.4613309,-67.87976653,1.001197356,
53604444,-63.75299381,-69.28310519,1.001299159,
53708888,-63.48863235,-67.6019546,1.001339335,
53813333,-62.93183203,-65.7450622,1.001428066,
53917777,-62.89768507,-64.73914672,1.001433696,
54022222,-62.51817552,-62.82415926,1.001497774,
54126666,-62.37344503,-61.10968561,1.001522959,
54231111,-62.09356823,-59.40539572,1.001572871,
54335555,-61.85024536,-58.36272517,1.001617591,
54440000,-61.62515437,-56.33178585,1.001660094,
54544444,-61.30041179,-55.4161757,1.00172339,
54648888,-60.87583258,-53.90112274,1.001809802,
54753333,-60.66175334,-53.07352217,1.001855004,
54857777,-60.32142001,-51.15331585,1.001929202,
54962222,-60.31278251,-49.90974308,1.001931123,
55066666,-60.06600909,-47.89235804,1.00198683,
55171111,-59.66584545,-46.45265915,1.002080603,
55275555,-59.32261169,-45.888263,1.002164558,
55380000,-58.94638013,-43.86378177,1.002260485,
55484444,-59.02278639,-43.51264677,1.002240665,
55588888,-58.78152262,-41.69572026,1.002303848,
55693333,-58.66200655,-41.8640929,1.002335805,
55797777,-58.41883744,-39.98932373,1.002402202,
55902222,-58.29586437,-39.11674328,1.002436495,
56006666,-58.08470108,-37.86704427,1.00249653,
56111111,-57.99154279,-36.28907342,1.002523484,
56215555,-57.77581477,-34.67434283,1.002587025,
56320000,-57.58812394,-34.07634758,1.002643611,
56424444,-57.47289472,-32.2349193,1.002678962,
56528888,-57.24981265,-31.92953138,1.002748754,
56633333,-57.12830907,-30.99604324,1.002787529,
56737777,-56.98339741,-29.01154194,1.002834492,
56842222,-56.85953378,-28.66907107,1.002875261,
56946666,-56.76371351,-26.96461159,1.002907202,
57051111,-56.53395656,-25.30080069,1.002985245,
57155555,-56.49285138,-25.06076167,1.002999427,
57260000,-56.30607857,-23.71838631,1.003064722,
57364444,-56.19268768,-22.78910841,1.003105055,
57468888,-56.18432509,-20.86569707,1.003108051,
57573333,-55.9641843,-20.63462042,1.003187957,
57677777,-55.93125442,-19.04282544,1.003200086,
57782222,-55.7886623,-16.58903207,1.00325314,
57886666,-55.72476721,-16.17140823,1.003277198,
57991111,-55.58147841,-14.75104487,1.0033318,
58095555,-55.43915616,-14.57766455,1.003386936,
58200000,-55.38801921,-13.31304518,1.003406969,
58304444,-55.26853986,-11.14207408,1.003454239,
58408888,-55.16769489,-10.5296797,1.003494648,
58513333,-55.11593305,-9.011984502,1.003515573,
58617777,-55.1411931,-8.271010866,1.003505346,
58722222,-54.99555591,-6.446153548,1.003564721,
58826666,-54.93494382,-5.400253188,1.003589729,
58931111,-54.84668886,-5.032918156,1.003626455,
59035555,-54.72515856,-2.883201687,1.003677646,
59140000,-54.79618495,-2.229478833,1.003647641,
59244444,-54.63021783,-1.354953707,1.00371814,
59348888,-54.29490219,0.4363868593,1.003864767,
59453333,-54.60535858,1.408188016,1.003728817,
59557777,-54.457715,2.341032165,1.003792862,
59662222,-54.432983,3.931126591,1.003803698,
59766666,-54.28054328,5.324217589,1.003871173,
59871111,-54.36916839,6.657003196,1.0038318,
59975555,-54.26928501,7.517038757,1.003876204,
60080000,-54.24912469,7.954831359,1.003885229,
60184444,-54.20275684,9.654554707,1.003906065,
60288888,-54.2004825,11.09776917,1.00390709,
60393333,-54.15264683,12.70467062,1.00392871,
60497777,-54.08268877,13.46938399,1.003960543,
60602222,-54.09876174,14.43696154,1.003953206,
60706666,-54.08751415,15.33953228,1.003958339,
60811111,-54.1132758,16.75744502,1.003946593,
60915555,-54.05728783,18.03326543,1.003972165,
61020000,-54.01907748,18.74376581,1.003989713,
61124444,-53.93474915,20.58412535,1.004028714,
61228888,-53.96377954,21.48234315,1.004015245,
61333333,-53.91556829,22.14189743,1.004037639,
61437777,-53.39888783,27.51268276,1.004285635,
61542222,-53.92615231,25.04380281,1.004032712,
61646666,-53.98749153,26.32844631,1.004004277,
61751111,-55.39227679,49.85714487,1.003405297,
61855555,-53.90566648,29.1477257,1.004042254,
61960000,-53.99977153,29.64607645,1.003998608,
62064444,-53.87376632,31.00311527,1.004057157,
62168888,-53.99564102,31.65053665,1.004000514,
62273333,-54.02995699,33.05613994,1.003984708,
62377777,-54.07582269,34.76376063,1.003963681,
62482222,-54.046985,35.6814569,1.003976889,
62586666,-54.14232666,36.81367736,1.003933389,
62691111,-54.07188104,38.12520992,1.003965484,
62795555,-54.16161554,40.0203187,1.003924647,
62900000,-54.1490973,41.26374009,1.003930319,
63004444,-54.16859965,42.29432721,1.003921486,
63108888,-54.2253283,43.45218125,1.003895908,
63213333,-54.23095444,44.44217678,1.003893381,
63317777,-54.28193091,45.89400746,1.003870554,
63422222,-54.38929476,46.90810999,1.003822915,
63526666,-54.41146204,48.41703577,1.003813152,
63631111,-54.51924019,49.73939084,1.003766041,
63735555,-54.52018141,50.8240143,1.003765632,
63840000,-54.57965054,51.89642075,1.00373989,
63944444,-54.65513407,53.31207072,1.00370747,
64048888,-54.76905162,55.41383976,1.003659074,
64153333,-54.77135342,56.72911731,1.003658103,
64257777,-54.79719936,57.7125427,1.003647214,
64362222,-54.90711866,59.25220045,1.003601267,
64466666,-54.80673803,60.97730319,1.003643204,
64571111,-54.80900897,62.1762903,1.00364225,
64675555,-54.84207288,63.67305176,1.003628386,
64780000,-54.77706503,64.50431131,1.003655694,
64884444,-54.70770455,65.1724877,1.003685057,
64988888,-54.85149394,65.78272634,1.003624446,
65093333,-54.90630275,66.11973985,1.003601606,
65197777,-55.18824604,67.03553222,1.003486375,
65302222,-55.29417453,68.19336999,1.003444042,
65406666,-55.56254001,69.32731376,1.003339085,
65511111,-55.75536906,71.05330533,1.003265653,
65615555,-55.98833078,72.83082932,1.003179093,
65720000,-56.20267058,73.90031476,1.003101483,
65824444,-56.29020289,75.03956428,1.003070337,
65928888,-56.41312226,76.42324704,1.003027128,
66033333,-56.57601098,78.56784304,1.002970804,
66137777,-56.63739709,79.95328452,1.002949852,
66242222,-56.92781451,82.00905498,1.002852714,
66346666,-57.10455897,82.80425586,1.002795172,
66451111,-57.25895467,85.14671342,1.002745858,
66555555,-57.35118646,85.95766538,1.002716816,
66660000,-57.75317981,87.74105199,1.002593784,
66764444,-57.89588343,88.99121745,1.002551464,
66868888,-58.04601448,90.26890891,1.002507688,
66973333,-58.22399282,91.27613214,1.002456764,
67077777,-58.31364396,92.47644704,1.002431507,
67182222,-58.58120692,95.43511782,1.002357661,
67286666,-58.77159302,96.15558817,1.002306486,
67391111,-59.05918261,98.40596578,1.002231285,
67495555,-59.2748284,99.73853533,1.002176511,
67600000,-59.54346529,102.2751664,1.002110157,
67704444,-59.73385852,103.2085754,1.002064358,
67808888,-59.94598874,104.3662838,1.002014502,
67913333,-60.33880444,106.3686547,1.001925341,
68017777,-60.52713775,109.6487443,1.001884005,
68122222,-60.81573769,110.2599644,1.001822379,
68226666,-61.13680604,110.8232097,1.001756187,
68331111,-61.52321416,113.9967604,1.001679708,
68435555,-61.83751266,113.9636323,1.001619966,
68540000,-62.20453531,115.8574904,1.001552889,
68644444,-62.85780408,119.5519265,1.001440298,
68748888,-62.76849645,120.6943526,1.001455195,
68853333,-63.2473527,125.3753309,1.001377087,
68957777,-63.86345911,127.0607999,1.001282731,
69062222,-64.09742626,127.2356766,1.001248618,
69166666,-64.49646299,133.3008967,1.00119252,
69271111,-65.03307183,135.012445,1.001121037,
69375555,-65.63457221,140.2179283,1.001045992,
69480000,-66.14227912,139.048075,1.000986575,
69584444,-66.93026236,142.9527061,1.000900974,
69688888,-67.41776647,149.450767,1.000851778,
69793333,-67.89921473,148.618767,1.000805831,
69897777,-68.18446342,159.6961635,1.000779787,
70002222,-68.78342167,166.2057547,1.000727808,
70106666,-69.45693653,168.3645011,1.000673487,
70211111,-70.17474093,172.97399,1.000620051,
70315555,-71.12578567,-178.085797,1.000555727,
70420000,-71.60392481,-169.847614,1.000525954,
70524444,-71.58186288,-156.6784682,1.000527292,
70628888,-71.55761102,-153.7292352,1.000528767,
70733333,-71.5098198,-143.0834165,1.000531685,
70837777,-71.49226095,-135.567447,1.000532761,
70942222,-72.12880158,-124.0598972,1.000495105,
71046666,-70.56584877,-117.6222246,1.000592743,
71151111,-69.96416827,-109.2793708,1.000635272,
71255555,-70.06479506,-104.6556873,1.000627952,
71360000,-69.49858885,-97.41454072,1.000670264,
71464444,-68.54479221,-90.98032186,1.000748088,
71568888,-67.98393624,-85.845751,1.000798007,
71673333,-67.21614196,-84.1348396,1.000871791,
71777777,-66.75656161,-79.58524164,1.000919182,
71882222,-66.29899177,-77.56287244,1.000968926,
71986666,-65.55995249,-71.93810718,1.001055022,
72091111,-64.70668342,-71.40921558,1.001163988,
72195555,-64.4480582,-68.08923009,1.001199188,
72300000,-64.13593418,-64.53316313,1.001243092,
72404444,-63.65663653,-62.82532126,1.001313661,
72508888,-63.50563385,-58.62191275,1.001336714,
72613333,-62.80546519,-57.27579759,1.00144901,
72717777,-62.51030192,-53.62592516,1.001499134,
72822222,-62.18317547,-53.25692134,1.001556715,
72926666,-61.70588121,-52.29147398,1.001644724,
73031111,-61.57932673,-48.7982892,1.001668883,
73135555,-61.13812972,-47.46850994,1.00175592,
