Frequency,S11_Magnitude,S11_Phase,S11_VSWR,
30000000,-65.44077197,76.36278158,1.001069605,
30104444,-66.4694886,80.61165185,1.000950084,
30208888,-66.77510231,81.33168651,1.000917221,
30313333,-67.03564002,81.77368816,1.000890105,
30417777,-67.5458457,83.99291975,1.000839305,
30522222,-68.09120544,88.55848625,1.000788208,
30626666,-68.67316912,90.27242219,1.000737109,
30731111,-68.95579383,89.86330853,1.000713502,
30835555,-69.44685275,93.92253957,1.00067427,
30940000,-70.62188535,92.81299334,1.00058893,
31044444,-71.19402025,98.91742764,1.000551377,
31148888,-70.83103609,105.1161633,1.000574914,
31253333,-72.78445209,101.4530912,1.0004591,
31357777,-73.82804955,106.1839687,1.000407114,
31462222,-74.91167425,109.9037942,1.000359356,
31566666,-76.40034844,112.308495,1.000302746,
31671111,-75.62434566,118.5732615,1.000331043,
31775555,-77.974855,136.8657943,1.000252547,
31880000,-78.81622748,136.5695301,1.000229228,
31984444,-80.11388377,148.3373706,1.000197414,
32088888,-80.297572,152.7660089,1.000193283,
32193333,-81.63283501,-168.1946127,1.000165739,
32297777,-80.93360874,-157.5336393,1.000179634,
32402222,-81.08310163,-133.7199099,1.000176569,
32506666,-78.44569228,-139.0113534,1.00023922,
32611111,-76.63863362,-120.8467967,1.000294552,
32715555,-75.97784398,-117.9139046,1.000317839,
32820000,-74.76055779,-118.3630224,1.000365663,
32924444,-73.97125302,-111.6053567,1.000400456,
33028888,-72.60094401,-101.4020812,1.000468905,
33133333,-72.01275279,-102.9376846,1.000501766,
33237777,-71.20967153,-92.91826243,1.000550384,
33342222,-70.80242577,-97.78824566,1.000576812,
33446666,-70.18305832,-91.6157816,1.000619458,
33551111,-69.51345064,-91.33188051,1.000669118,
33655555,-68.43299095,-87.58164771,1.000757783,
33760000,-67.87097401,-84.63693432,1.000808457,
33864444,-67.62184847,-83.45807306,1.00083199,
33968888,-66.93205039,-80.50724786,1.000900789,
34073333,-66.78308948,-81.47329315,1.000916378,
34177777,-65.84526666,-78.78655255,1.001020912,
34282222,-65.64717001,-75.81717574,1.001044475,
34386666,-65.38839787,-74.63624059,1.001076078,
34491111,-64.94075994,-75.37388544,1.001133021,
34595555,-64.32207264,-72.00288695,1.00121672,
34700000,-64.28449218,-71.62760525,1.001221998,
34804444,-63.65913503,-68.81143944,1.001313283,
34908888,-63.74031531,-69.75101132,1.001301058,
35013333,-63.11030179,-68.45432926,1.001399003,
35117777,-62.99696258,-66.29594711,1.001417391,
35222222,-62.79098395,-64.72877987,1.001451429,
35326666,-62.51536384,-64.34369774,1.001498259,
35431111,-62.16642791,-62.8397333,1.001559722,
35535555,-61.97303983,-60.0138018,1.001594866,
35640000,-61.74155244,-60.5660956,1.001637977,
35744444,-61.43313184,-57.76193863,1.001697234,
35848888,-61.20180937,-58.75365782,1.001743082,
35953333,-60.85619073,-57.44364555,1.001813903,
36057777,-60.67308896,-54.79408595,1.001852583,
36162222,-60.56876652,-54.31064023,1.001874989,
36266666,-60.31782225,-53.09251374,1.001930002,
36371111,-60.15726662,-52.02522481,1.001966045,
36475555,-59.89605917,-51.74905136,1.002026128,
36580000,-59.92177299,-49.58187233,1.002020132,
36684444,-59.66214815,-49.46441449,1.00208149,
36788888,-59.39064871,-48.08116649,1.002147651,
36893333,-59.33397079,-46.65872349,1.002161726,
36997777,-59.11197374,-44.6060962,1.00221775,
37102222,-58.88817578,-44.74231678,1.0022757,
37206666,-58.69528515,-43.03404047,1.002326862,
37311111,-58.59440665,-41.33281914,1.002354076,
37415555,-58.37330282,-40.77344103,1.002414843,
37520000,-58.3578413,-39.83846387,1.002419151,
37624444,-58.31182264,-38.07378896,1.002432017,
37728888,-57.99897189,-37.23291661,1.002521323,
37833333,-57.80499893,-36.40980905,1.002578336,
37937777,-57.80293392,-34.66498287,1.00257895,
38042222,-57.61994064,-33.52160876,1.002633932,
38146666,-57.64724238,-32.86974044,1.002625655,
38251111,-57.44158735,-31.31701633,1.002688649,
38355555,-57.43346969,-30.61704639,1.002691166,
38460000,-57.21298983,-28.77741265,1.002760448,
38564444,-57.28975287,-28.03373647,1.002736126,
38668888,-57.04730442,-26.95604716,1.002813684,
38773333,-56.99738831,-26.48942261,1.002829923,
38877777,-56.91956392,-25.27523562,1.002855429,
38982222,-56.79054149,-23.7259127,1.002898223,
39086666,-56.76320726,-22.14904253,1.002907371,
39191111,-56.80269044,-21.64081681,1.002894166,
39295555,-56.71878775,-20.69768709,1.002922299,
39400000,-56.63845411,-19.60234557,1.002949492,
39504444,-56.54888777,-18.61172278,1.00298011,
39608888,-56.3677708,-17.21052455,1.003042998,
39713333,-56.37805211,-15.7995876,1.003039393,
39817777,-56.28355874,-15.41121043,1.00307269,
39922222,-56.23208029,-14.20778508,1.003090983,
40026666,-56.12188717,-13.36571346,1.003130508,
40131111,-56.13602761,-11.64352266,1.003125408,
40235555,-56.02956574,-10.9793451,1.003164013,
40340000,-56.07829033,-9.49170203,1.003146286,
40444444,-55.97245588,-8.109891632,1.003184918,
40548888,-55.92477775,-7.71016381,1.003202477,
40653333,-55.95987372,-6.259918074,1.003189542,
40757777,-55.88067226,-5.049978992,1.003218806,
40862222,-55.81521699,-3.904167047,1.003243193,
40966666,-55.75670131,-3.271945599,1.003265152,
41071111,-55.75597276,-2.023017893,1.003265426,
41175555,-55.836596,-0.7700748807,1.003235208,
41280000,-55.77814055,0.0384603314,1.003257089,
41384444,-55.72146712,1.692987492,1.003278445,
41488888,-55.62768405,2.358075796,1.003314094,
41593333,-55.59490909,3.237164742,1.003326644,
41697777,-55.58928263,4.090628828,1.003328803,
41802222,-55.65469276,5.368503581,1.003303788,
41906666,-55.53798213,6.937897597,1.003348555,
42011111,-55.60573696,7.12533198,1.003322493,
42115555,-55.60941109,8.647337631,1.003321085,
42220000,-55.41947421,10.12750171,1.003394633,
42324444,-55.58509626,10.94812159,1.003330411,
42428888,-55.63835818,11.89897094,1.003310017,
42533333,-55.6051753,13.24318546,1.003322708,
42637777,-55.49210312,13.80417495,1.003366319,
42742222,-55.55613369,15.61435997,1.003341553,
42846666,-55.52383187,16.34111371,1.003354024,
42951111,-55.5217253,17.49112873,1.003354838,
43055555,-55.66252046,18.20959567,1.003300807,
43160000,-55.5642619,19.4337974,1.003338422,
43264444,-55.70297009,20.75702201,1.003285446,
43368888,-55.70176814,21.83556043,1.003285901,
43473333,-55.67821522,23.27778423,1.003294838,
43577777,-55.67208574,23.71222775,1.003297168,
43682222,-55.66584782,25.17912383,1.003299541,
43786666,-55.74586908,26.39990288,1.003269233,
43891111,-55.64755939,27.2130235,1.003306507,
43995555,-55.91052269,27.95124682,1.003207745,
44100000,-55.94966276,29.08748951,1.0031933,
44204444,-55.86151022,30.60801339,1.003225926,
44308888,-55.99216314,31.97050938,1.003177688,
44413333,-55.87341052,32.43484122,1.003221502,
44517777,-56.06021728,33.0537844,1.003152849,
44622222,-56.03734642,34.04681487,1.003161175,
44726666,-56.1900708,35.13757029,1.003105992,
44831111,-56.13715562,37.04286661,1.003125002,
44935555,-56.26633596,37.50617433,1.003078798,
45040000,-56.29077901,38.94202778,1.003070133,
45144444,-56.37586678,40.26272642,1.003040159,
45248888,-56.43248843,41.5186359,1.003020376,
45353333,-56.52015298,42.18462666,1.00299,
45457777,-56.63125804,43.82349193,1.002951941,
45562222,-56.74190087,44.24948335,1.002914522,
45666666,-56.74828289,44.77100003,1.002912378,
45771111,-56.7729599,46.00782607,1.002904104,
45875555,-56.92328419,47.32672211,1.002854205,
45980000,-56.98907916,48.72787936,1.002832636,
46084444,-57.10482225,49.88634336,1.002795087,
46188888,-57.22913831,50.50183722,1.002755313,
46293333,-57.40574745,52.17394639,1.002699781,
46397777,-57.48554827,53.42293036,1.002675057,
46502222,-57.61297798,54.07890024,1.002636047,
46606666,-57.71903385,55.41305055,1.002604014,
46711111,-57.73442197,55.76000219,1.002599399,
46815555,-57.91391834,57.21312976,1.002546165,
46920000,-58.0131261,57.88907168,1.002517213,
47024444,-58.22889672,58.90632755,1.002455376,
47128888,-58.31204072,60.44911776,1.002431956,
47233333,-58.31697636,62.03575328,1.002430573,
47337777,-58.60294183,62.63088196,1.002351762,
47442222,-58.9321844,63.01484324,1.002264186,
47546666,-58.93556583,65.97224031,1.002263304,
47651111,-59.25636318,65.09794895,1.002181148,
47755555,-59.28235375,67.80868142,1.002174624,
47860000,-59.37396941,68.197563,1.002151783,
47964444,-59.60089076,68.67510766,1.002096237,
48068888,-59.75603658,70.02049591,1.002059089,
48173333,-59.941727,70.8372381,1.002015492,
48277777,-60.12996227,72.38483738,1.001972241,
48382222,-60.43625617,74.03471672,1.00190384,
48486666,-60.5658706,74.40852405,1.001875614,
48591111,-60.77995265,76.49976581,1.001829909,
48695555,-60.91010771,76.54445806,1.001802669,
48800000,-61.07584079,78.68679151,1.001768568,
48904444,-61.69599288,79.17139639,1.001646599,
49008888,-61.73099424,80.81864258,1.001639971,
49113333,-62.02561101,82.28080593,1.001585235,
49217777,-62.27963372,81.55192658,1.00153951,
49322222,-62.72516315,83.35573231,1.001462478,
49426666,-63.04544285,85.59562594,1.001409496,
49531111,-63.19165017,87.09876722,1.001385952,
49635555,-63.54892457,87.29544031,1.001330064,
49740000,-63.8790114,88.22582072,1.001280435,
49844444,-64.38821497,87.52024077,1.001207484,
49948888,-64.79682521,90.50254385,1.001151964,
50053333,-65.43568794,92.23876267,1.001070232,
50157777,-65.71825385,92.7517494,1.001035958,
50262222,-66.29164451,95.51443751,1.000969747,
50366666,-66.93946251,94.80517905,1.00090002,
50471111,-66.98087259,96.20838086,1.000895738,
50575555,-68.03059035,96.18938496,1.00079373,
50680000,-68.53008326,102.247956,1.000749357,
50784444,-69.33961287,103.5296192,1.000682649,
50888888,-70.26786604,103.9949454,1.000613437,
50993333,-70.75759358,102.1166965,1.000579797,
51097777,-71.85252321,108.1919842,1.000511111,
51202222,-73.26954184,112.060742,1.000434157,
51306666,-73.43087959,111.9618529,1.000426166,
51411111,-75.08944979,112.7255974,1.000352074,
51515555,-76.60901355,123.7306481,1.000295559,
51620000,-77.94727936,131.5364636,1.00025335,
51724444,-82.11967183,130.0717898,1.000156704,
51828888,-83.68117351,147.1940414,1.000130918,
51933333,-86.92186391,173.0072262,1.000090148,
52037777,-88.08007372,-106.9967235,1.000078894,
52142222,-82.18247528,-96.76874738,1.000155575,
52246666,-81.00828416,-79.53039196,1.000178096,
52351111,-78.724732,-87.34838442,1.000231656,
52455555,-76.43885037,-75.66180771,1.000301407,
52560000,-74.64686953,-71.00721406,1.000370482,
52664444,-73.02049543,-75.10691119,1.000446789,
52768888,-71.93338225,-70.76510439,1.000506373,
52873333,-71.25086469,-67.42940673,1.000547779,
52977777,-70.06935364,-66.12800622,1.000627623,
53082222,-69.17710058,-65.78966427,1.000695546,
53186666,-67.95225411,-63.50847736,1.000800924,
53291111,-67.63155856,-63.83379972,1.00083106,
53395555,-66.65148399,-65.05572765,1.000930374,
53500000,-66.24803738,-59.82217348,1.00097463,
53604444,-65.81395657,-61.61991404,1.001024601,
53708888,-65.46532545,-60.26158894,1.001066584,
53813333,-64.94287501,-59.10142587,1.001132745,
53917777,-64.65600654,-57.42891506,1.001170803,
54022222,-64.18779757,-55.97552229,1.001235687,
54126666,-64.01493155,-54.33181768,1.001260541,
54231111,-63.56735444,-51.79828899,1.001327243,
54335555,-63.11175399,-49.71011378,1.001398769,
54440000,-62.83765658,-49.64802666,1.001443645,
54544444,-62.39275471,-48.74130226,1.001519575,
54648888,-61.9866969,-47.1768625,1.001592358,
54753333,-61.83921686,-43.96618827,1.001619648,
54857777,-61.4466423,-44.63099565,1.001694594,
54962222,-61.1317373,-43.88562598,1.001757214,
55066666,-60.79220445,-41.41026909,1.001827328,
55171111,-60.64875058,-39.73966922,1.001857786,
55275555,-60.36422509,-39.40096786,1.001919709,
55380000,-61.89701662,-38.54189199,1.001608898,
55484444,-59.74063968,-36.45256803,1.002062746,
55588888,-59.58875041,-35.33307262,1.002099172,
55693333,-59.29117898,-34.66838311,1.002172414,
55797777,-59.13505436,-33.74324516,1.002211858,
55902222,-58.96418698,-31.41100406,1.00225585,
56006666,-58.65878552,-31.43132385,1.002336672,
56111111,-58.57326809,-30.0740456,1.002359819,
56215555,-58.38611616,-28.24559866,1.002411279,
56320000,-58.15606867,-26.7684174,1.002476076,
56424444,-57.93574661,-26.24551849,1.002539767,
56528888,-57.75822029,-25.48683047,1.002592278,
56633333,-57.55486569,-24.42832769,1.002653766,
56737777,-57.47682067,-22.41554376,1.00267775,
56842222,-57.35230079,-21.904768,1.002716467,
56946666,-57.16677289,-20.55619664,1.002775195,
57051111,-56.92119951,-18.52707869,1.002854891,
57155555,-56.90353549,-18.62945451,1.002860711,
57260000,-56.6815556,-17.78327135,1.002934871,
57364444,-56.61277004,-16.04552587,1.00295824,
57468888,-56.5437105,-14.96028676,1.002981889,
57573333,-56.31678516,-14.3507471,1.003060941,
57677777,-56.2324487,-12.87121978,1.003090852,
57782222,-56.11825422,-10.76632132,1.00313182,
57886666,-56.00361186,-10.4530946,1.003173496,
57991111,-55.85032643,-8.86184043,1.003230089,
58095555,-55.72407059,-7.522633161,1.003277461,
58200000,-55.67470272,-6.72395242,1.003296173,
58304444,-55.56166997,-5.502986791,1.00333942,
58408888,-55.38378297,-4.09738999,1.003408634,
58513333,-55.37171113,-3.229017748,1.003413383,
58617777,-55.33711034,-2.791118254,1.003427031,
58722222,-55.14504681,-0.05553948428,1.003503788,
58826666,-55.17957539,0.654853665,1.003489863,
58931111,-55.00930345,1.241882919,1.003559074,
59035555,-54.93207103,3.179376073,1.003590918,
59140000,-54.95255258,3.666386883,1.003582445,
59244444,-54.81649992,5.634405101,1.003639104,
59348888,-54.72736512,6.625646962,1.00367671,
59453333,-54.69671602,7.477675566,1.003689731,
59557777,-54.61357079,8.37117936,1.003725286,
59662222,-54.57280061,10.26974779,1.003742846,
59766666,-54.49262698,10.71614808,1.003777619,
59871111,-54.43401213,12.69054373,1.003803246,
59975555,-54.38848678,13.67130039,1.003823271,
60080000,-54.36238645,14.53442927,1.003834799,
60184444,-54.32785312,15.78902706,1.003850105,
60288888,-54.30275273,17.35201893,1.003861269,
60393333,-54.24822935,18.29164745,1.00388563,
60497777,-54.17539531,19.60295665,1.003918414,
60602222,-54.18002658,20.57365178,1.003916321,
60706666,-54.13947732,21.29705926,1.003934683,
60811111,-54.20403936,22.63042008,1.003905488,
60915555,-54.11167771,24.0933961,1.003947321,
61020000,-54.11892514,24.7933951,1.003944022,
61124444,-54.03685711,26.09608573,1.003981538,
61228888,-54.0734469,27.78044676,1.003964768,
61333333,-53.97965554,28.25536539,1.004007898,
61437777,-54.46254027,35.6573049,1.003790752,
61542222,-53.90369366,30.53954129,1.004043174,
61646666,-54.07063411,32.02964176,1.003966054,
61751111,-51.76451124,26.86105324,1.005175196,
61855555,-53.9656394,34.8550113,1.004014384,
61960000,-53.95353648,35.82563839,1.004019992,
62064444,-53.94338488,36.62901383,1.004024703,
62168888,-53.999607,37.64773921,1.003998684,
62273333,-54.06478299,38.99235915,1.003968732,
62377777,-54.04590725,40.78726638,1.003977383,
62482222,-54.08568651,41.53200413,1.003959174,
62586666,-54.11022816,42.48282364,1.003947981,
62691111,-54.07139736,43.84215645,1.003965705,
62795555,-54.17301527,45.88225415,1.00391949,
62900000,-54.16594592,46.49741701,1.003922687,
63004444,-54.17839928,47.71575017,1.003917056,
63108888,-54.25366336,48.90874846,1.003883195,
63213333,-54.21611305,49.94240893,1.003900052,
63317777,-54.24836546,52.05005977,1.003885569,
63422222,-54.38347526,52.38141774,1.003825482,
63526666,-54.35729605,54.12742913,1.003837051,
63631111,-54.41084702,55.25516927,1.003813423,
63735555,-54.47096442,56.81224358,1.00378707,
63840000,-54.53150265,57.65605463,1.003760718,
63944444,-54.6090571,59.34679865,1.003727226,
64048888,-54.72324313,60.51230161,1.003678459,
64153333,-54.62105034,62.0028487,1.003722074,
64257777,-54.66159943,63.18862432,1.003704706,
64362222,-54.73301559,64.8065794,1.003674315,
64466666,-54.65738983,66.46990839,1.003706505,
64571111,-54.69608346,67.66924549,1.00369,
64675555,-54.66005601,68.94915481,1.003705366,
64780000,-54.56816556,69.73774747,1.003744848,
64884444,-54.5565029,69.83841213,1.003749889,
64988888,-54.67069599,70.24159507,1.003700821,
65093333,-54.76118822,71.18368498,1.003662395,
65197777,-55.02265173,72.28091879,1.003553599,
65302222,-55.25020352,72.85993456,1.003461552,
65406666,-55.47022516,74.73271106,1.003374823,
65511111,-55.67298395,76.31624232,1.003296827,
65615555,-55.88493802,78.017286,1.003217223,
65720000,-56.02185242,78.90037202,1.003166828,
65824444,-56.22612053,80.64833274,1.003093108,
65928888,-56.34217865,82.06340756,1.003051991,
66033333,-56.45975174,83.20202586,1.003010896,
66137777,-56.51722362,84.5513686,1.00299101,
66242222,-56.75020282,87.52712983,1.002911734,
66346666,-56.86733038,87.6135346,1.002872677,
66451111,-57.14358923,89.50579368,1.002782623,
66555555,-57.12842339,91.06730777,1.002787492,
66660000,-57.48745213,92.21631096,1.00267447,
66764444,-57.57311985,93.90908083,1.002648187,
66868888,-57.77343821,95.01918069,1.002587734,
66973333,-57.93400217,96.25047694,1.002540277,
67077777,-58.02633917,97.8696261,1.002513382,
67182222,-58.32484239,98.59688691,1.00242837,
67286666,-58.51326957,101.8582849,1.002376196,
67391111,-58.80661069,102.9191551,1.002297196,
67495555,-59.00834848,104.7824017,1.002244397,
67600000,-59.09606179,105.3565856,1.002221821,
67704444,-59.44100059,107.7839163,1.002135224,
67808888,-59.53743555,108.1063254,1.002111624,
67913333,-59.96002214,110.2137953,1.002011247,
68017777,-60.18088845,112.8975434,1.0019607,
68122222,-60.48105603,113.7697007,1.001894036,
68226666,-60.70219897,115.7690869,1.001846379,
68331111,-61.05875684,117.5691164,1.001772053,
68435555,-61.36294087,118.0704029,1.001711017,
68540000,-61.76286749,120.2610581,1.001633959,
68644444,-62.14382697,121.5815098,1.001563789,
68748888,-62.35959445,124.1918808,1.001525392,
68853333,-62.77713645,127.794741,1.001453747,
68957777,-63.01651789,129.8773788,1.001414201,
69062222,-63.48588817,130.2457809,1.001339758,
69166666,-63.86094679,133.9754652,1.001283102,
69271111,-64.41923496,136.9115679,1.001203177,
69375555,-64.88795854,142.3184434,1.001139934,
69480000,-65.2909321,141.9024045,1.001088227,
69584444,-66.01352578,144.2281503,1.001001316,
69688888,-66.55912473,149.1957861,1.000940325,
69793333,-67.16482254,149.3849492,1.000876959,
69897777,-67.31158377,156.9427251,1.00086226,
70002222,-67.75532425,159.836296,1.000819298,
70106666,-68.7415028,164.6224255,1.00073133,
70211111,-69.10666323,166.9150816,1.000701212,
70315555,-69.93501214,175.5939269,1.000637408,
70420000,-70.51132065,-175.3779636,1.000596477,
70524444,-71.28385096,-169.5865833,1.000545702,
70628888,-70.90287727,-161.703094,1.000570177,
70733333,-71.56955829,-152.4020603,1.00052804,
70837777,-71.98698864,-145.0539226,1.000503257,
70942222,-72.53189732,-134.2642078,1.000472648,
71046666,-71.42030082,-124.3472357,1.000537195,
71151111,-71.59138195,-114.9640255,1.000526714,
71255555,-71.38963546,-109.5561832,1.000539095,
71360000,-70.35425452,-101.8631363,1.000607364,
71464444,-69.7599483,-97.20818702,1.00065039,
71568888,-69.54432365,-88.7165597,1.000666743,
71673333,-68.64976224,-83.68582487,1.000739099,
71777777,-68.14118342,-79.49697718,1.000783684,
71882222,-67.02561229,-77.67658866,1.000891134,
71986666,-66.85114313,-70.9141081,1.000909223,
72091111,-66.35674036,-69.01590145,1.000962503,
72195555,-66.03628591,-66.44404659,1.000998694,
72300000,-65.28790934,-62.15380575,1.001088606,
72404444,-64.70994565,-59.81415791,1.001163551,
72508888,-64.34219893,-56.9050539,1.001213902,
72613333,-63.78593875,-54.78851884,1.001294238,
72717777,-63.27308196,-51.94075336,1.001373011,
72822222,-62.94590097,-49.59872793,1.001425753,
72926666,-62.68077333,-48.19339244,1.001469977,
73031111,-62.44690586,-45.74128133,1.001510124,
73135555,-61.83814443,-43.24499217,1.001619848,
