Frequency,S11_Magnitude,S11_Phase,S11_VSWR,
30000000,-62.71201328,66.25337629,1.001464695,
30104444,-64.79467868,77.4422246,1.001152249,
30208888,-65.0615063,78.83765428,1.001117371,
30313333,-65.26565486,79.3957524,1.001091401,
30417777,-65.61969619,81.74277468,1.001047786,
30522222,-66.12719992,85.05542447,1.00098829,
30626666,-66.447422,88.11355134,1.000952502,
30731111,-67.0852525,87.15868684,1.000885033,
30835555,-67.24883693,93.16894698,1.000868514,
30940000,-68.17962719,93.54191096,1.000780222,
31044444,-68.57450134,96.17286314,1.000745533,
31148888,-67.73503144,103.7250462,1.000821215,
31253333,-70.07930602,99.35745406,1.000626904,
31357777,-70.89376194,102.7899633,1.000570776,
31462222,-70.66761898,105.973034,1.000585836,
31566666,-71.67136831,111.4211887,1.000521885,
31671111,-72.38413271,117.1050152,1.000480759,
31775555,-73.91016401,122.8413578,1.000403282,
31880000,-74.44724751,126.0797591,1.000379097,
31984444,-74.76564591,137.3776786,1.000365449,
32088888,-75.35968621,142.4953195,1.000341287,
32193333,-76.14744408,160.8426553,1.000311692,
32297777,-76.86815913,163.863528,1.000286869,
32402222,-77.20624655,177.9182677,1.000275916,
32506666,-75.98039425,-170.9118225,1.000317745,
32611111,-76.99309328,-159.3360441,1.000282772,
32715555,-75.0644276,-153.0169078,1.00035309,
32820000,-74.67588702,-143.0433784,1.000369246,
32924444,-73.69342314,-135.6917242,1.000413474,
33028888,-72.65753151,-126.3223336,1.000465859,
33133333,-71.38960865,-121.2933292,1.000539097,
33237777,-71.44068161,-114.8131523,1.000535935,
33342222,-70.38537519,-115.6328041,1.000605191,
33446666,-70.15547781,-108.7858596,1.000621428,
33551111,-69.35339686,-107.4745919,1.000681566,
33655555,-68.46433094,-103.1294874,1.000755053,
33760000,-67.92397129,-98.02844303,1.000803537,
33864444,-67.89492538,-98.44348993,1.00080623,
33968888,-66.82295718,-96.27129905,1.000912179,
34073333,-66.52665092,-95.17608773,1.000943849,
34177777,-65.76989185,-89.97268983,1.001029814,
34282222,-65.65435382,-89.17134041,1.001043612,
34386666,-65.07564359,-86.75869538,1.001115552,
34491111,-64.66913835,-86.64247369,1.001169033,
34595555,-64.30070936,-83.50029547,1.001219718,
34700000,-63.92779065,-80.95815915,1.001273259,
34804444,-63.36709662,-80.07193725,1.00135822,
34908888,-63.40100203,-80.91679448,1.001352925,
35013333,-62.69386268,-78.67202012,1.001467761,
35117777,-62.67585495,-77.02048578,1.00147081,
35222222,-62.44799663,-73.68175146,1.001509934,
35326666,-62.10580306,-73.98774864,1.001570655,
35431111,-61.74097107,-72.21901915,1.001638087,
35535555,-61.41033744,-68.57627175,1.001701698,
35640000,-61.15069057,-68.64850225,1.00175338,
35744444,-61.09921762,-66.62237304,1.001763811,
35848888,-60.8829368,-67.33808561,1.001808322,
35953333,-60.42110172,-65.02592874,1.001907168,
36057777,-60.1115542,-63.94662751,1.001976429,
36162222,-60.04548311,-62.59811416,1.001991536,
36266666,-59.69699101,-60.81799107,1.002073148,
36371111,-59.60627105,-60.28183937,1.002094938,
36475555,-59.39876115,-58.37711316,1.002145644,
36580000,-59.22385258,-57.7938241,1.002189336,
36684444,-59.02408334,-57.11655645,1.00224033,
36788888,-58.78956319,-54.93712467,1.002301714,
36893333,-58.67864562,-53.69769242,1.00233133,
36997777,-58.44672886,-52.3360162,1.002394491,
37102222,-58.20677696,-51.61030813,1.002461645,
37206666,-58.10475422,-49.62488698,1.002490765,
37311111,-57.88399166,-47.75219832,1.002554964,
37415555,-57.68513231,-47.5254447,1.002614211,
37520000,-57.62837801,-46.01807066,1.002631371,
37624444,-57.56040976,-44.46776379,1.00265207,
37728888,-57.29928453,-43.84711341,1.002733121,
37833333,-57.13017508,-42.25400121,1.00278693,
37937777,-57.02787664,-40.95014745,1.002819993,
38042222,-56.78282992,-39.48470957,1.002900801,
38146666,-56.89527022,-38.12334054,1.002863438,
38251111,-56.66234688,-36.96824764,1.002941378,
38355555,-56.64667827,-36.260997,1.002946697,
38460000,-56.43743447,-34.62106319,1.003018654,
38564444,-56.43035858,-33.70977941,1.003021117,
38668888,-56.25401753,-32.24899448,1.003083175,
38773333,-56.14516425,-31.60193186,1.003122117,
38877777,-56.06122708,-29.47601626,1.003152482,
38982222,-56.02630704,-28.72268966,1.003165202,
39086666,-55.95474909,-27.26410715,1.003191428,
39191111,-55.82482822,-26.98132037,1.003239601,
39295555,-55.80843598,-24.96385792,1.00324573,
39400000,-55.79338135,-23.78728349,1.00325137,
39504444,-55.73390126,-22.94560612,1.003273748,
39608888,-55.53014503,-21.84761121,1.003351583,
39713333,-55.48477111,-20.49658081,1.003369166,
39817777,-55.46652614,-19.74579342,1.003376263,
39922222,-55.3792987,-18.32523866,1.003410397,
40026666,-55.27280406,-16.59488753,1.003452541,
40131111,-55.22131689,-15.66828297,1.003473103,
40235555,-55.22609784,-15.29503818,1.003471189,
40340000,-55.16053602,-13.68438061,1.003497535,
40444444,-55.09471578,-12.34517553,1.003524186,
40548888,-55.02908969,-11.85890838,1.003550961,
40653333,-55.04900979,-9.94102393,1.003542812,
40757777,-55.05172675,-8.891518475,1.003541702,
40862222,-54.96720883,-7.264965133,1.003576395,
40966666,-54.9147435,-6.485586152,1.003598102,
41071111,-54.92574726,-5.383977669,1.003593538,
41175555,-54.98367527,-3.996713507,1.003569609,
41280000,-54.83276495,-2.896346875,1.003632284,
41384444,-54.85415641,-1.172569579,1.003623333,
41488888,-54.74140409,-0.4679849471,1.003670761,
41593333,-54.86004496,0.5335038334,1.003620873,
41697777,-54.68545252,1.815135008,1.003694527,
41802222,-54.81786555,3.549988111,1.003638531,
41906666,-54.76091578,4.172618349,1.00366251,
42011111,-54.83375862,4.810655135,1.003631868,
42115555,-54.72777896,6.576457366,1.003676535,
42220000,-54.6992871,7.737574101,1.003688637,
42324444,-54.79020255,8.35436139,1.003650159,
42428888,-54.75941765,9.961323042,1.003663143,
42533333,-54.81889538,11.2567499,1.003638099,
42637777,-54.69386132,12.36357792,1.003690946,
42742222,-54.69717323,14.14371436,1.003689536,
42846666,-54.76680403,14.63557634,1.003660023,
42951111,-54.76517307,15.97700089,1.003660712,
43055555,-54.91494362,17.27393288,1.003598019,
43160000,-54.81472931,17.87388955,1.003639848,
43264444,-54.87651207,19.52522609,1.003614003,
43368888,-54.94708828,20.53644989,1.003584704,
43473333,-54.93220746,21.95812199,1.003590862,
43577777,-54.92903732,23.03035923,1.003592175,
43682222,-54.94253083,23.95482468,1.003586589,
43786666,-54.9551757,25.17872042,1.003581362,
43891111,-55.00840296,26.14278388,1.003559443,
43995555,-55.17469037,27.94448841,1.00349183,
44100000,-55.22477917,28.14025159,1.003471717,
44204444,-55.15204325,29.90897529,1.003500962,
44308888,-55.26150112,30.92741192,1.003457045,
44413333,-55.22994793,32.24133308,1.003469648,
44517777,-55.38468292,32.95729161,1.00340828,
44622222,-55.33140007,34.2158603,1.003429288,
44726666,-55.51102814,36.15894306,1.00335898,
44831111,-55.50139671,37.44203873,1.003362713,
44935555,-55.67443432,37.56657811,1.003296275,
45040000,-55.69906939,38.80196323,1.003286924,
45144444,-55.78783568,39.76087694,1.00325345,
45248888,-55.82066927,41.83243958,1.003241155,
45353333,-55.89920368,42.92167405,1.003211935,
45457777,-56.13041412,43.97223202,1.003127432,
45562222,-56.13214641,45.52504997,1.003126807,
45666666,-56.27800545,46.21404595,1.003074658,
45771111,-56.28441378,47.49899531,1.003072387,
45875555,-56.40794138,48.21809969,1.003028936,
45980000,-56.57710732,49.41441421,1.002970429,
46084444,-56.53093571,51.17126696,1.002986285,
46188888,-56.77466165,52.18670712,1.002903534,
46293333,-56.8771963,53.58601595,1.002869411,
46397777,-57.03323315,54.59620939,1.002818252,
46502222,-57.1698172,56.04442078,1.002774221,
46606666,-57.26791109,56.83599281,1.002743024,
46711111,-57.33441591,57.70938921,1.002722074,
46815555,-57.493747,60.20176339,1.00267253,
46920000,-57.74948884,60.10363283,1.002594888,
47024444,-58.01374051,61.03498271,1.002517035,
47128888,-58.05435595,62.62712157,1.002505278,
47233333,-58.09942005,64.7642789,1.002492297,
47337777,-58.39974403,65.74399213,1.002407494,
47442222,-58.66170513,66.09356404,1.002335886,
47546666,-58.69534558,68.66494615,1.002326846,
47651111,-58.99873615,69.01262811,1.002246885,
47755555,-59.21320412,70.82287332,1.002192025,
47860000,-59.32549052,71.55471549,1.00216384,
47964444,-59.545775,72.44494769,1.002109595,
48068888,-59.77656032,73.61948537,1.002054224,
48173333,-60.00005652,75.39929076,1.002001989,
48277777,-60.32908044,76.43872178,1.0019275,
48382222,-60.49437519,78.79660482,1.001891131,
48486666,-60.88992509,78.31513663,1.001806866,
48591111,-60.97892808,80.74014807,1.001788429,
48695555,-61.27473411,82.15536992,1.001728496,
48800000,-61.69907,82.92122603,1.001646015,
48904444,-62.09106035,84.52499001,1.001573325,
49008888,-62.43618792,86.72512603,1.00151199,
49113333,-62.68059947,87.66576815,1.001470006,
49217777,-62.84103511,88.5041995,1.001443084,
49322222,-63.43125531,91.4810843,1.001348217,
49426666,-63.78117024,93.63879852,1.001294949,
49531111,-64.10828065,94.51270235,1.001247058,
49635555,-64.85910957,94.12918967,1.001143728,
49740000,-65.09251766,97.61695794,1.001113386,
49844444,-65.42817444,98.90834095,1.001071159,
49948888,-66.15758469,99.56606968,1.000984837,
50053333,-66.97361515,102.7988232,1.000896487,
50157777,-67.35612795,105.1770683,1.000857847,
50262222,-67.89802284,110.2025662,1.000805942,
50366666,-68.71010159,110.256769,1.00073398,
50471111,-68.91724423,111.3254566,1.000716677,
50575555,-70.39163333,113.2905458,1.000604755,
50680000,-71.43255288,117.1588522,1.000536437,
50784444,-72.7263425,124.8135221,1.000462182,
50888888,-73.55344932,131.4923925,1.000420193,
50993333,-74.68854756,135.909307,1.000368708,
51097777,-75.87491242,142.7651046,1.000321628,
51202222,-77.50022927,152.9881993,1.000266733,
51306666,-78.17390855,162.464257,1.000246824,
51411111,-79.61430348,-178.6250914,1.000209103,
51515555,-78.45851635,-151.4716677,1.000238867,
51620000,-77.59157626,-142.1329191,1.000263942,
51724444,-76.81728945,-130.5099998,1.000288555,
51828888,-75.67559891,-116.3434557,1.000329095,
51933333,-74.22443281,-105.7111621,1.000388949,
52037777,-73.10892056,-98.231625,1.000442262,
52142222,-71.31258325,-94.65169295,1.0005439,
52246666,-70.55752424,-85.65144413,1.000593311,
52351111,-70.21739173,-86.09524976,1.000617013,
52455555,-69.0416554,-82.37447563,1.000706481,
52560000,-68.20733378,-77.86398393,1.000777736,
52664444,-67.25112499,-75.0301833,1.000868285,
52768888,-66.84161221,-75.92297777,1.000910221,
52873333,-66.21706425,-72.15966663,1.000978113,
52977777,-65.53688814,-70.54545508,1.001057828,
53082222,-64.7597735,-69.40483667,1.001156891,
53186666,-64.25109574,-66.03649237,1.001226709,
53291111,-63.75245895,-66.8608421,1.001299239,
53395555,-63.29045029,-66.89936841,1.001370266,
53500000,-62.82316734,-64.0941863,1.001446057,
53604444,-62.65981383,-63.17872117,1.001473531,
53708888,-62.36959302,-62.40703941,1.001523635,
53813333,-62.01216109,-60.06914794,1.001587693,
53917777,-61.78197748,-59.91186135,1.001630366,
54022222,-61.5354522,-57.08643732,1.001677341,
54126666,-61.16167096,-56.36529315,1.001751163,
54231111,-60.91666211,-53.13203474,1.001801308,
54335555,-60.72719191,-52.22420087,1.001841069,
54440000,-60.52663464,-50.88631629,1.001884114,
54544444,-60.22932811,-48.64914477,1.001949785,
54648888,-59.77327441,-47.90665253,1.002055002,
54753333,-59.6938083,-46.30579189,1.002073909,
54857777,-59.32541774,-45.59870398,1.002163858,
54962222,-59.18894894,-44.20139373,1.002198162,
55066666,-58.85987296,-41.8974734,1.002283136,
55171111,-58.61443301,-40.63738638,1.002348649,
55275555,-58.40136267,-40.42695333,1.002407045,
55380000,-57.93071956,-38.16643805,1.002541239,
55484444,-57.96519112,-37.43321957,1.002531161,
55588888,-57.92951608,-36.62722736,1.002541591,
55693333,-57.71514933,-34.91844168,1.002605181,
55797777,-57.49754694,-33.18649475,1.00267136,
55902222,-57.47153019,-32.78970317,1.002679384,
56006666,-57.17788881,-31.49029304,1.002771641,
56111111,-57.11115091,-30.30740593,1.002793049,
56215555,-56.89069394,-28.26070398,1.002864949,
56320000,-56.80156813,-27.70379612,1.002894541,
56424444,-56.60302842,-26.24548464,1.002961564,
56528888,-56.53314912,-25.25426718,1.002985523,
56633333,-56.39851084,-24.49171768,1.003032232,
56737777,-56.1548686,-22.35571943,1.003118626,
56842222,-56.14437669,-22.61353192,1.003122401,
56946666,-55.99119276,-19.84571615,1.003178044,
57051111,-55.7635318,-18.87116896,1.003262581,
57155555,-55.7828612,-18.4857807,1.003255317,
57260000,-55.60077776,-17.30199532,1.003324393,
57364444,-55.48538463,-16.03378753,1.003368928,
57468888,-55.44548717,-14.44654665,1.003384464,
57573333,-55.25982692,-14.43747512,1.003457712,
57677777,-55.28704144,-12.64206791,1.003446877,
57782222,-55.11063582,-9.937661575,1.003517721,
57886666,-55.03504375,-10.39501672,1.003548523,
57991111,-54.97781373,-8.134053105,1.003572023,
58095555,-54.85859382,-7.210152271,1.003621479,
58200000,-54.82598149,-6.837888599,1.003635127,
58304444,-54.69861921,-4.68545804,1.003688921,
58408888,-54.57854056,-3.991931486,1.003740369,
58513333,-54.54704277,-2.158820955,1.003753983,
58617777,-54.54520272,-1.161797197,1.003754779,
58722222,-54.48723565,0.1755380004,1.003779969,
58826666,-54.43089689,1.044594533,1.003804613,
58931111,-54.30545045,1.771228291,1.003860067,
59035555,-54.3009053,3.228241928,1.003862092,
59140000,-54.26995343,4.508521075,1.003875905,
59244444,-54.18849588,5.516463447,1.003912496,
59348888,-54.01454321,7.605561352,1.0039918,
59453333,-54.09680116,8.368210414,1.003954101,
59557777,-54.06263675,9.254100476,1.003969715,
59662222,-54.05112386,10.96090978,1.003974991,
59766666,-53.95551642,11.64198618,1.004019074,
59871111,-53.96784414,12.9572355,1.004013363,
59975555,-53.89358225,13.80438972,1.004047893,
60080000,-53.94065984,14.58450272,1.004025968,
60184444,-53.88528567,16.37639372,1.004051769,
60288888,-53.89594447,16.80249763,1.00404679,
60393333,-53.950029,18.74230049,1.004021619,
60497777,-53.83886821,19.66649736,1.004073524,
60602222,-53.83743676,20.9339001,1.004074196,
60706666,-53.81744649,21.72281147,1.004083603,
60811111,-53.89250882,23.38079882,1.004048394,
60915555,-53.91775837,24.54403961,1.004036619,
61020000,-53.90229833,25.32246493,1.004043824,
61124444,-53.80592649,26.63171763,1.004089034,
61228888,-53.87886865,27.76809234,1.004054769,
61333333,-53.8559732,28.54661467,1.004065493,
61437777,-54.13869768,38.01595411,1.003935036,
61542222,-53.81313095,31.04474483,1.004085637,
61646666,-53.90098135,32.73221249,1.004044439,
61751111,-59.0837523,50.03429924,1.002224976,
61855555,-53.9386068,34.63863248,1.004026922,
61960000,-53.96820815,35.63597841,1.004013194,
62064444,-53.91761703,36.44176794,1.004036685,
62168888,-54.08680212,37.69383027,1.003958664,
62273333,-54.11950228,38.88142258,1.003943759,
62377777,-54.11302746,40.61459547,1.003946706,
62482222,-54.1602239,41.16118355,1.003925277,
62586666,-54.22608829,42.57386308,1.003895567,
62691111,-54.16215141,43.87642952,1.003924404,
62795555,-54.29117719,45.32846374,1.003866428,
62900000,-54.34294577,46.29365791,1.003843408,
63004444,-54.41615064,47.89215395,1.00381109,
63108888,-54.46927044,48.48106408,1.00378781,
63213333,-54.48341102,49.73525262,1.003781637,
63317777,-54.49512144,51.44462978,1.003776532,
63422222,-54.60397533,52.00818369,1.003729412,
63526666,-54.70926124,53.86841573,1.003684396,
63631111,-54.81637401,54.97157504,1.003639157,
63735555,-54.85002932,55.78121541,1.003625058,
63840000,-54.95223617,57.12821965,1.003582576,
63944444,-55.00408874,59.16081917,1.003561215,
64048888,-55.14014516,59.64749223,1.003505769,
64153333,-55.17359568,61.13543132,1.003492271,
64257777,-55.23812001,62.61610167,1.003466379,
64362222,-55.27497779,64.13114867,1.003451676,
64466666,-55.24725186,65.63979553,1.00346273,
64571111,-55.27450304,66.47837155,1.003451865,
64675555,-55.31174026,68.21913566,1.003437072,
64780000,-55.23699466,68.73859577,1.003466829,
64884444,-55.19706934,69.02944136,1.003482829,
64988888,-55.44511196,69.28815082,1.003384611,
65093333,-55.51986488,69.751294,1.003355558,
65197777,-55.79741961,70.81982367,1.003249856,
65302222,-56.02688427,71.81767981,1.003164991,
65406666,-56.32318968,73.41182278,1.003058681,
65511111,-56.55525198,74.71654546,1.002977924,
65615555,-56.78853022,76.54790893,1.002898895,
65720000,-56.92370484,77.52605629,1.002854066,
65824444,-57.12743807,78.64116793,1.002787809,
65928888,-57.32144625,80.69999114,1.002726147,
66033333,-57.45953775,81.58725327,1.002683091,
66137777,-57.6530829,82.84227474,1.002623888,
66242222,-57.93879911,85.15872469,1.002538873,
66346666,-58.07594811,85.7956835,1.00249905,
66451111,-58.33175894,87.49104051,1.002426435,
66555555,-58.47573648,88.79948465,1.002386498,
66660000,-58.86535305,89.3892958,1.002281695,
66764444,-59.03723219,91.20077762,1.002236938,
66868888,-59.24726372,92.42132929,1.002183437,
66973333,-59.43600958,92.96799201,1.002136452,
67077777,-59.65192744,94.46452978,1.002083943,
67182222,-59.94531555,96.04300503,1.002014659,
67286666,-60.2177366,97.42851924,1.001952392,
67391111,-60.45982406,100.6186718,1.001898676,
67495555,-60.74241126,100.9352868,1.001837843,
67600000,-61.14462578,103.0572935,1.001754606,
67704444,-61.50715107,103.6447153,1.00168282,
67808888,-61.71871468,104.5750546,1.001642293,
67913333,-62.26249555,106.7896697,1.001542553,
68017777,-62.52075148,110.0669314,1.00149733,
68122222,-62.79688365,108.9110321,1.001450443,
68226666,-63.02450094,112.3519909,1.001412901,
68331111,-63.72508063,116.3477383,1.001303343,
68435555,-64.13629635,112.6964759,1.00124304,
68540000,-64.54965974,115.8795817,1.001185235,
68644444,-65.21798014,115.3552434,1.001097411,
68748888,-65.5119506,119.9690323,1.001060871,
68853333,-66.28736698,125.9256836,1.000970225,
68957777,-66.89833079,128.2178061,1.000904294,
69062222,-67.24042153,124.9162493,1.000869356,
69166666,-67.67327525,132.3431864,1.000827077,
69271111,-68.83371427,137.5091491,1.000723605,
69375555,-69.77351947,139.0226005,1.000649374,
69480000,-70.6392813,140.4939603,1.000587751,
69584444,-71.8530539,143.0306103,1.000511079,
69688888,-72.84999936,154.6616337,1.000455647,
69793333,-73.47821099,152.6427626,1.000423849,
69897777,-74.56865386,167.9973178,1.000373834,
70002222,-75.26507987,-178.8111968,1.000345025,
70106666,-76.29057871,-170.3218414,1.000306597,
70211111,-77.21211857,-162.4032637,1.00027573,
70315555,-78.0762965,-139.8662708,1.000249614,
70420000,-77.27668105,-119.7976041,1.000273688,
70524444,-75.48775333,-113.0520712,1.000336291,
70628888,-74.69335922,-106.3142598,1.000368504,
70733333,-74.15347918,-92.53860589,1.00039214,
70837777,-73.09193744,-89.57283573,1.000443128,
70942222,-72.02525566,-78.54537965,1.000501044,
71046666,-70.62935231,-74.73208075,1.000588424,
71151111,-69.49479583,-74.88698718,1.000670557,
71255555,-69.51670548,-68.60855606,1.000668867,
71360000,-68.23387829,-67.51964554,1.000775362,
71464444,-67.3233362,-66.38458001,1.000861093,
71568888,-67.01407735,-61.50453846,1.000892318,
71673333,-66.40239393,-57.23433278,1.000957455,
71777777,-65.83778659,-57.07771464,1.001021792,
71882222,-65.31591653,-55.77764835,1.0010851,
71986666,-64.64693064,-53.11059072,1.001172028,
72091111,-64.39898039,-51.41527536,1.001205987,
72195555,-63.93411239,-51.19348572,1.001272332,
72300000,-63.4431694,-48.70575665,1.001346368,
72404444,-62.99480023,-46.8361725,1.001417744,
72508888,-62.87657376,-43.17705469,1.001437187,
72613333,-62.47980052,-42.84668532,1.001504411,
72717777,-61.88565476,-42.02873867,1.001611005,
72822222,-61.6707471,-39.41308361,1.001651395,
72926666,-61.41148125,-39.48995755,1.001701474,
73031111,-61.24024414,-35.95989924,1.001735379,
73135555,-60.74994724,-35.57510635,1.001836247,
