Frequency,S11_Magnitude,S11_Phase,S11_VSWR,
30000000,-67.4680281,72.23828232,1.000846862,
30104444,-67.71470267,72.79684588,1.00082314,
30208888,-68.2016401,73.393026,1.000778246,
30313333,-68.35320071,73.05770723,1.000764779,
30417777,-69.13818245,74.65768636,1.000698671,
30522222,-69.60009753,80.51525806,1.000662474,
30626666,-70.19907675,81.28085657,1.000618316,
30731111,-71.2101081,79.52632956,1.000550356,
30835555,-71.67546874,86.79754303,1.000521639,
30940000,-73.56253085,81.02010789,1.000419754,
31044444,-73.66062603,89.59507267,1.000415039,
31148888,-76.05976062,110.3895663,1.000314855,
31253333,-76.2924796,84.95247939,1.00030653,
31357777,-79.31352883,89.83833393,1.000216471,
31462222,-78.25853692,97.71888436,1.000244431,
31566666,-83.45278283,108.5809383,1.000134406,
31671111,-83.83015653,111.1946337,1.000128692,
31775555,-90.97029919,161.5444421,1.000056562,
31880000,-93.1872081,-127.8906971,1.000043821,
31984444,-87.91029031,-120.2112436,1.000080451,
32088888,-85.72400392,-132.1349534,1.000103479,
32193333,-80.24639741,-106.1710715,1.000194425,
32297777,-79.67366552,-101.1270982,1.000207679,
32402222,-76.9568769,-91.03392574,1.000283954,
32506666,-76.12918461,-97.82214877,1.000312348,
32611111,-74.9797266,-92.59707779,1.000356551,
32715555,-73.76903936,-97.26216141,1.00040989,
32820000,-72.97592458,-92.53926493,1.000449088,
32924444,-71.98135101,-90.21467065,1.000503584,
33028888,-70.51331201,-86.72046437,1.00059634,
33133333,-69.81931598,-88.37447395,1.000645958,
33237777,-68.90776164,-83.98581713,1.00071746,
33342222,-68.48555197,-84.34020587,1.00075321,
33446666,-68.36289082,-81.41393829,1.000763926,
33551111,-67.65111614,-80.06127705,1.00082919,
33655555,-66.95394794,-78.340872,1.00089852,
33760000,-66.48266786,-77.47840359,1.000948642,
33864444,-66.13887524,-76.15201002,1.000986962,
33968888,-65.61329823,-74.98991938,1.001048559,
34073333,-65.1853073,-75.64114589,1.001101549,
34177777,-64.59047634,-73.26226076,1.001179675,
34282222,-64.45013132,-71.61013578,1.001198902,
34386666,-63.90972678,-70.46683307,1.001275912,
34491111,-63.8110567,-70.03915874,1.001290498,
34595555,-63.40016233,-67.96735972,1.001353055,
34700000,-63.24737632,-67.32389275,1.001377083,
34804444,-62.41554853,-65.41623428,1.001515589,
34908888,-62.63128212,-66.02290746,1.001478382,
35013333,-62.14158619,-64.31058696,1.001564193,
35117777,-62.15754127,-63.61236522,1.00156132,
35222222,-61.89317133,-61.40432312,1.001609611,
35326666,-61.42739405,-60.52349633,1.001698357,
35431111,-61.13708067,-59.45817877,1.001756132,
35535555,-60.9597032,-58.96975198,1.001792396,
35640000,-60.91061166,-58.02205657,1.001802564,
35744444,-60.60101254,-56.69071022,1.001868034,
35848888,-60.3949992,-55.82546604,1.001912913,
35953333,-60.10379945,-53.97456492,1.001978196,
36057777,-59.82681966,-53.33808342,1.00204236,
36162222,-59.81222242,-52.59464248,1.002045799,
36266666,-59.52905754,-51.69285182,1.002113664,
36371111,-59.37766792,-50.77743095,1.002150866,
36475555,-59.12011855,-49.80585419,1.002215669,
36580000,-59.0403072,-48.05417538,1.002236145,
36684444,-58.85035514,-47.40895754,1.002285642,
36788888,-58.66430577,-45.81930092,1.002335186,
36893333,-58.6249733,-44.98871246,1.002345797,
36997777,-58.35006191,-44.05065489,1.002421321,
37102222,-58.20078913,-43.15622348,1.002463344,
37206666,-58.21977498,-41.23049833,1.002457959,
37311111,-57.91297388,-40.40593163,1.002546443,
37415555,-57.69490354,-39.90397274,1.002611268,
37520000,-57.66067657,-39.09199629,1.002621592,
37624444,-57.6620048,-36.99326249,1.00262119,
37728888,-57.39308729,-36.81711756,1.002703724,
37833333,-57.10020897,-35.31541986,1.002796574,
37937777,-57.15936909,-34.0304992,1.002777565,
38042222,-56.89020111,-32.88314128,1.002865112,
38146666,-57.03259479,-31.56798079,1.00281846,
38251111,-56.82494393,-29.60725857,1.00288675,
38355555,-56.80503718,-30.019359,1.002893383,
38460000,-56.6500636,-28.0850924,1.002945547,
38564444,-56.58054774,-27.69387687,1.002969251,
38668888,-56.42361478,-26.28442499,1.003023467,
38773333,-56.33131047,-25.72128922,1.003055818,
38877777,-56.25390724,-24.4482392,1.003083214,
38982222,-56.16684688,-22.89748158,1.003114321,
39086666,-56.15174655,-21.79398163,1.003119749,
39191111,-56.07957877,-21.65193064,1.003145818,
39295555,-56.04351243,-19.87228934,1.003158928,
39400000,-55.90129002,-19.22740282,1.003211162,
39504444,-55.95071939,-17.81545084,1.003192911,
39608888,-55.85589922,-16.99807283,1.003228014,
39713333,-55.75728874,-15.10025889,1.003264931,
39817777,-55.78215632,-14.79807558,1.003255581,
39922222,-55.68041524,-14.01380272,1.003294003,
40026666,-55.62596807,-12.79659721,1.00331475,
40131111,-55.5517495,-11.21779247,1.003343243,
40235555,-55.49659109,-10.26532427,1.003364577,
40340000,-55.61053099,-9.040190749,1.003320656,
40444444,-55.51828296,-8.108374937,1.003356171,
40548888,-55.36110313,-7.431710652,1.003417561,
40653333,-55.38325853,-6.234218976,1.00340884,
40757777,-55.27980359,-4.717169611,1.003449755,
40862222,-55.29894393,-3.760256296,1.003442149,
40966666,-55.25216396,-3.030122032,1.003460769,
41071111,-55.16666502,-1.33959056,1.003495063,
41175555,-55.27211033,-0.6979565285,1.003452817,
41280000,-55.20530534,0.124919376,1.003479522,
41384444,-55.10836196,2.147711871,1.003518644,
41488888,-55.12585445,2.453870438,1.003511552,
41593333,-55.13220445,3.226133258,1.003508981,
41697777,-55.05205679,4.531912254,1.003541567,
41802222,-55.13234466,5.496607332,1.003508925,
41906666,-55.04282903,7.150192041,1.003545339,
42011111,-55.06609251,7.926326708,1.003535839,
42115555,-55.14970288,8.299761355,1.003501907,
42220000,-54.99674215,10.29510884,1.003564234,
42324444,-55.09559417,10.73283126,1.003523829,
42428888,-55.12342826,12.0758002,1.003512535,
42533333,-55.13563075,13.6709476,1.003507595,
42637777,-55.03884178,13.90231818,1.003546969,
42742222,-55.02892793,15.57365697,1.003551027,
42846666,-55.0662808,17.10631631,1.003535762,
42951111,-55.02025951,17.83570606,1.003554579,
43055555,-55.20800586,18.40349691,1.003478439,
43160000,-55.03185771,20.30710278,1.003549828,
43264444,-55.22633169,20.48786617,1.003471095,
43368888,-55.18413276,22.04683628,1.003488029,
43473333,-55.21085807,23.10337533,1.003477295,
43577777,-55.21586749,23.96042917,1.003475287,
43682222,-55.12298087,24.71358468,1.003512716,
43786666,-55.32372195,26.12151365,1.003432326,
43891111,-55.21435473,27.13656795,1.003475893,
43995555,-55.31685909,28.50519403,1.003435044,
44100000,-55.40082964,28.7695198,1.00340194,
44204444,-55.39852846,30.61164473,1.003402843,
44308888,-55.48569984,31.61001551,1.003368805,
44413333,-55.46720978,32.53226918,1.003375996,
44517777,-55.46164435,33.6524205,1.003378164,
44622222,-55.5296149,34.50989135,1.003351787,
44726666,-55.67226371,35.50051017,1.0032971,
44831111,-55.70918058,36.73596058,1.003283094,
44935555,-55.83514662,37.09554876,1.003235748,
45040000,-55.80379909,38.89431853,1.003247466,
45144444,-55.82764433,40.26608701,1.003238549,
45248888,-55.87434118,41.4497023,1.003221157,
45353333,-55.93616331,42.53436036,1.003198275,
45457777,-56.09630033,43.72973414,1.003139758,
45562222,-56.12483623,44.54882481,1.003129444,
45666666,-56.21022349,45.17528897,1.003098783,
45771111,-56.29239293,46.68894301,1.003069562,
45875555,-56.4451011,47.72944236,1.003015986,
45980000,-56.50401613,48.76119837,1.002995568,
46084444,-56.54934474,49.75266248,1.002979953,
46188888,-56.6148871,50.88147034,1.002957518,
46293333,-56.78608831,52.35307816,1.002899711,
46397777,-56.95708626,53.44836348,1.002843103,
46502222,-57.00041453,54.45718394,1.002828936,
46606666,-57.10080114,55.78701752,1.002796384,
46711111,-57.22011995,56.33387564,1.002758179,
46815555,-57.37348191,57.27085409,1.002709842,
46920000,-57.42385608,58.9167995,1.00269415,
47024444,-57.69067768,59.51516475,1.002612541,
47128888,-57.73609231,59.73318557,1.002598899,
47233333,-57.82091832,62.41774464,1.002573609,
47337777,-57.94495805,63.50974501,1.002537071,
47442222,-58.19999428,63.34706643,1.00246357,
47546666,-58.29788526,66.19709901,1.002435928,
47651111,-58.47107,65.54002732,1.002387782,
47755555,-58.67876992,68.37331633,1.002331296,
47860000,-58.84701137,68.61099771,1.002286523,
47964444,-58.96018649,69.25013644,1.00225689,
48068888,-59.05206525,71.24249357,1.002233116,
48173333,-59.33839171,70.86182205,1.002160625,
48277777,-59.65236766,72.43762708,1.002083838,
48382222,-59.83184265,73.97345938,1.002041178,
48486666,-59.91227034,74.22633735,1.002022346,
48591111,-60.04746859,76.17675977,1.00199108,
48695555,-60.37215657,77.30878434,1.001917955,
48800000,-60.68543812,79.08007069,1.001849948,
48904444,-60.89715309,79.37180147,1.001805362,
49008888,-61.19217878,80.95581269,1.001745018,
49113333,-61.3365065,81.98305457,1.001716237,
49217777,-61.50428545,83.59474642,1.001683376,
49322222,-61.98402999,85.67932023,1.001592848,
49426666,-62.07630034,86.90747012,1.001576003,
49531111,-62.52224726,86.48744484,1.001497072,
49635555,-62.87077229,87.59628418,1.001438148,
49740000,-62.96511335,89.16995928,1.001422601,
49844444,-63.41404923,90.21043922,1.001350892,
49948888,-64.12856075,90.72845377,1.001244148,
50053333,-64.17162102,93.11588831,1.001237992,
50157777,-64.73096433,92.98168439,1.001160737,
50262222,-65.24056159,95.89508751,1.00109456,
50366666,-65.60067541,96.97923828,1.001050084,
50471111,-65.75538934,97.90871654,1.001031536,
50575555,-66.73140252,96.3220181,1.000921849,
50680000,-67.34672562,101.0430954,1.000858777,
50784444,-68.20564904,101.7858308,1.000777887,
50888888,-68.49758702,105.0401846,1.000752166,
50993333,-69.42325721,105.23317,1.000676105,
51097777,-69.65265926,107.3941305,1.000658476,
51202222,-70.75006281,107.447523,1.0005803,
51306666,-71.39723258,112.5539271,1.000538624,
51411111,-72.9293159,113.8778532,1.000451505,
51515555,-73.80495513,120.9930789,1.000408198,
51620000,-75.08647543,124.9433568,1.000352195,
51724444,-77.17395009,125.6581507,1.000276944,
51828888,-78.13123431,132.7566697,1.00024804,
51933333,-80.91882613,147.5329209,1.00017994,
52037777,-87.44926276,167.7146454,1.000084837,
52142222,-84.76719497,-157.53419,1.00011553,
52246666,-85.07204832,-118.3664996,1.000111545,
52351111,-83.36652224,-115.7550942,1.000135748,
52455555,-80.37514059,-91.4427987,1.000191564,
52560000,-77.54350812,-80.95965718,1.000265407,
52664444,-74.82093789,-82.11405853,1.00036313,
52768888,-74.16397107,-79.25143896,1.000391667,
52873333,-73.10967286,-71.8809361,1.000442224,
52977777,-71.84334292,-75.23266636,1.000511651,
53082222,-70.40587304,-69.3858973,1.000603764,
53186666,-69.01877802,-66.86226469,1.000708345,
53291111,-68.36978078,-64.75301684,1.00076332,
53395555,-67.68906635,-67.7347498,1.000825574,
53500000,-67.73591696,-61.63595015,1.000821131,
53604444,-66.58082034,-64.58640497,1.000937978,
53708888,-66.2445639,-60.79485312,1.00097502,
53813333,-65.60927093,-60.95905786,1.001049045,
53917777,-65.20855573,-61.01555622,1.001098603,
54022222,-64.9980503,-58.13899022,1.001125568,
54126666,-64.56885112,-56.15882326,1.001182617,
54231111,-64.27835661,-53.09685911,1.001222862,
54335555,-63.73951846,-51.76502707,1.001301177,
54440000,-63.40680467,-51.14121709,1.00135202,
54544444,-62.94257221,-49.08711534,1.0014263,
54648888,-62.49956286,-48.40687187,1.00150099,
54753333,-62.35798626,-46.58590334,1.001525674,
54857777,-61.89253575,-46.55748878,1.001609728,
54962222,-61.57856246,-44.3513869,1.00166903,
55066666,-61.41545525,-42.92506167,1.001700695,
55171111,-61.07602882,-41.52228437,1.00176853,
55275555,-60.72089729,-39.67189265,1.001842405,
55380000,-60.73768816,-43.9257222,1.001838843,
55484444,-60.26089676,-37.50700515,1.001942705,
55588888,-60.01219134,-36.41685462,1.001999191,
55693333,-59.6691597,-35.75056577,1.002079809,
55797777,-59.56178454,-34.12826779,1.002105706,
55902222,-59.45528024,-34.27647254,1.002131713,
56006666,-59.08733533,-31.8806984,1.002224057,
56111111,-58.94138189,-30.3446921,1.002261787,
56215555,-58.81791307,-29.01082404,1.002294205,
56320000,-58.50774098,-27.43090567,1.00237771,
56424444,-58.34518319,-26.58730615,1.002422683,
56528888,-58.17356755,-25.60504054,1.002471086,
56633333,-57.9327989,-24.49762412,1.00254063,
56737777,-57.79217748,-23.15242031,1.00258215,
56842222,-57.68777133,-23.05813199,1.002613416,
56946666,-57.55336892,-20.57947477,1.002654224,
57051111,-57.33302539,-19.19500398,1.00272251,
57155555,-57.33681854,-19.918459,1.00272132,
57260000,-57.03105345,-18.13268033,1.002818961,
57364444,-56.96638463,-16.52813116,1.002840057,
57468888,-56.8634211,-15.90459202,1.002873972,
57573333,-56.72657731,-15.73658229,1.002919676,
57677777,-56.52028036,-13.44082845,1.002989956,
57782222,-56.47696467,-11.24550939,1.003004926,
57886666,-56.30820177,-11.07393262,1.003063972,
57991111,-56.21365971,-9.039225651,1.003097556,
58095555,-56.04139058,-8.708882155,1.003159701,
58200000,-56.01989628,-7.736266913,1.003167543,
58304444,-55.91877041,-5.742588613,1.003204696,
58408888,-55.70598031,-5.008753847,1.003284306,
58513333,-55.65450705,-3.036437627,1.003303859,
58617777,-55.74204328,-2.862576646,1.003270676,
58722222,-55.56421346,-0.4130305518,1.003338441,
58826666,-55.44689131,0.0151581918,1.003383916,
58931111,-55.40569046,0.773314639,1.003400033,
59035555,-55.30281253,2.558730442,1.003440613,
59140000,-55.29867261,3.758392015,1.003442256,
59244444,-55.10886837,4.565951456,1.003518438,
59348888,-54.96189784,5.80455562,1.003578586,
59453333,-55.08034846,7.412149623,1.00353003,
59557777,-54.98400219,8.57797029,1.003569475,
59662222,-54.91985612,10.052872,1.003595981,
59766666,-54.88317439,10.81540884,1.003611227,
59871111,-54.85916077,12.02045328,1.003621242,
59975555,-54.73291032,13.30985832,1.003674359,
60080000,-54.70289722,14.21698012,1.003687101,
60184444,-54.67270891,15.37942316,1.003699962,
60288888,-54.67826493,17.448069,1.003697591,
60393333,-54.56047219,18.24573554,1.003748172,
60497777,-54.50598103,19.06915562,1.003771805,
60602222,-54.54766372,20.26270268,1.003753714,
60706666,-54.53262087,21.45470376,1.003760233,
60811111,-54.54387232,22.58392905,1.003755356,
60915555,-54.46490458,23.86571351,1.003789718,
61020000,-54.50985008,24.77343605,1.003770122,
61124444,-54.38723974,26.77969754,1.003823821,
61228888,-54.40214691,27.4528489,1.003817251,
61333333,-54.27587113,28.92572288,1.00387326,
61437777,-55.20392307,37.04529648,1.003480077,
61542222,-54.30576004,31.15551336,1.003859929,
61646666,-54.33610577,32.19574625,1.003846442,
61751111,-53.71004253,31.68629654,1.004134517,
61855555,-54.35604634,34.99126469,1.003837604,
61960000,-54.38487771,36.42132189,1.003824863,
62064444,-54.27822675,36.65735512,1.003872208,
62168888,-54.49824577,37.91906924,1.003775172,
62273333,-54.53875002,39.19795875,1.003757575,
62377777,-54.50346657,40.85258989,1.003772899,
62482222,-54.51878638,41.95463287,1.003766238,
62586666,-54.5582116,43.25603018,1.00374915,
62691111,-54.49068759,44.10026551,1.003778464,
62795555,-54.57982996,45.47304721,1.003739813,
62900000,-54.62247909,47.27168219,1.00372146,
63004444,-54.64979424,48.29942618,1.003709754,
63108888,-54.69668404,49.43375995,1.003689744,
63213333,-54.71749866,50.62029808,1.003680897,
63317777,-54.67781046,52.62257494,1.003697785,
63422222,-54.82979094,53.38772947,1.00363353,
63526666,-54.88635143,54.52092144,1.003609904,
63631111,-54.92847115,56.0669481,1.003592409,
63735555,-54.98807886,57.25349595,1.003567797,
63840000,-55.00859153,58.77123499,1.003559366,
63944444,-55.11506415,59.69147149,1.003515925,
64048888,-55.18486002,61.01123043,1.003487737,
64153333,-55.23579706,62.76346089,1.003467308,
64257777,-55.29214005,63.99480407,1.003444851,
64362222,-55.27804657,66.19904222,1.003450454,
64466666,-55.18725699,67.55766867,1.003486773,
64571111,-55.24949438,68.81112591,1.003461835,
64675555,-55.21752232,70.0221584,1.003474623,
64780000,-55.11975207,70.6886018,1.003514024,
64884444,-55.19882731,71.04570146,1.003482123,
64988888,-55.31125909,71.46253488,1.003437263,
65093333,-55.38438263,72.39583607,1.003408398,
65197777,-55.65396262,73.31505472,1.003304066,
65302222,-55.9109175,74.93472807,1.003207599,
65406666,-56.18347344,75.97483197,1.003108356,
65511111,-56.27577394,78.27514571,1.00307545,
65615555,-56.53771483,79.78550986,1.002983951,
65720000,-56.70847689,80.64560216,1.002925776,
65824444,-56.88428918,82.33695632,1.002867066,
65928888,-56.92245002,84.06499558,1.002854479,
66033333,-57.14466488,85.61542635,1.002782278,
66137777,-57.25382407,86.84002387,1.002747483,
66242222,-57.47907428,89.18700293,1.002677054,
66346666,-57.61053544,90.12506642,1.002636789,
66451111,-57.85192784,92.55217445,1.002564426,
66555555,-57.87721479,93.18179725,1.002556961,
66660000,-58.2782488,95.69912571,1.002441447,
66764444,-58.40957615,96.51578215,1.002404767,
66868888,-58.53716072,98.41109636,1.002369661,
66973333,-58.79841635,99.73479756,1.002299366,
67077777,-58.90888282,100.8901383,1.002270275,
67182222,-59.19485983,102.9779921,1.002196665,
67286666,-59.18152082,104.0465424,1.002200044,
67391111,-59.69020572,106.9621305,1.00207477,
67495555,-59.85158966,108.6334526,1.002036538,
67600000,-60.01100986,110.3559772,1.001999463,
67704444,-60.40437163,111.8202729,1.001910848,
67808888,-60.6245128,113.3669978,1.001862982,
67913333,-60.99594786,115.4412923,1.001784925,
68017777,-61.08302112,119.8340182,1.001767106,
68122222,-61.5967035,119.5938397,1.001665545,
68226666,-61.75700172,121.4496906,1.001635064,
68331111,-62.11383917,123.7517029,1.001569201,
68435555,-62.46343528,124.2815567,1.00150725,
68540000,-62.8149263,127.9987446,1.001447431,
68644444,-63.24994656,130.0152531,1.001376675,
68748888,-63.40915642,133.6219171,1.001351654,
68853333,-63.77585981,136.9548419,1.001295741,
68957777,-64.28153797,139.1835071,1.001222414,
69062222,-64.70333463,139.5263019,1.001164437,
69166666,-64.93886035,145.3644651,1.001133269,
69271111,-65.71941353,148.2741496,1.00103582,
69375555,-66.00189549,152.0669121,1.001002658,
69480000,-66.55810336,155.962079,1.000940435,
69584444,-67.02765447,159.5598735,1.000890924,
69688888,-67.54338596,167.9734077,1.000839543,
69793333,-68.02449675,167.4082381,1.000794287,
69897777,-67.79508577,176.008224,1.000815554,
70002222,-68.14118792,-177.2385669,1.000783684,
70106666,-69.20767453,-172.5534557,1.000693101,
70211111,-68.95391096,-166.701842,1.000713657,
70315555,-69.77691426,-157.6440968,1.00064912,
70420000,-69.70760028,-151.7799287,1.000654323,
70524444,-69.2261863,-144.0936345,1.000691625,
70628888,-69.0355336,-139.6126704,1.000706979,
70733333,-69.18816887,-130.9844515,1.00069466,
70837777,-69.12798239,-124.2641772,1.000699492,
70942222,-69.2725612,-115.4320078,1.000687941,
71046666,-68.2209244,-110.1337546,1.000776519,
71151111,-67.8270435,-105.4640538,1.000812558,
71255555,-67.8909144,-101.8418529,1.000806602,
71360000,-67.30846037,-96.99139362,1.00086257,
71464444,-66.77779858,-91.11636298,1.000916936,
71568888,-66.17564172,-87.40435179,1.000982791,
71673333,-65.90245633,-83.78403024,1.001014209,
71777777,-65.20845191,-80.39263921,1.001098616,
71882222,-64.92318782,-79.22834651,1.001135317,
71986666,-64.56999136,-74.363008,1.001182462,
72091111,-63.99346551,-71.78101896,1.001263662,
72195555,-63.40533598,-69.97836362,1.001352249,
72300000,-63.12704479,-65.37226466,1.001396307,
72404444,-62.83457122,-63.4806598,1.001444159,
72508888,-62.64411529,-61.10628497,1.001476198,
72613333,-62.27547105,-58.35766705,1.001540248,
72717777,-61.91102851,-56.05451044,1.001606302,
72822222,-61.51741877,-54.32685628,1.00168083,
72926666,-61.11683645,-53.43782388,1.001760233,
73031111,-61.0199021,-49.68886766,1.001780005,
73135555,-60.66713866,-47.74368123,1.001853854,
