Frequency,S11_Magnitude,S11_Phase,S11_VSWR,
30000000,-63.47805313,71.51892955,1.001340968,
30104444,-65.53519588,80.69304336,1.001058035,
30208888,-65.96884144,82.55900658,1.001006483,
30313333,-66.12871965,82.11192385,1.000988117,
30417777,-66.77039526,86.18116661,1.000917718,
30522222,-67.17204966,89.54886388,1.000876229,
30626666,-67.34494671,91.60803073,1.000858952,
30731111,-68.20920506,92.53199676,1.000777568,
30835555,-68.23684892,97.50304108,1.000775097,
30940000,-69.39718379,96.02606377,1.000678138,
31044444,-69.53522856,102.1310683,1.000667442,
31148888,-69.36112998,111.5021431,1.00068096,
31253333,-71.32358872,105.5649989,1.000543211,
31357777,-72.13390959,111.1558356,1.000494814,
31462222,-72.5334189,113.8338085,1.000472565,
31566666,-73.63924685,120.8906962,1.000416062,
31671111,-73.88852585,124.5802935,1.000404289,
31775555,-75.58718434,140.441385,1.000332463,
31880000,-76.0135663,143.0662487,1.000316534,
31984444,-76.46529271,149.8325303,1.00030049,
32088888,-75.90864264,159.0899173,1.000320381,
32193333,-76.64075553,178.5979689,1.00029448,
32297777,-77.59917574,-175.4505015,1.000263711,
32402222,-77.26224273,-156.4516276,1.000274143,
32506666,-75.95464445,-150.6727341,1.000318689,
32611111,-75.32670044,-143.9610145,1.000342586,
32715555,-73.80614894,-140.2457363,1.000408142,
32820000,-73.26482681,-129.4854077,1.000434393,
32924444,-73.06452998,-120.6727978,1.000444529,
33028888,-71.80203795,-116.9073758,1.000514091,
33133333,-70.92313796,-115.6005353,1.000568848,
33237777,-70.21732804,-109.6001403,1.000617018,
33342222,-70.07271741,-106.9695093,1.00062738,
33446666,-69.31314251,-103.4193105,1.000684733,
33551111,-68.44061266,-99.70573366,1.000757118,
33655555,-67.99843432,-97.27648524,1.000796675,
33760000,-67.49777029,-94.06958207,1.000843966,
33864444,-67.03362514,-93.32557404,1.000890312,
33968888,-66.29835202,-90.52954073,1.000968998,
34073333,-65.93144624,-90.67073765,1.001010828,
34177777,-65.34692941,-87.08680421,1.00108123,
34282222,-65.15665409,-85.02613939,1.001105191,
34386666,-64.68143252,-82.12347873,1.001167379,
34491111,-64.33751523,-82.63859607,1.001214557,
34595555,-63.87606116,-80.6301697,1.00128087,
34700000,-63.64285062,-78.15943053,1.001315749,
34804444,-63.11958919,-76.74612296,1.001397507,
34908888,-63.04556086,-76.32539634,1.001409477,
35013333,-62.57043573,-75.0217277,1.001488783,
35117777,-62.54779041,-72.54778531,1.001492672,
35222222,-62.15855333,-70.70965163,1.001561138,
35326666,-61.85538019,-70.15722998,1.001616635,
35431111,-61.57020678,-68.41667232,1.001670638,
35535555,-61.32533269,-65.9440159,1.001718448,
35640000,-61.117673,-66.56287532,1.001760064,
35744444,-60.88455696,-64.51842644,1.001807984,
35848888,-60.68671849,-64.55526254,1.001849675,
35953333,-60.29711525,-61.80903991,1.001934613,
36057777,-60.0663965,-60.04306001,1.001986742,
36162222,-59.89661735,-58.75718017,1.002025997,
36266666,-59.6555818,-58.73854071,1.002083066,
36371111,-59.62928951,-57.52547885,1.002089387,
36475555,-59.37655743,-55.86398456,1.002151142,
36580000,-59.17530519,-54.76257318,1.002201621,
36684444,-58.9637518,-54.15919031,1.002255963,
36788888,-58.81126752,-52.33110976,1.002295963,
36893333,-58.5783405,-51.24617827,1.00235844,
36997777,-58.40293049,-49.76336817,1.00240661,
37102222,-58.32799075,-48.91870642,1.002427489,
37206666,-58.12200697,-46.79488683,1.002485817,
37311111,-57.98048043,-45.96699146,1.002526704,
37415555,-57.76200064,-44.87755303,1.002591148,
37520000,-57.68945766,-43.81860827,1.002612908,
37624444,-57.60199443,-42.0478247,1.002639387,
37728888,-57.49573525,-41.0554693,1.002671918,
37833333,-57.19142384,-40.01581806,1.00276732,
37937777,-57.26605046,-38.77210568,1.002743613,
38042222,-57.00335621,-37.38273962,1.002827977,
38146666,-56.99943762,-36.60894893,1.002829255,
38251111,-56.80273658,-34.84799045,1.002894151,
38355555,-56.81252598,-34.71102622,1.002890886,
38460000,-56.52623661,-32.98052256,1.002987903,
38564444,-56.6499645,-31.60643548,1.002945581,
38668888,-56.37972642,-30.29046828,1.003038806,
38773333,-56.37474557,-29.39242521,1.003040552,
38877777,-56.32369028,-28.23513747,1.003058504,
38982222,-56.23116079,-26.97208861,1.003091311,
39086666,-56.17852138,-25.31179186,1.003110132,
39191111,-56.20994409,-24.89919644,1.003098883,
39295555,-55.99039201,-23.71905719,1.003178338,
39400000,-56.00644803,-21.95914499,1.003172458,
39504444,-55.86014725,-21.38507596,1.003226433,
39608888,-55.77039938,-20.07428072,1.003259998,
39713333,-55.71387741,-18.7210377,1.003281316,
39817777,-55.78246181,-18.5129833,1.003255467,
39922222,-55.58489948,-17.17186544,1.003330486,
40026666,-55.51983433,-15.21291148,1.00335557,
40131111,-55.54379232,-14.48498079,1.003346312,
40235555,-55.44387927,-13.56123578,1.003385092,
40340000,-55.46775249,-12.04552188,1.003375785,
40444444,-55.43758672,-10.83110631,1.003387549,
40548888,-55.39091113,-9.934082227,1.003405833,
40653333,-55.45014899,-8.759762982,1.003382645,
40757777,-55.30577372,-7.562357493,1.003439438,
40862222,-55.30084935,-6.287192937,1.003441392,
40966666,-55.23606871,-5.228626248,1.003467199,
41071111,-55.23666718,-4.006571044,1.00346696,
41175555,-55.22148062,-2.810222903,1.003473037,
41280000,-55.1988917,-1.520156825,1.003482097,
41384444,-55.06942533,-0.3352089057,1.00353448,
41488888,-55.13641002,0.3111177396,1.00350728,
41593333,-55.200026,1.658468506,1.003481642,
41697777,-55.02476273,2.712840405,1.003552734,
41802222,-55.16759756,3.597662048,1.003494687,
41906666,-55.00312801,4.91124981,1.003561609,
42011111,-55.15209034,5.633975363,1.003500943,
42115555,-55.07753344,7.167129024,1.003531177,
42220000,-55.0445164,8.683953067,1.003544649,
42324444,-55.07316316,9.071216691,1.003532957,
42428888,-55.19600373,10.51076079,1.003483257,
42533333,-55.17260287,12.54033272,1.00349267,
42637777,-55.1260787,12.71572476,1.003511461,
42742222,-55.13371963,14.04303153,1.003508368,
42846666,-55.09403958,15.04244471,1.003524461,
42951111,-55.03255407,16.51777625,1.003549543,
43055555,-55.26042315,17.04676991,1.003457474,
43160000,-55.22525715,18.28825727,1.003471525,
43264444,-55.25702358,19.67619533,1.00345883,
43368888,-55.23033818,21.05908496,1.003469491,
43473333,-55.30568769,22.11097398,1.003439473,
43577777,-55.30492221,23.14171398,1.003439776,
43682222,-55.31079378,23.90110575,1.003437448,
43786666,-55.30261654,25.60849758,1.003440691,
43891111,-55.33035653,27.0166493,1.003429701,
43995555,-55.52793025,27.88707675,1.003352439,
44100000,-55.58683073,28.37786393,1.003329744,
44204444,-55.52822575,30.08560376,1.003352324,
44308888,-55.60012083,31.16666523,1.003324645,
44413333,-55.62596025,32.4878935,1.003314753,
44517777,-55.77671068,32.89240868,1.003257626,
44622222,-55.85564496,34.16069835,1.003228109,
44726666,-55.89097499,35.25643902,1.003214984,
44831111,-55.94126384,36.49575094,1.003196394,
44935555,-56.01226475,37.00345161,1.003170331,
45040000,-56.05116724,38.86541468,1.003156141,
45144444,-56.23422691,40.13111549,1.003090218,
45248888,-56.1993777,41.09642271,1.003102661,
45353333,-56.3297983,42.12391907,1.003056351,
45457777,-56.3490963,43.77696639,1.003049558,
45562222,-56.46115104,44.74373637,1.00301041,
45666666,-56.59902057,45.3695503,1.002962933,
45771111,-56.66847428,46.56307108,1.002939301,
45875555,-56.82092061,47.93048122,1.00288809,
45980000,-56.98802144,49.00934349,1.002832981,
46084444,-57.04911129,50.45104826,1.002813098,
46188888,-57.14473243,51.42191155,1.002782256,
46293333,-57.39529046,52.34756046,1.002703037,
46397777,-57.47245367,54.02543959,1.002679099,
46502222,-57.57697088,55.18414266,1.002647012,
46606666,-57.63757022,56.69040979,1.002628584,
46711111,-57.84172178,56.3707838,1.002567444,
46815555,-57.95089451,58.53351473,1.002535336,
46920000,-58.14224144,58.70292295,1.002480025,
47024444,-58.42608773,60.65045336,1.002400195,
47128888,-58.38537157,61.64313731,1.002411486,
47233333,-58.50399614,62.9441486,1.002378737,
47337777,-58.85268238,64.39790535,1.002285029,
47442222,-58.99396586,65.19754811,1.002248121,
47546666,-59.16464103,66.39989802,1.002204329,
47651111,-59.30090519,66.71667646,1.00216998,
47755555,-59.42451189,69.36435308,1.002139285,
47860000,-59.82829032,69.11490922,1.002042014,
47964444,-60.06564709,69.95063052,1.001986913,
48068888,-60.09224791,72.50024701,1.001980831,
48173333,-60.35624865,73.00506893,1.001921474,
48277777,-60.68409107,73.74474234,1.001850236,
48382222,-60.87126937,76.77918686,1.001810754,
48486666,-61.18357156,76.48411578,1.001746749,
48591111,-61.29524152,79.06975141,1.001724417,
48695555,-61.65209957,79.00753266,1.001654948,
48800000,-62.0081261,80.99308421,1.001588431,
48904444,-62.38288417,82.12888392,1.001521304,
49008888,-62.69819161,83.53328405,1.00146703,
49113333,-63.1134792,86.21308037,1.001398491,
49217777,-63.28884917,85.48208596,1.001370519,
49322222,-63.73022022,88.50432977,1.001302572,
49426666,-63.72832557,90.38328145,1.001302856,
49531111,-64.4204703,90.72523309,1.001203006,
49635555,-65.05100133,90.32670318,1.001118724,
49740000,-65.28542651,93.5582755,1.001088918,
49844444,-65.86295948,94.71322969,1.001018833,
49948888,-66.44095271,96.59998929,1.000953212,
50053333,-66.83512043,96.29721328,1.000910902,
50157777,-67.64887769,99.98411866,1.000829404,
50262222,-68.6940977,101.4122562,1.000735334,
50366666,-68.8342384,105.0019413,1.000723561,
50471111,-69.44118855,102.9990111,1.00067471,
50575555,-70.43706273,105.0050272,1.0006016,
50680000,-71.80811588,109.4333824,1.000513731,
50784444,-72.68921377,113.4809921,1.000464163,
50888888,-73.9902437,120.8430689,1.000399581,
50993333,-75.40265975,119.4565435,1.000339602,
51097777,-76.43358361,130.4014436,1.00030159,
51202222,-78.91736409,141.3395707,1.000226574,
51306666,-79.46024159,150.0210455,1.000212845,
51411111,-82.12900389,170.2867604,1.000156536,
51515555,-82.21329223,-169.6993511,1.000155024,
51620000,-79.86793511,-142.8507151,1.000203085,
51724444,-79.59903649,-119.4754295,1.000209471,
51828888,-77.65273238,-116.379813,1.00026209,
51933333,-77.3792297,-101.0780748,1.000270475,
52037777,-74.38629972,-92.62472664,1.000381767,
52142222,-72.98303513,-89.80168438,1.00044872,
52246666,-72.09908429,-84.27884467,1.000496802,
52351111,-71.43955313,-84.47492347,1.000536005,
52455555,-69.72574532,-78.62797231,1.000652957,
52560000,-69.35259037,-74.78414548,1.00068163,
52664444,-68.33055541,-74.81653992,1.000766776,
52768888,-67.34203628,-72.90887529,1.00085924,
52873333,-67.02136839,-68.53456189,1.000891569,
52977777,-66.33364827,-68.20767888,1.000965066,
53082222,-65.562219,-68.43104846,1.001054746,
53186666,-64.76390359,-65.61787375,1.001156341,
53291111,-64.415695,-65.49405587,1.001203668,
53395555,-63.84176422,-65.66346137,1.001285941,
53500000,-63.65486212,-62.63526731,1.00131393,
53604444,-63.25287014,-62.90309642,1.001376212,
53708888,-62.9715811,-61.5899771,1.001421541,
53813333,-62.46415608,-59.90982092,1.001507125,
53917777,-62.41985833,-59.23087129,1.001514837,
54022222,-62.04052315,-56.78805061,1.001582513,
54126666,-61.93688441,-55.20016087,1.001601524,
54231111,-61.62349187,-52.65956162,1.001660412,
54335555,-61.23613097,-52.36777391,1.001736202,
54440000,-61.04376422,-51.26304518,1.001775117,
54544444,-60.74221288,-48.82193403,1.001837885,
54648888,-60.41819661,-47.81083236,1.001907806,
54753333,-60.20711225,-45.10372607,1.001954783,
54857777,-59.8685596,-44.92470177,1.002032559,
54962222,-59.68223742,-44.29644042,1.002076676,
55066666,-59.30149347,-42.52049934,1.002169833,
55171111,-59.17998295,-41.13417386,1.002200434,
55275555,-58.97395352,-40.19889272,1.002253312,
55380000,-60.13340242,-40.28966673,1.001971459,
55484444,-58.47538579,-37.9282416,1.002386595,
55588888,-58.26999344,-36.6973322,1.002443772,
55693333,-58.1379332,-36.05332109,1.002481257,
55797777,-57.96246571,-33.70706374,1.002531956,
55902222,-57.83776828,-32.9038596,1.002568615,
56006666,-57.65757374,-31.77642486,1.00262253,
56111111,-57.45241,-30.50660983,1.002685296,
56215555,-57.38501015,-29.24302899,1.002706243,
56320000,-57.1644207,-27.90261998,1.002775948,
56424444,-57.00482651,-26.54390206,1.002827497,
56528888,-56.83052015,-26.32849811,1.002884895,
56633333,-56.65269431,-24.37640617,1.002944654,
56737777,-56.55901918,-22.9915577,1.00297663,
56842222,-56.49268141,-23.42944372,1.002999486,
56946666,-56.3600034,-20.51600407,1.003045725,
57051111,-56.13382587,-19.53067797,1.003126202,
57155555,-56.15356652,-19.7445557,1.003119094,
57260000,-55.92719826,-18.19712855,1.003201583,
57364444,-55.85952757,-17.37863708,1.003226664,
57468888,-55.77985244,-15.44244049,1.003256446,
57573333,-55.67996731,-14.38211039,1.003294173,
57677777,-55.562413,-13.41335764,1.003339134,
57782222,-55.4588233,-11.1431116,1.003379263,
57886666,-55.33343559,-10.9891184,1.003428484,
57991111,-55.23608984,-9.294138495,1.003467191,
58095555,-55.15879967,-8.709984659,1.003498235,
58200000,-55.11963843,-8.295746247,1.003514071,
58304444,-55.01649757,-6.365996845,1.003556122,
58408888,-54.89796251,-4.545345543,1.003605072,
58513333,-54.85796577,-3.437213872,1.003621741,
58617777,-54.86407426,-2.931734958,1.003619191,
58722222,-54.80053946,-1.219604394,1.00364581,
58826666,-54.69902211,-0.2243637927,1.003688749,
58931111,-54.61212338,0.83057509,1.003725908,
59035555,-54.55906062,1.955470065,1.003748782,
59140000,-54.54665824,3.034803053,1.003754149,
59244444,-54.43337997,4.63520302,1.003803524,
59348888,-54.11871454,6.4557047,1.003944118,
59453333,-54.38784779,6.553941928,1.003823553,
59557777,-54.34149633,7.766095622,1.003844051,
59662222,-54.24526258,9.123721061,1.00388696,
59766666,-54.23234987,10.07587506,1.003892754,
59871111,-54.20313604,11.4128239,1.003905895,
59975555,-54.11335345,12.15113229,1.003946558,
60080000,-54.11030318,13.70205265,1.003947947,
60184444,-54.12841888,14.91474871,1.003939705,
60288888,-54.10276657,16.1196259,1.00395138,
60393333,-54.1000459,17.38925966,1.003952621,
60497777,-53.99803758,17.74107835,1.003999408,
60602222,-54.03581036,19.3836804,1.003982019,
60706666,-54.01871163,20.39586978,1.003989881,
60811111,-54.0765278,21.64660516,1.003963359,
60915555,-54.03083069,23.15995512,1.003984307,
61020000,-54.04850833,23.6507585,1.00397619,
61124444,-53.94985613,25.29358423,1.004021699,
61228888,-53.97841302,26.29862428,1.004008472,
61333333,-54.05913997,27.36251486,1.003971317,
61437777,-53.81414667,32.72719802,1.004085158,
61542222,-53.92965315,29.5352386,1.004031084,
61646666,-54.01005601,31.20879128,1.003993867,
61751111,-51.32480012,37.39503939,1.005444659,
61855555,-54.0350668,33.21477025,1.00398236,
61960000,-54.04791571,34.11346243,1.003976462,
62064444,-54.02136615,35.15393606,1.003988659,
62168888,-54.12982101,35.9897358,1.003939068,
62273333,-54.11635673,37.67861202,1.003945191,
62377777,-54.17720416,39.39896592,1.003917596,
62482222,-54.24039272,40.10672189,1.003889144,
62586666,-54.24543102,41.24234788,1.003886885,
62691111,-54.21265602,42.66118125,1.003901608,
62795555,-54.3622347,44.18017579,1.003834866,
62900000,-54.38768981,45.02789853,1.003823622,
63004444,-54.38387104,45.74251732,1.003825307,
63108888,-54.44681684,47.30878937,1.003797633,
63213333,-54.46112145,48.15824348,1.003791372,
63317777,-54.52728867,50.33169721,1.003762546,
63422222,-54.64396184,50.64566324,1.00371225,
63526666,-54.70796244,52.47841118,1.003684948,
63631111,-54.83367726,53.12269779,1.003631902,
63735555,-54.78038909,54.41352281,1.003654293,
63840000,-54.94910881,56.04236435,1.003583869,
63944444,-54.9065452,57.5792451,1.003601506,
64048888,-55.08993376,58.26458991,1.00352613,
64153333,-55.16625928,60.1937628,1.003495227,
64257777,-55.15508696,61.12909647,1.003499733,
64362222,-55.17174571,62.9790684,1.003493016,
64466666,-55.14789833,64.45383538,1.003502636,
64571111,-55.16441105,65.54996692,1.003495972,
64675555,-55.17595096,66.88531145,1.003491322,
64780000,-55.15661171,67.32252062,1.003499118,
64884444,-55.16098945,68.22984496,1.003497352,
64988888,-55.24889837,67.80815277,1.003462073,
65093333,-55.34838835,69.09729282,1.003422576,
65197777,-55.58495073,69.78752879,1.003330466,
65302222,-55.89090697,70.98525436,1.003215009,
65406666,-56.12441418,72.10312575,1.003129596,
65511111,-56.40326275,74.18953267,1.003030571,
65615555,-56.55455352,75.96665618,1.002978164,
65720000,-56.71614232,76.35030746,1.002923191,
65824444,-56.93902659,77.56180531,1.002849029,
65928888,-57.01264731,79.48029358,1.002824949,
66033333,-57.22350708,80.54483146,1.002757103,
66137777,-57.41598527,82.11495638,1.002696596,
66242222,-57.61005844,84.06339123,1.002636934,
66346666,-57.70685604,84.97402526,1.002607673,
66451111,-58.06809942,86.9123642,1.002501312,
66555555,-58.13389707,88.42088769,1.002482412,
66660000,-58.42587782,89.55715907,1.002400253,
66764444,-58.70919252,90.24946767,1.002323135,
66868888,-58.89951607,92.24304605,1.002272728,
66973333,-59.07124939,93.11661151,1.002228184,
67077777,-59.25987531,95.16444813,1.002180266,
67182222,-59.58091874,96.76648582,1.002101068,
67286666,-59.66264327,97.7982485,1.002081371,
67391111,-60.07025909,100.8334126,1.001985857,
67495555,-60.31281743,100.5841963,1.001931116,
67600000,-60.57819881,103.264369,1.001872952,
67704444,-60.88602246,103.9379859,1.001807679,
67808888,-61.10854611,105.237596,1.001761916,
67913333,-61.41581507,107.5149709,1.001700624,
68017777,-61.85526788,110.7012481,1.001616656,
68122222,-62.12794363,110.3496792,1.001566653,
68226666,-62.49288004,112.4205214,1.001502146,
68331111,-62.90801702,115.0525582,1.00143199,
68435555,-63.34855318,115.0242785,1.001361124,
68540000,-63.51799791,117.5113097,1.001334811,
68644444,-64.21344318,118.4930687,1.001232041,
68748888,-64.42389831,122.2997496,1.001202531,
68853333,-64.87448893,125.6100884,1.001141704,
68957777,-65.5479459,129.007957,1.001056482,
69062222,-65.87429515,127.2139857,1.001017504,
69166666,-66.33406893,132.7219145,1.000965019,
69271111,-67.18205153,136.2132087,1.00087522,
69375555,-68.09677878,139.3458334,1.000787702,
69480000,-68.70565294,140.6694626,1.000734356,
69584444,-69.72702389,145.2610376,1.000652861,
69688888,-70.41614574,152.2773119,1.00060305,
69793333,-70.71926809,155.3833944,1.000582362,
69897777,-71.29729527,163.7416211,1.000544858,
70002222,-72.37927326,171.0091071,1.000481028,
70106666,-73.32205238,175.703457,1.00043154,
70211111,-73.41071152,-170.9442546,1.000427157,
70315555,-73.98908167,-156.4330622,1.000399634,
70420000,-74.37472807,-148.4110218,1.000382276,
70524444,-74.23058086,-136.2957098,1.000388674,
70628888,-73.50179808,-128.2398121,1.0004227,
70733333,-73.95158812,-117.3652144,1.000401363,
70837777,-73.26357556,-107.8587029,1.000434456,
70942222,-72.00598494,-97.07240732,1.000502157,
71046666,-70.70550435,-95.57071997,1.000583286,
71151111,-70.38525605,-88.17471549,1.0006052,
71255555,-70.03568419,-82.72040546,1.000630061,
71360000,-68.99910116,-78.63162305,1.000709952,
71464444,-68.10743096,-76.40517204,1.000786736,
71568888,-67.72171082,-72.86145074,1.000822476,
71673333,-67.17694082,-69.03890187,1.000875736,
71777777,-66.31638896,-67.23307789,1.000966987,
71882222,-65.81000873,-65.00227204,1.001025067,
71986666,-65.46261831,-61.05273124,1.001066917,
72091111,-64.6848458,-60.76321985,1.00116692,
72195555,-64.21504103,-59.21199633,1.001231815,
72300000,-63.82362611,-56.36033354,1.001288631,
72404444,-63.22881916,-52.4849483,1.00138003,
72508888,-63.35051949,-50.91942734,1.001360816,
72613333,-62.67620504,-50.09897949,1.00147075,
72717777,-62.1737059,-47.9156893,1.001558414,
72822222,-62.04627028,-46.47090051,1.001581466,
72926666,-61.57283151,-45.17347695,1.001670133,
73031111,-61.32126212,-42.89122309,1.001719254,
73135555,-61.06651398,-41.06081717,1.00177047,
