Frequency,S11_Magnitude,S11_Magnitude (linear),S11_Phase,S11_VSWR,
45000000,-1.961017441,0.7979012179,-19.88931528,8.896150681,
45234444,-1.973878403,0.7967206613,-26.29699739,8.83867821,
45468888,-1.993716073,0.7949031104,-32.60245684,8.751488695,
45703333,-2.010802764,0.7933409315,-38.87849954,8.677775162,
45937777,-2.024181624,0.7921198906,-45.0928834,8.620930092,
46172222,-2.053179036,0.7894798469,-51.19696075,8.500278098,
46406666,-2.074501837,0.7875441469,-57.29079748,8.413720409,
46641111,-2.09667406,0.7855363691,-63.37236743,8.325590504,
46875555,-2.12125553,0.7833164076,-69.37696031,8.23004819,
47110000,-2.144009167,0.78126711,-75.42457362,8.143572329,
47344444,-2.176875551,0.7783164731,-81.23847828,8.021870178,
47578888,-2.205495009,0.7757561899,-87.15782522,7.918863798,
47813333,-2.231714244,0.7734180222,-93.06812781,7.826827355,
48047777,-2.263596726,0.770584313,-98.88285528,7.717799668,
48282222,-2.288163806,0.7684078796,-104.7814165,7.635872399,
48516666,-2.323073198,0.7653257753,-110.4466474,7.522452786,
48751111,-2.348281528,0.7631078544,-116.3785799,7.442660666,
48985555,-2.382898076,0.7600726338,-121.9688489,7.335856105,
49220000,-2.414292649,0.7573303605,-127.5084013,7.241657277,
49454444,-2.451912131,0.7540573778,-133.0246132,7.131978027,
49688888,-2.484083387,0.7512696262,-138.6133781,7.04083542,
49923333,-2.513170901,0.7487579644,-144.1888958,6.960451344,
50157777,-2.540609376,0.7463963917,-149.7980571,6.886323121,
50392222,-2.57191479,0.743711095,-155.2148966,6.803693258,
50626666,-2.599238262,0.7413752559,-160.6202926,6.733212097,
50861111,-2.625694283,0.7391205646,-166.0591086,6.666376604,
51095555,-2.650488928,0.7370136878,-171.4621857,6.604958535,
51330000,-2.669657116,0.7353890251,-176.9721788,6.55826549,
51564444,-2.687540899,0.733876456,177.7997848,6.515306501,
51798888,-2.701085516,0.7327329544,172.5003412,6.483152273,
52033333,-2.713904986,0.7316523144,167.3518584,6.453017511,
52267777,-2.72241438,0.7309358801,162.1329004,6.433172438,
52502222,-2.722151342,0.7309580156,156.8895592,6.433784005,
52736666,-2.717767724,0.7313270105,151.6409575,6.443993548,
52971111,-2.706099689,0.7323100858,146.4206929,6.47133117,
53205555,-2.6906112,0.7336170902,141.1482019,6.507989163,
53440000,-2.66449026,0.735826606,135.8905963,6.57078512,
53674444,-2.636140642,0.7382321723,130.588835,6.640358319,
53908888,-2.600023823,0.7413082081,125.1967814,6.731207803,
54143333,-2.558843634,0.7448311278,119.9374518,6.837946623,
54377777,-2.509924729,0.7490378496,114.6044376,6.969329225,
54612222,-2.453697274,0.7539024181,109.1529186,7.126857586,
54846666,-2.395422006,0.7589774971,103.8687243,7.297980378,
55081111,-2.335858676,0.7642000578,98.38007097,7.481766287,
55315555,-2.26180048,0.7707436866,92.77897347,7.723860079,
55550000,-2.196088651,0.7765967477,87.22878284,7.952421147,
55784444,-2.112349042,0.7841200301,81.43191627,8.264407444,
56018888,-2.032092793,0.7913987507,75.68612073,8.587670286,
56253333,-1.95586874,0.7983743269,69.88712054,8.919371721,
56487777,-1.878429959,0.8055240327,64.00680012,9.28404706,
56722222,-1.796557167,0.8131527623,57.98528808,9.70393132,
56956666,-1.715998471,0.8207295617,51.87558436,10.15632906,
57191111,-1.637298771,0.8281996859,45.67243891,10.64142226,
57425555,-1.555345542,0.836050908,39.29311981,11.19890867,
57660000,-1.483832854,0.8429626984,32.93528877,11.7358276,
57894444,-1.414350822,0.8497329495,26.42225209,12.30963769,
58128888,-1.350873454,0.8559656314,19.83355363,12.8855748,
58363333,-1.285037867,0.8624781602,13.03030276,13.54314459,
58597777,-1.228575907,0.8681028952,6.167682022,14.16333511,
58832222,-1.176362525,0.8733370277,-0.7796540055,14.78993422,
59066666,-1.136309694,0.8773735048,-7.86795891,15.309689,
59301111,-1.110725211,0.879961638,-15.09472219,15.66134032,
59535555,-1.098182357,0.8812332641,-22.50445339,15.83973197,
59770000,-1.087504808,0.8823172286,-30.05881179,15.99484111,
60004444,-1.11085497,0.8799484923,-37.82043517,15.65951589,
60238888,-1.145478627,0.876447827,-45.82756097,15.18749353,
60473333,-1.217483398,0.8692122335,-53.98084212,14.29195011,
60707777,-1.322847827,0.8587319245,-62.42385852,13.15748033,
60942222,-1.477379966,0.8435891818,-71.11608484,11.78683932,
61176666,-1.691053139,0.8230900336,-80.07735342,10.30518558,
61411111,-1.973971329,0.7967121377,-89.30778911,8.838265684,
61645555,-2.353270474,0.7626696712,-98.76121608,7.427072975,
61880000,-2.847876207,0.7204538884,-108.3866185,6.154454729,
62114444,-3.486949397,0.6693488632,-118.0572944,5.048671174,
62348888,-4.299520528,0.6095705453,-127.7177834,4.122564336,
62583333,-5.322692749,0.5418328885,-136.696338,3.365219479,
62817777,-6.572256867,0.4692314974,-144.698187,2.768121111,
63052222,-8.057539904,0.3954786152,-150.9877371,2.3084024,
63286666,-9.726138856,0.3263570939,-154.3961954,1.968932029,
63521111,-11.39009376,0.2694606245,-153.5131971,1.737703219,
63755555,-12.61920129,0.2339052317,-147.9513292,1.610643073,
63990000,-12.92019755,0.2259384382,-140.1267359,1.583773822,
64224444,-12.33659787,0.2416407119,-134.3806916,1.637272374,
64458888,-11.32183969,0.2715863981,-132.9441152,1.745692824,
64693333,-10.25072478,0.307230099,-135.3707431,1.886961453,
64927777,-9.288816316,0.343209408,-140.3289066,2.04511061,
65162222,-8.471507172,0.3770723099,-147.057718,2.210645524,
65396666,-7.777892871,0.4084184534,-155.0357524,2.380768064,
65631111,-7.187134392,0.437162882,-163.99109,2.553425913,
65865555,-6.692194328,0.4627967321,-173.7380773,2.722985543,
66100000,-6.263024989,0.4862378367,175.8166171,2.892851874,
66334444,-5.890835258,0.5075259317,164.6342442,3.061127537,
66568888,-5.559319268,0.5272711832,152.7245367,3.230755412,
66803333,-5.251832378,0.5462712962,139.9860349,3.407920379,
67037777,-4.955850954,0.5652068964,126.3127608,3.599888967,
67272222,-4.652632547,0.585286319,111.6637812,3.822604345,
67506666,-4.339483768,0.6067723911,95.9979807,4.086112863,
67741111,-4.012756231,0.6300313909,79.33466463,4.405864041,
67975555,-3.665587149,0.6557233403,61.72534836,4.809281413,
68210000,-3.298508939,0.6840290609,43.35590289,5.329696033,
68444444,-2.925706217,0.7140270901,24.54573206,5.993669438,
68678888,-2.568555375,0.7439987935,5.522577668,6.812463181,
68913333,-2.24437044,0.7722918967,-13.31683988,7.783174471,
69147777,-1.972236112,0.7968713161,-31.62358264,8.845975279,
69382222,-1.754564972,0.817093492,-49.1340131,9.934548046,
69616666,-1.588190716,0.8328954013,-65.6543427,10.96855153,
69851111,-1.465802096,0.844714395,-81.13958878,11.87949389,
70085555,-1.388704785,0.8522455863,-95.57218059,12.53597467,
70320000,-1.34000144,0.8570377031,-109.0124088,12.98970248,
70554444,-1.313843765,0.8596225741,-121.5223047,13.24730498,
70788888,-1.297873255,0.8612045928,-133.2182888,13.40969871,
71023333,-1.295848749,0.8614053457,-144.2025875,13.430571,
71257777,-1.302387072,0.8607571648,-154.5825114,13.36339613,
71492222,-1.314049196,0.8596022433,-164.4012368,13.24524185,
71726666,-1.325636555,0.8584562606,-173.7611684,13.12990789,
71961111,-1.338244598,0.8572110684,177.2958344,13.0066879,
72195555,-1.353041442,0.85575201,168.6805894,12.86501122,
72430000,-1.363852646,0.8546875302,160.3791377,12.76344372,
72664444,-1.376390124,0.8534547381,152.326049,12.64766062,
72898888,-1.391219021,0.8519989292,144.4720946,12.51341575,
73133333,-1.398898202,0.8512460112,136.8304862,12.44501762,
73367777,-1.411284472,0.8500329807,129.3456991,12.3362656,
73602222,-1.420033126,0.8491772364,122.0003024,12.26059776,
73836666,-1.428966369,0.8483043257,114.8012853,12.18429157,
74071111,-1.437133621,0.8475070488,107.7065052,12.11536031,
74305555,-1.443498526,0.8468862344,100.6789718,12.06218283,
74540000,-1.450499744,0.846203881,93.76279009,12.00422932,
74774444,-1.457944499,0.8454789026,86.8737667,11.94321639,
75008888,-1.466261068,0.8446697606,80.07395743,11.87579294,
75243333,-1.476095353,0.8437139549,73.33926877,11.79704787,
75477777,-1.490190792,0.8423458885,66.61980994,11.68599963,
75712222,-1.504230121,0.840985473,59.91194373,11.57746721,
75946666,-1.526052999,0.8388751898,53.27559928,11.41273766,
76181111,-1.558414862,0.8357555262,46.68769544,11.17696981,
76415555,-1.606740136,0.8311185838,40.1334908,10.84262925,
76650000,-1.691439617,0.823053411,33.72010078,10.30284574,
76884444,-1.858078275,0.8074136481,27.79870724,9.384951897,
77118888,-1.981437114,0.7960276336,24.95026357,8.805249778,
77353333,-1.067059829,0.8843964865,18.75851206,16.30051223,
77587777,-1.069931852,0.8841041057,9.308438623,16.25686671,
77822222,-1.165863559,0.8743933017,1.864460906,14.92271772,
78056666,-1.228445783,0.8681159004,-5.039140115,14.16483038,
78291111,-1.273122213,0.8636621546,-11.81767794,13.66944115,
78525555,-1.30710831,0.8602894252,-18.51449082,13.31530865,
78760000,-1.335649721,0.8574671953,-25.20359783,13.03185747,
78994444,-1.360822782,0.8549857194,-31.90848863,12.79174514,
79228888,-1.385703962,0.8525400731,-38.5748193,12.56300686,
79463333,-1.411772914,0.8499851814,-45.32529757,12.33201625,
79697777,-1.436471458,0.8475716604,-52.09655144,12.12091967,
79932222,-1.462260547,0.8450588856,-58.90075165,11.9081297,
80166666,-1.490630275,0.8423032691,-65.76040624,11.68257109,
80401111,-1.519425405,0.8395155209,-72.66015049,11.46226434,
80635555,-1.551392515,0.836431489,-79.64249352,11.22729233,
80870000,-1.585126844,0.8331892497,-86.70911451,10.98963494,
81104444,-1.622730742,0.8295899132,-93.86286312,10.73639447,
81338888,-1.660421455,0.8259978697,-101.10879,10.49411215,
81573333,-1.705791972,0.8216945404,-108.4763042,10.21670646,
81807777,-1.75099701,0.817429204,-115.9605729,9.954654541,
82042222,-1.801850654,0.8126573493,-123.560982,9.675625614,
82276666,-1.856729248,0.8075390593,-131.3628818,9.391718924,
82511111,-1.916304839,0.8020191867,-139.3325271,9.10198901,
82745555,-1.981954364,0.7959802311,-147.5222749,8.8029716,
82980000,-2.049539177,0.7898107511,-155.9610456,8.515234534,
83214444,-2.124561686,0.7830183065,-164.664766,8.217367454,
83448888,-2.20513641,0.7757882178,-173.748187,7.920137828,
83683333,-2.290928188,0.7681633641,176.7744745,7.62676424,
83917777,-2.384115989,0.759966066,166.833516,7.332155234,
84152222,-2.48436548,0.7512452274,156.3268861,7.040046746,
84386666,-2.593534271,0.741862274,145.1092512,6.747802041,
84621111,-2.710564224,0.7319337762,133.0407009,6.460842966,
84855555,-2.836710057,0.7213806638,119.9423441,6.178252692,
85090000,-2.965957496,0.7107258723,105.4833905,5.913857164,
85324444,-3.098441126,0.6999676093,89.32675974,5.665946951,
85558888,-3.218601277,0.6903509648,70.95657196,5.458925341,
85793333,-3.305422265,0.6834848409,49.81371681,5.318812678,
86027777,-3.320486534,0.6823004745,25.24963431,5.29525649,
86262222,-3.218444323,0.6903634396,-3.226340771,5.459185561,
86496666,-2.971827341,0.7102457325,-35.37435595,5.902400497,
86731111,-2.632692106,0.7385253289,-70.02269321,6.648924431,
86965555,-2.353573739,0.7626430433,-104.9800989,7.426127584,
87200000,-2.298921852,0.767456745,-137.9220475,7.600550467,
87434444,-2.515944978,0.7485188662,-166.7195543,6.952882867,
87668888,-2.741472235,0.7293338797,170.2209709,6.389177476,
87903333,-2.472620256,0.7522617625,150.2653165,7.073037172,
88137777,-2.121432385,0.7833004585,129.264613,8.229368859,
88372222,-2.01296984,0.7931430225,108.6717471,8.668516017,
88606666,-2.045225665,0.7902030775,89.38187345,8.533028303,
88841111,-2.126098444,0.7828797826,71.26993619,8.211486722,
89075555,-2.218219035,0.7746206107,54.0848416,7.873925898,
89310000,-2.303874747,0.7670192482,37.57132214,7.584400148,
89544444,-2.373986918,0.7608528191,21.58513855,7.363050707,
89778888,-2.428042028,0.7561324884,6.103720719,7.20117443,
90013333,-2.462544617,0.7531348931,-8.959396871,7.101590481,
90247777,-2.478211738,0.751777655,-23.61858595,7.057292344,
90482222,-2.47861306,0.7517429208,-37.86750605,7.056165031,
90716666,-2.464370223,0.7529766154,-51.73910996,7.096399469,
90951111,-2.44179543,0.7549361613,-65.18782882,7.16113879,
91185555,-2.410254517,0.7576825307,-78.25346815,7.253635223,
91420000,-2.380281136,0.7603016678,-90.94809551,7.343821094,
91654444,-2.347908189,0.7631406552,-103.2525093,7.443829824,
91888888,-2.320703755,0.7655345787,-115.2415021,7.530042462,
92123333,-2.303933409,0.767014068,-126.8901476,7.584209282,
92357777,-2.304209814,0.7669896603,-138.1937822,7.583310091,
92592222,-2.316290029,0.7659236832,-149.1330309,7.544221932,
92826666,-2.338140768,0.7639993016,-159.69844,7.474551193,
93061111,-2.355514981,0.7624726164,-169.9580196,7.420081801,
93295555,-2.365061308,0.7616350724,179.9408831,7.390496119,
93530000,-2.379854473,0.7603390159,169.827628,7.345121369,
93764444,-2.419633708,0.756864812,159.5821904,7.225876381,
93998888,-2.513864795,0.7486981504,149.0533575,6.958556625,
94233333,-2.703302123,0.7325459875,138.1139999,6.477921086,
94467777,-3.082244792,0.7012740369,126.5264317,5.695099345,
94702222,-3.836395403,0.6429544846,114.2720274,4.601526734,
94936666,-5.372653668,0.5387252317,102.5683602,3.335810535,
95171111,-8.19664975,0.3891952332,98.87433724,2.274368683,
95405555,-9.821777274,0.3227833587,118.5430424,1.953264699,
95640000,-7.205314197,0.436248845,129.982433,2.547664572,
95874444,-5.00131627,0.5622561138,123.9723659,3.568881629,
96108888,-3.792584124,0.6462057139,114.0950072,4.653002545,
96343333,-3.117290601,0.6984502384,104.117837,5.632404515,
96577777,-2.712181028,0.7317975457,94.63899504,6.45705331,
96812222,-2.456560578,0.7536539351,85.68447562,7.118660232,
97046666,-2.286637398,0.7685429271,77.16768215,7.640911142,
97281111,-2.172572342,0.7787021663,69.01932805,8.037594119,
97515555,-2.094291024,0.7857519162,61.15495729,8.334972636,
97750000,-2.044759285,0.7902455078,53.52597319,8.534956697,
97984444,-2.017754815,0.7927062078,46.14212611,8.648142278,
98218888,-1.998556486,0.7944602557,38.98205204,8.730478193,
98453333,-1.982077791,0.7959689203,32.05593956,8.802428156,
98687777,-1.951927427,0.7987366798,25.31454488,8.937230479,
98922222,-1.891388811,0.8043231328,18.65020994,9.220932237,
99156666,-1.797367518,0.8130769027,11.95390795,9.69958731,
99391111,-1.67596997,0.8245205826,5.03701429,10.39734808,
99625555,-1.554438843,0.8361381859,-2.207383948,11.20540619,
99860000,-1.441124794,0.8471177081,-9.763722359,12.08195982,
100094444,-1.347877764,0.8562608976,-17.61910823,12.9140983,
100328888,-1.274133383,0.8635616169,-25.78550953,13.65863165,
100563333,-1.218900262,0.8690704571,-34.3233305,14.2753913,
100797777,-1.179458998,0.8730257433,-43.37828791,14.75122431,
101032222,-1.160181675,0.8749654742,-53.12168382,14.99558192,
101266666,-1.161863304,0.8747960931,-63.91358607,14.97394243,
101501111,-1.197644461,0.8711998199,-76.32120878,14.5279286,
101735555,-1.294334101,0.8615555708,-91.40459474,13.44622952,
101970000,-1.528649785,0.838624432,-111.1614616,11.3934498,
102204444,-2.077913549,0.7872348699,-139.7226313,8.400036553,
102438888,-3.282877873,0.6852611431,175.2341408,5.354474371,
102673333,-4.647312078,0.5856449411,107.6178865,3.826778283,
102907777,-4.176763892,0.6182466978,40.84974941,4.238985461,
103142222,-3.127519787,0.6976281727,-2.291147338,5.614372833,
103376666,-2.501771577,0.7497412762,-29.47374984,6.991729399,
103611111,-2.182833496,0.7777827827,-48.59645935,8.000202703,
103845555,-2.02722793,0.7918421279,-63.55557517,8.608092067,
104080000,-1.96766912,0.7972904168,-76.34711432,8.866331764,
104314444,-1.984133769,0.7957805342,-88.09253161,8.793385722,
104548888,-2.09461587,0.7857225302,-99.66114789,8.333692442,
104783333,-2.359488913,0.7621238529,-111.9711886,7.40773665,
105017777,-3.010848107,0.7070621584,-126.7336554,5.827386961,
105252222,-4.987288815,0.5631648744,-147.5177824,3.578386405,
105486666,-15.98123661,0.1588320603,-171.7603748,1.377646491,
105721111,-6.827029911,0.4556679725,-62.37628692,2.674228043,
105955555,-2.782431492,0.7259027228,-90.36541373,6.296679559,
106190000,-1.852974309,0.8078882366,-107.7541779,9.41060664,
106424444,-1.541330372,0.837401012,-119.9393373,11.30019956,
106658888,-1.407559746,0.8503975742,-129.6635641,12.36876718,
106893333,-1.344476067,0.8565963049,-138.0481001,12.94664202,
107127777,-1.310330422,0.8599703519,-145.622274,13.28268961,
107362222,-1.29049709,0.861936249,-152.6858814,13.48606159,
107596666,-1.281688467,0.862810808,-159.3862633,13.5784079,
107831111,-1.274284653,0.8635465777,-165.8136593,13.65701604,
108065555,-1.271650172,0.8638085361,-172.0244666,13.68520818,
108300000,-1.268765482,0.8640954651,-178.0994897,13.71621238,
108534444,-1.268232293,0.8641485098,175.9805263,13.72195849,
108768888,-1.266060792,0.8643645767,170.1530131,13.74541054,
109003333,-1.266366649,0.8643341404,164.4079223,13.74210244,
109237777,-1.263532556,0.8646162074,158.7401369,13.77281705,
109472222,-1.262975805,0.8646716297,153.1505973,13.7788671,
109706666,-1.261058769,0.8648624897,147.596636,13.79973987,
109941111,-1.254643628,0.8655014875,142.0846036,13.87005293,
110175555,-1.250867944,0.8658777955,136.6003004,13.91177399,
110410000,-1.245011084,0.8664618503,131.127853,13.9769935,
110644444,-1.234325385,0.8675284593,125.7245796,14.09758239,
110878888,-1.219728891,0.8689875522,120.2982694,14.26572501,
111113333,-1.202565286,0.870706398,114.8873946,14.46866952,
111347777,-1.180269204,0.8729443125,109.4745074,14.74112926,
111582222,-1.151564046,0.8758339942,103.9524977,15.10746828,
111816666,-1.122693241,0.8787499999,98.32481314,15.49484534,
112051111,-1.112750383,0.8797564931,92.48668516,15.63291475,
112285555,-1.154299256,0.8755582352,86.51129268,15.07177464,
112520000,-1.279047549,0.8630731829,80.98105241,13.60634258,
112754444,-1.320063337,0.8590072577,75.97629453,13.18512731,
112988888,-1.337910023,0.8572440884,70.63202336,13.0099277,
113223333,-1.378560996,0.8532414601,65.26348036,12.62782705,
113457777,-1.427747077,0.8484234158,59.95375842,12.19465015,
113692222,-1.484962128,0.84285311,54.73042262,11.7269461,
113926666,-1.549274475,0.8366354762,49.65090379,11.2425601,
114161111,-1.611547735,0.8306586908,44.74175374,10.81046733,
114395555,-1.656182536,0.8264010745,40.09213407,10.52080864,
114630000,-1.644280577,0.827534238,35.75830199,10.59650459,
114864444,-1.53082257,0.8384146754,31.37901893,11.37736165,
115098888,-1.350420622,0.8560102576,26.43344322,12.88987832,
115333333,-1.184664173,0.8725027236,20.7859424,14.6866096,
115567777,-1.08111028,0.8829670273,14.76022638,16.08920105,
115802222,-1.027771697,0.8884058613,8.668765194,16.92208823,
116036666,-1.010773401,0.8901461749,2.611230553,17.20601147,
116271111,-1.016351313,0.8895747236,-3.385388052,17.11179529,
116505555,-1.034799489,0.8876873389,-9.356276764,16.80743133,
116740000,-1.063535159,0.8847554409,-15.27209053,16.35439846,
116974444,-1.100114871,0.8810372212,-21.1231183,15.81198119,
117208888,-1.135205453,0.8774850528,-26.9566741,15.32453872,
117443333,-1.171858655,0.8737899941,-32.76068318,14.84660413,
117677777,-1.207643081,0.8701975294,-38.58655359,14.40802722,
117912222,-1.240662439,0.8668957585,-44.41354138,14.02581719,
118146666,-1.274878557,0.8634875341,-50.29505612,13.65067667,
118381111,-1.311301526,0.8598742105,-56.23180869,13.27289014,
118615555,-1.350561097,0.8559964137,-62.22640757,12.88854299,
118850000,-1.387493686,0.8523644257,-68.29009075,12.54687046,
119084444,-1.431479831,0.8480588847,-74.43967823,12.16299408,
119318888,-1.482607913,0.843081587,-80.71076703,11.74547685,
119553333,-1.539968492,0.8375323203,-87.11868499,11.31014072,
119787777,-1.605772964,0.8312111337,-93.69138576,10.84912278,
120022222,-1.684235096,0.8237363768,-100.5117721,10.3466407,
120256666,-1.781989426,0.8145177046,-107.6623403,9.78270029,
120491111,-1.907158967,0.8028641235,-115.293908,9.145286774,
120725555,-2.080701663,0.7869822132,-123.6537733,8.388887332,
120960000,-2.34295043,0.7635763673,-133.141846,7.45939121,
121194444,-2.788109834,0.7254283238,-144.6052182,6.284072515,
121428888,-3.701844224,0.652991892,-159.7926904,4.76355409,
121663333,-6.191760485,0.4902436485,177.3038898,2.923443022,
121897777,-18.16816856,0.1234785645,140.7469705,1.281746822,
122132222,-9.797613395,0.3236825823,-80.37809648,1.957191324,
