Frequency,S11_Magnitude,S11_Magnitude (linear),S11_Phase,S11_Real,S11_Imaginary,S11_Quality Factor
30000000,-0.7344410498,0.9189205154,-113.3847765,-0.3647232543,-0.8434404907,-2.312549257
30082222,-0.7261319223,0.9197999971,-115.4784002,-0.3956711027,-0.8303471643,-2.098579246
30164444,-0.7344532589,0.9189192238,-116.3032727,-0.4071936883,-0.8237753578,-2.023055321
30246666,-0.7418570586,0.9181362763,-117.1213815,-0.4185572874,-0.8171805303,-1.952374394
30328888,-0.7495229839,0.9173263122,-117.9637967,-0.4301467503,-0.8102230164,-1.883596739
30411111,-0.7591088348,0.9163144984,-118.7868607,-0.4412537241,-0.803073727,-1.819981754
30493333,-0.7676755001,0.915411207,-119.6118893,-0.4523250758,-0.7958515588,-1.759468138
30575555,-0.7736620625,0.9147804969,-120.4980213,-0.4642589749,-0.7882175853,-1.697797195
30657777,-0.7827257089,0.9138264297,-121.3127465,-0.4749239932,-0.7807214255,-1.643887099
30740000,-0.7899089329,0.9130710083,-122.1565745,-0.4859681452,-0.7730029936,-1.590645397
30822222,-0.7974121277,0.9122826042,-123.0355289,-0.4973390597,-0.764796319,-1.537776501
30904444,-0.8092486827,0.9110402526,-123.8594848,-0.5075934084,-0.7565337227,-1.49043252
30986666,-0.8117299762,0.9107800334,-124.7447761,-0.5190734395,-0.7483869544,-1.441774703
31068888,-0.8170154279,0.9102259831,-125.6140942,-0.5300454957,-0.7399750757,-1.396059549
31151111,-0.8269567014,0.9091847968,-126.4523937,-0.5401963912,-0.7313035305,-1.353773447
31233333,-0.8352474402,0.908317388,-127.3082868,-0.5505342976,-0.7224627772,-1.312293858
31315555,-0.8392982347,0.9078938793,-128.2055872,-0.5615187689,-0.7134199102,-1.270518369
31397777,-0.8479306517,0.9069920229,-129.0466217,-0.5713619359,-0.7044005025,-1.232844644
31480000,-0.8538021382,0.9063791218,-129.9198984,-0.581638006,-0.6951405199,-1.195142877
31562222,-0.8601620314,0.905715705,-130.7536015,-0.5912578874,-0.6861013401,-1.16040962
31644444,-0.8696125634,0.9047307926,-131.6351348,-0.6010892517,-0.6761874877,-1.124936914
31726666,-0.877561211,0.9039032324,-132.534981,-0.6110749346,-0.6660544106,-1.089971741
31808888,-0.8837770779,0.9032566052,-133.4201044,-0.6208465767,-0.6560655631,-1.056727359
31891111,-0.8895908731,0.9026522236,-134.3373556,-0.6308471683,-0.6456104763,-1.023402353
31973333,-0.8954707955,0.902041379,-135.2095388,-0.640167975,-0.6355026461,-0.9927123364
32055555,-0.9037233475,0.9011847473,-136.0886755,-0.6492261503,-0.6250114836,-0.9627022623
32137777,-0.9102047322,0.9005125368,-136.9787747,-0.6583656202,-0.6143920077,-0.933207915
32220000,-0.9206769967,0.8994274755,-137.8856163,-0.6672020575,-0.6031676369,-0.904025445
32302222,-0.9274791601,0.8987233844,-138.7659327,-0.6758607706,-0.5923815834,-0.8764846388
32384444,-0.9375930607,0.8976775147,-139.669522,-0.6843212643,-0.5809727426,-0.8489766034
32466666,-0.9432657935,0.8970914351,-140.5781383,-0.6929953566,-0.5696757663,-0.8220484609
32548888,-0.9534102734,0.89604431,-141.4888624,-0.7011431434,-0.5579370017,-0.7957533451
32631111,-0.9625745787,0.8950994104,-142.4045694,-0.7092215456,-0.5460840172,-0.7699766322
32713333,-0.9702663859,0.8943071042,-143.3005442,-0.7170387307,-0.5344536045,-0.745362254
32795555,-0.9798800291,0.8933178223,-144.2107003,-0.7246353416,-0.5224177957,-0.7209388856
32877777,-0.9875444748,0.8925299046,-145.1352219,-0.7323238576,-0.5102072111,-0.6966961487
32960000,-0.9960654778,0.8916547472,-146.0447605,-0.7396045824,-0.4980293665,-0.6733724727
33042222,-1.005356696,0.8907014621,-146.9570574,-0.7466413056,-0.4856705214,-0.6504736849
33124444,-1.009824324,0.8902434434,-147.916908,-0.7542843077,-0.4728515324,-0.6268876703
33206666,-1.023531442,0.8888396668,-148.7759149,-0.7600880631,-0.4607625089,-0.6061962176
33288888,-1.033492104,0.887820962,-149.6904682,-0.7664661393,-0.4480577171,-0.5845760095
33371111,-1.043728123,0.8867753122,-150.6290931,-0.7727918429,-0.4349289849,-0.562802246
33453333,-1.052656762,0.8858642221,-151.5545245,-0.7789145384,-0.4219568247,-0.5417241608
33535555,-1.064221779,0.8846855037,-152.4681588,-0.7844984863,-0.4089383394,-0.5212735863
33617777,-1.072455899,0.8838472297,-153.413309,-0.7903876511,-0.3955670443,-0.5004721971
33700000,-1.082277653,0.8828483656,-154.338008,-0.7957681733,-0.3823274133,-0.480450747
33782222,-1.091993849,0.8818613473,-155.2910112,-0.8011204235,-0.3686265089,-0.4601386983
33864444,-1.102192888,0.8808264666,-156.2215617,-0.8060543997,-0.3551500655,-0.4406030979
33946666,-1.112916046,0.8797397139,-157.1410728,-0.8106485763,-0.341746763,-0.4215720264
34028888,-1.122956639,0.8787233523,-158.0866731,-0.8152351265,-0.3279427061,-0.4022676348
34111111,-1.136279996,0.8773765046,-159.0285028,-0.8192578457,-0.3140161032,-0.3832933732
34193333,-1.145699457,0.8764255446,-159.9369647,-0.823240336,-0.300661079,-0.3652166516
34275555,-1.156220431,0.8753645976,-160.8775908,-0.8270627321,-0.2867584628,-0.3467191201
34357777,-1.168172428,0.8741609028,-161.8032418,-0.8304438731,-0.2729839878,-0.3287205755
34440000,-1.181536954,0.8728169112,-162.7701875,-0.833648701,-0.2585327906,-0.3101219858
34522222,-1.191105343,0.8718559442,-163.6937492,-0.8367852478,-0.2447922313,-0.2925388944
34604444,-1.203455298,0.8706171844,-164.6113086,-0.8394036419,-0.2310320491,-0.2752335557
34686666,-1.214049729,0.8695559148,-165.5525447,-0.8420578189,-0.2169472715,-0.2576394004
34768888,-1.22677149,0.8682832546,-166.5167974,-0.8443519075,-0.2024491704,-0.2397687132
34851111,-1.240104625,0.8669514329,-167.4356512,-0.8461899473,-0.1885931075,-0.2228732545
34933333,-1.250574112,0.8659070876,-168.3879181,-0.8481844171,-0.1742936569,-0.2054902842
35015555,-1.262734992,0.8646956027,-169.3560464,-0.8498176021,-0.1597138956,-0.1879390297
35097777,-1.27681346,0.8632952015,-170.2876356,-0.8509216658,-0.1456397052,-0.1711552438
35180000,-1.29031454,0.8619543644,-171.246451,-0.8519143938,-0.1311761865,-0.1539781314
35262222,-1.302349901,0.8607608484,-172.1684344,-0.8527324641,-0.1172884599,-0.1375442649
35344444,-1.314428748,0.8595646817,-173.1270668,-0.8533878364,-0.1028622512,-0.120534002
35426666,-1.329800913,0.8580447815,-174.0465318,-0.8534168813,-0.08899704423,-0.1042832011
35508888,-1.344389684,0.8566048239,-174.9991433,-0.8533440676,-0.07467078904,-0.08750373018
35591111,-1.359771171,0.8550892398,-175.934687,-0.8529377369,-0.06062033562,-0.07107240423
35673333,-1.375479128,0.8535442551,-176.8906818,-0.8522877203,-0.04629727139,-0.05432117616
35755555,-1.391271729,0.8519937591,-177.8467481,-0.8513921704,-0.03201152656,-0.03759903799
35837777,-1.406444426,0.8505067774,-178.7575101,-0.8503068045,-0.01844225292,-0.02168893959
35920000,-1.419979139,0.8491825145,-179.7066539,-0.8491713848,-0.00434767246,-0.005119899867
36002222,-1.434579541,0.8477562943,179.3458331,-0.8477010398,0.00967893455,-0.01141786325
36084444,-1.448072847,0.8464403492,178.4238409,-0.8461200957,0.02328193184,-0.02751610789
36166666,-1.444626866,0.8467762268,177.400554,-0.8459049011,0.03840412105,-0.04540004556
36248888,-1.476973096,0.8436286986,176.5568704,-0.8421058662,0.05066647049,-0.06016639061
36331111,-1.491009048,0.8422665389,175.6459861,-0.839835763,0.06394383166,-0.07613849573
36413333,-1.503645776,0.8410420524,174.6953895,-0.8374400897,0.07775493642,-0.09284835701
36495555,-1.518116718,0.8396420187,173.7544217,-0.8346585224,0.09134478918,-0.109439713
36577777,-1.530984153,0.8383990786,172.8160889,-0.8318175254,0.1048456933,-0.1260441024
36660000,-1.543373771,0.8372040324,171.8879133,-0.8288268954,0.1181379252,-0.1425363074
36742222,-1.556114393,0.8359769064,170.944147,-0.8255567687,0.1315804302,-0.1593838669
36824444,-1.569527789,0.8346869251,169.9861819,-0.8219711753,0.1451401043,-0.1765756618
36906666,-1.583740262,0.8333222675,169.0244056,-0.8180794459,0.158656931,-0.1939382926
36988888,-1.595753978,0.832170471,168.0735365,-0.8142069397,0.1719731146,-0.2112154862
37071111,-1.609598267,0.8308451454,167.0963502,-0.809863789,0.1855378639,-0.2290976167
37153333,-1.623398058,0.8295261802,166.1401998,-0.8053743523,0.1987104332,-0.2467305205
37235555,-1.637956253,0.8281369973,165.1647027,-0.8005317436,0.2120372933,-0.2648705626
37317777,-1.651568588,0.8268401757,164.196696,-0.7955875112,0.2251781254,-0.2830337608
37400000,-1.665377888,0.8255266647,163.1992426,-0.7902896175,0.2386139028,-0.3019322252
37482222,-1.682238504,0.8239257477,162.2260636,-0.7845984155,0.2515133478,-0.3205631605
37564444,-1.696738917,0.8225514156,161.2658086,-0.77897164,0.2641855701,-0.3391465831
37646666,-1.713735588,0.8209434093,160.2585193,-0.7726934862,0.2772956143,-0.358868839
37728888,-1.728884711,0.8195128438,159.2761832,-0.7664879182,0.2899958144,-0.3783436209
37811111,-1.748744764,0.8176411903,158.2937734,-0.7596642028,0.3024027366,-0.3980742221
37893333,-1.774840362,0.8151883827,157.3208109,-0.7521565472,0.3143129458,-0.4178823504
37975555,-1.789441815,0.8138191579,156.2684956,-0.7450037833,0.327522495,-0.4396252775
38057777,-1.812585801,0.8116535826,155.2796631,-0.7372734858,0.3394250215,-0.460378717
38140000,-1.836593552,0.8094132741,154.2805536,-0.729224526,0.3512569414,-0.4816855836
38222222,-1.861711836,0.8070759541,153.1970749,-0.7203659725,0.3639291984,-0.5052004291
38304444,-1.881559904,0.8052338158,152.2489157,-0.7126148765,0.3749420434,-0.5261496157
38386666,-1.908881843,0.8027048885,151.2153842,-0.7035194634,0.3865171441,-0.5494050474
38468888,-1.936403623,0.8001654935,150.2587747,-0.6947635324,0.3969489275,-0.5713439307
38551111,-1.959310858,0.798058003,149.2183422,-0.6856306038,0.4084204344,-0.5956858288
38633333,-1.999357371,0.7943870056,148.2073905,-0.6751977011,0.4185197475,-0.6198477081
38715555,-2.029124592,0.791669239,147.2080659,-0.6655110892,0.4287600427,-0.644256797
38797777,-2.068262947,0.7881100264,146.1974652,-0.6548877956,0.4384511249,-0.6695057197
38880000,-2.105522116,0.7847365741,145.162642,-0.6440936664,0.4482798676,-0.6959855235
38962222,-2.149432846,0.7807794202,144.1411905,-0.6327928154,0.4573726663,-0.7227842276
39044444,-2.193471072,0.7768308181,143.1380715,-0.6215294769,0.4660120485,-0.7497826987
39126666,-2.241066504,0.7725857167,142.1334259,-0.6099118603,0.4742322346,-0.777542241
39208888,-2.290933368,0.768162906,141.0863657,-0.5977027133,0.4825201723,-0.8072912529
39291111,-2.345555225,0.7633474142,140.0800237,-0.585442782,0.4898530633,-0.8367223551
39373333,-2.404013832,0.7582271101,139.0886159,-0.5730099419,0.4965560966,-0.8665750107
39455555,-2.465410493,0.7528864401,138.1120456,-0.5604877647,0.5026842521,-0.8968692696
39537777,-2.532552294,0.7470890745,137.1472654,-0.5476941395,0.5081074835,-0.927721235
39620000,-2.601693424,0.7411657276,136.1988687,-0.5349338153,0.5130033616,-0.959003426
39702222,-2.673529249,0.7350612648,135.2274258,-0.5218258301,0.5176995906,-0.9920926884
39784444,-2.751778471,0.7284690023,134.3125467,-0.5088880422,0.521248547,-1.024289242
39866666,-2.838835061,0.7212041996,133.4043966,-0.4955706065,0.523970678,-1.057307821
39948888,-2.92665428,0.7139491584,132.5316837,-0.4826280659,0.5261117284,-1.090097666
40031111,-3.021325015,0.7062098152,131.6843674,-0.4696483246,0.527411371,-1.122992127
40113333,-3.122246449,0.6980518422,130.8866801,-0.4569203584,0.5277311442,-1.154974022
40195555,-3.228789447,0.689541688,130.1398373,-0.4445167156,0.5271362528,-1.185863735
40277777,-3.338516485,0.6808856413,129.4601082,-0.4327306243,0.5256895123,-1.214819296
40360000,-3.456378001,0.6717088959,128.8512408,-0.4213633525,0.523111619,-1.241473934
40442222,-3.574037096,0.6626712745,128.3208625,-0.4108990939,0.5198991755,-1.265272139
40524444,-3.692253236,0.653713326,127.8531488,-0.4011444847,0.5161629733,-1.286725838
40606666,-3.811241352,0.6448191583,127.5316115,-0.3928232182,0.5113527806,-1.301737669
40688888,-3.927629909,0.6362363889,127.2739262,-0.3853215151,0.5062845767,-1.313927608
40771111,-4.034786842,0.6284354244,127.145768,-0.3794775307,0.500927027,-1.320043972
40853333,-4.132511953,0.621404512,127.0999995,-0.3748361606,0.4956222557,-1.322237041
40935555,-4.220696499,0.6151275452,127.1477509,-0.3714586038,0.4903064374,-1.319949067
41017777,-4.294450557,0.6099264568,127.2746642,-0.369393778,0.4853437127,-1.313892495
41100000,-4.344471667,0.6064240502,127.3930024,-0.3682684773,0.4817971122,-1.308276819
41182222,-4.39217466,0.603102692,127.7065964,-0.3688685403,0.4771465782,-1.293540994
41264444,-4.409475064,0.6019026381,127.9676039,-0.3703000259,0.4745152015,-1.281434427
41346666,-4.410955462,0.6018000603,128.2156515,-0.3722873861,0.4728270452,-1.270059269
41428888,-4.396200595,0.602823217,128.4594444,-0.3749322462,0.472039873,-1.259000467
41511111,-4.366131316,0.6049137192,128.6567977,-0.3778617848,0.4723781104,-1.250134651
41593333,-4.317443815,0.6083139967,128.8048435,-0.3812119443,0.4740499679,-1.243533879
41675555,-4.258003498,0.6124911602,128.8517508,-0.3842202803,0.4769907729,-1.241451317
41757777,-4.187236129,0.6175017512,128.8747445,-0.3875564203,0.4807373855,-1.240432
41840000,-4.113373123,0.6227752487,128.821347,-0.3904141478,0.4852069699,-1.242800684
41922222,-4.033797365,0.6285070184,128.6507307,-0.3925474605,0.4908437261,-1.250406066
42004444,-3.948099658,0.6347387571,128.4128993,-0.3943785516,0.497351835,-1.261102646
42086666,-3.860941955,0.6411400434,128.1256295,-0.3958320568,0.5043585412,-1.274173055
42168888,-3.777203309,0.6473510169,127.7409598,-0.396238713,0.511916225,-1.291938945
42251111,-3.691797664,0.653747614,127.3132045,-0.3962833092,0.5199475759,-1.312060245
42333333,-3.614048783,0.6596256891,126.8221677,-0.395335678,0.5280300667,-1.33564992
42415555,-3.533044748,0.665806089,126.3124805,-0.3942828536,0.5365060853,-1.360713712
42497777,-3.456608452,0.6716910745,125.7390691,-0.3923312792,0.5452018589,-1.389646678
42580000,-3.383187063,0.6773929102,125.1376873,-0.3898689374,0.5539524947,-1.420868506
42662222,-3.316116422,0.6826438451,124.4735452,-0.3863939316,0.5627631375,-1.456449213
42744444,-3.249075051,0.6879331655,123.8063034,-0.3827570929,0.5716196708,-1.493426723
42826666,-3.187927146,0.6927932422,123.1123373,-0.3784607071,0.5802843868,-1.533275122
42908888,-3.128909542,0.6975165601,122.4186092,-0.3739393238,0.5888112887,-1.574617194
42991111,-3.073896689,0.7019483629,121.7035447,-0.3688909124,0.5972026448,-1.618913952
43073333,-3.02247713,0.7061161482,120.9723348,-0.3633844104,0.6054352029,-1.666101202
43155555,-2.972696218,0.7101746879,120.2247135,-0.3574967464,0.6136319448,-1.716468614
43237777,-2.927985284,0.713839763,119.4703032,-0.351189449,0.6214766111,-1.769633493
43320000,-2.889239136,0.7170311831,118.7028117,-0.3443660869,0.6289242528,-1.826324591
43402222,-2.8473382,0.720498515,117.9491013,-0.3376882959,0.6364626657,-1.88476377
43484444,-2.808472778,0.723729643,117.18761,-0.3306761143,0.6437685171,-1.946824973
43566666,-2.775197522,0.7265075366,116.4253834,-0.3233190711,0.6505981702,-2.01224805
43648888,-2.743246386,0.7291849235,115.673102,-0.315909173,0.6572001576,-2.080345282
43731111,-2.712731025,0.7317512092,114.8971687,-0.3080606668,0.6637457779,-2.154594369
43813333,-2.684194957,0.7341592113,114.135655,-0.3001965531,0.6699789378,-2.231800901
43895555,-2.655850744,0.7365588682,113.386321,-0.2923614064,0.6760501271,-2.312378147
43977777,-2.6315584,0.7386217295,112.6320995,-0.2842308615,0.6817439964,-2.39855726
44060000,-2.606948357,0.7407174605,111.8867348,-0.276119439,0.6873284598,-2.489243287
44142222,-2.58323559,0.7427424066,111.1398438,-0.2678667081,0.6927580452,-2.586204348
44224444,-2.561794471,0.7445781311,110.3601857,-0.2590541114,0.6980598546,-2.694648816
44306666,-2.543467748,0.7461508062,109.6133236,-0.2504609093,0.7028587045,-2.806261091
44388888,-2.522089485,0.7479895419,108.8682721,-0.2418949323,0.7077960133,-2.926047299
44471111,-2.505516803,0.7494180687,108.1145935,-0.2330079565,0.7122743389,-3.056867025
44553333,-2.489642461,0.7507889584,107.391703,-0.2244127757,0.7164656071,-3.192623971
44635555,-2.474213309,0.7521238052,106.6392762,-0.2153670636,0.7206297567,-3.346053684
44717777,-2.4576683,0.7535578269,105.8952568,-0.2063841165,0.7247447791,-3.511630601
44800000,-2.445566052,0.7546085079,105.1539477,-0.1972648127,0.7283684465,-3.692338417
44882222,-2.428954771,0.7560530356,104.4681627,-0.1888938015,0.7320760372,-3.875595871
44964444,-2.415171978,0.7572536949,103.7527235,-0.1800234843,0.7355438149,-4.085821457
45046666,-2.404700341,0.7581671843,103.0036812,-0.1705979698,0.7387244493,-4.330206568
45128888,-2.39126593,0.7593407441,102.2932458,-0.1616751927,0.7419295773,-4.589013099
45211111,-2.380631069,0.7602710378,101.5788876,-0.1525992859,0.7447989721,-4.88075005
45293333,-2.370593583,0.7611501212,100.8629225,-0.1434463174,0.7475109772,-5.21108517
45375555,-2.360929826,0.7619974337,100.170669,-0.1345541816,0.7500235071,-5.574137482
45457777,-2.353822184,0.7626212295,99.43256337,-0.1249834327,0.7523099635,-6.019277494
45540000,-2.347096231,0.763211997,98.75421714,-0.116157914,0.7543208146,-6.493925284
45622222,-2.337699374,0.7640381271,98.04308441,-0.1069024638,0.7565223876,-7.076753523
45704444,-2.331396529,0.7645927463,97.33017304,-0.09755204979,0.7583440283,-7.773737507
45786666,-2.325419312,0.7651190838,96.6181207,-0.08818098025,0.7600206097,-8.618872319
45868888,-2.31981463,0.7656129461,95.91920654,-0.07895457978,0.7615309302,-9.64517742
45951111,-2.315030469,0.7660347594,95.25753526,-0.07019374228,0.7628119632,-10.867236
46033333,-2.309432951,0.7665285805,94.57641405,-0.06116023544,0.7640847403,-12.49316218
46115555,-2.306049483,0.7668272293,93.90399674,-0.05220934393,0.7650478311,-14.65346571
46197777,-2.302936985,0.7671020631,93.24561445,-0.0434305328,0.7658716368,-17.63440574
46280000,-2.299344835,0.7674193726,92.55970058,-0.03427321272,0.7666536638,-22.36888821
46362222,-2.30432756,0.7669792631,91.85489199,-0.02482582846,0.7665773726,-30.87821918
46444444,-2.295969877,0.7677176162,91.25168243,-0.01677020936,0.7675344281,-45.76773083
46526666,-2.294331647,0.7678624278,90.60762986,-0.008143137163,0.7678192478,-94.29034934
46608888,-2.291382573,0.7681231802,89.95134068,0.0006523402723,0.7681229032,1177.488093
46691111,-2.292195598,0.768051285,89.29359044,0.009469196991,0.7679929106,81.10433348
46773333,-2.292037253,0.7680652868,88.64816186,0.01812007147,0.7678515142,42.37574424
46855555,-2.292023473,0.7680665054,88.01913174,0.02654882276,0.7676075277,28.91305331
46937777,-2.293943483,0.7678967435,87.39017917,0.03496557684,0.7671002654,21.93872759
47020000,-2.292906056,0.7679884652,86.75658353,0.04345130341,0.7667582845,17.64638168
47102222,-2.29202362,0.7680664924,86.14791486,0.05159942239,0.7663312836,14.85154771
47184444,-2.292842621,0.767994074,85.52361975,0.05994049168,0.7656513797,12.77352518
47266666,-2.29345047,0.7679403307,84.93740007,0.06776620928,0.7649445028,11.2879931
47348888,-2.294025381,0.7678895031,84.29813161,0.07629150998,0.7640902398,10.01540329
47431111,-2.296957248,0.7676303507,83.68104471,0.08448780634,0.7629666873,9.030494698
47513333,-2.297108896,0.7676169486,83.0677329,0.09264822467,0.7620053059,8.224715678
47595555,-2.299261706,0.7674267172,82.48633153,0.1003507953,0.7608373573,7.581777057
47677777,-2.300281272,0.7673366406,81.89238622,0.1082196277,0.7596670535,7.019679054
47760000,-2.304366399,0.7669758335,81.29684409,0.1160551532,0.7581445314,6.532622726
47842222,-2.305295181,0.7668938251,80.69653334,0.123978763,0.7568060553,6.104320104
47924444,-2.303114091,0.767086422,80.12169953,0.1315982776,0.7557138824,5.742581865
48006666,-2.305192606,0.7669028817,79.54003115,0.1392300717,0.7541584828,5.416635025
48088888,-2.306550933,0.7667829604,78.94269265,0.1470618601,0.7525482827,5.117222659
48171111,-2.307147972,0.7667302562,78.37472966,0.1545037708,0.7510019111,4.860735159
48253333,-2.308579941,0.7666038622,77.76924934,0.1624045264,0.7492037449,4.613194975
48335555,-2.311188553,0.7663736645,77.21652668,0.1695733636,0.7473777278,4.4074005
48417777,-2.312265382,0.7662786596,76.64361108,0.1770160418,0.745552349,4.211778444
48500000,-2.314430328,0.7660876895,76.06073185,0.1845453723,0.7435276414,4.028969311
48582222,-2.316393836,0.7659145295,75.50732243,0.191674915,0.7415428466,3.868752709
