Frequency,S11_Magnitude,S11_Phase,S11_Resistance,S11_Reactance,S11_Inductance,S12_Magnitude,S12_Phase,S12_Resistance,S12_Reactance,S12_Inductance,S21_Magnitude,S21_Phase,S21_Resistance,S21_Reactance,S21_Inductance,S22_Magnitude,S22_Phase,S22_Resistance,S22_Reactance,S22_Inductance,
0,-4.515417494,38.7930932,75.75482757,87.3104965,inf,-6.067892687,39.86876899,77.76784242,65.8701085,inf,19.88987941,172.7667213,-40.85807338,1.052809342,inf,18.46537268,176.9584068,-39.35011795,0.505487031,inf,
2000000,-0.7106254151,-3.452675224,793.0802807,-583.1450038,-4.640520495e-05,-55.86967806,111.0593491,49.94199672,0.149965688,1.193389027e-08,12.03050849,-74.66590295,-50.38044211,-25.94919784,-2.064971553e-06,-0.2899476572,174.2015587,0.8365986051,2.531501769,2.0145051e-07,
4000000,-0.8390579262,-5.199156964,550.7391592,-515.8307289,-2.052425258e-05,-50.94998283,45.08688998,50.20013241,0.2015495466,8.019401655e-09,15.52699468,-85.36154329,-48.55384366,-16.66544801,-6.630971076e-07,-0.1588991646,166.5538379,0.4636904178,5.893571046,2.344977411e-07,
6000000,-0.9888946705,-6.466429533,443.957102,-438.2147775,-1.1624008e-05,-43.52735711,99.43210853,49.88663082,0.6557738394,1.739494135e-08,17.81619012,-94.47183905,-47.43776284,-12.36691239,-3.280425395e-07,-0.3483066753,158.1962626,1.039541504,9.62615971,2.553418168e-07,
8000000,-1.069593629,-7.430763231,386.0405916,-404.4120426,-8.045521953e-06,-44.19919611,93.93562996,49.95391382,0.6146542063,1.22281569e-08,19.57224501,-101.629509,-46.94215754,-9.767687006,-1.943219587e-07,-0.4250649355,150.4791589,1.308047978,13.16519477,2.619132281e-07,
10000000,-1.232852536,-9.426887639,301.7942584,-347.0894506,-5.524100175e-06,-29.05432712,-93.13624102,49.68437316,-3.502860096,-5.574974993e-08,21.25332723,-108.6204856,-46.69424066,-7.718686492,-1.228467109e-07,0.15993125,139.803187,-0.5219328488,18.29406665,2.911591136e-07,
12000000,-1.243371206,-8.921206801,321.1835008,-346.7601988,-4.599049975e-06,-42.58392605,66.37465433,50.2938508,0.6844724465,9.078097772e-09,22.13106907,-113.5053248,-46.50661003,-6.714881947,-8.905888784e-08,-0.6930411933,136.6429774,2.308130717,19.83911325,2.631244117e-07,
14000000,-1.318157943,-9.661545443,296.1413818,-326.2451495,-3.708823443e-06,-39.97731003,60.00399689,50.49611858,0.8770296417,9.970257337e-09,23.1188813,-118.6718392,-46.41925602,-5.716048502,-6.4981241e-08,-0.8600847359,130.2530715,3.003589324,23.11219848,2.62744331e-07,
16000000,-1.41238056,-10.18792944,281.4310523,-304.7858196,-3.031760611e-06,-40.11599601,61.19154954,50.47017946,0.8728271229,8.682171942e-09,23.92057674,-123.5387783,-46.34822596,-4.939814227,-4.913724076e-08,-1.024609613,124.1102485,3.770885084,26.40595074,2.626648492e-07,
18000000,-1.442438837,-10.68875356,267.6013293,-297.5042972,-2.630515527e-06,-39.23753217,76.52285647,50.24373265,1.066989445,9.434258019e-09,24.62549646,-127.84193,-46.33041067,-4.311084513,-3.811835613e-08,-1.221812452,117.9377649,4.773018305,29.87837644,2.641828501e-07,
20000000,-1.634416486,-11.17977606,257.6488974,-263.9192784,-2.100202887e-06,-38.45536274,46.39189962,50.82313538,0.879363558,6.997752852e-09,25.23688425,-131.4697899,-46.3520899,-3.812555177,-3.033935011e-08,-1.28016723,112.9665835,5.278763341,32.85807623,2.614762626e-07,
22000000,-1.687083448,-11.72011504,245.7271953,-255.3759581,-1.847470276e-06,-38.72680476,53.21576946,50.68939681,0.9402456812,6.802033995e-09,25.81638023,-135.1300072,-46.38209866,-3.358908775,-2.429940613e-08,-1.488007185,107.2403675,6.565232282,36.42271048,2.634933824e-07,
24000000,-1.799931578,-12.12589023,237.9309916,-239.4691869,-1.588029367e-06,-37.56757272,53.72457003,50.77741522,1.083505534,7.185219233e-09,26.3042637,-138.201033,-46.42449067,-3.001890118,-1.990690212e-08,-1.635564163,102.5684695,7.666261348,39.50326647,2.61964172e-07,
26000000,-1.895165791,-12.43095495,232.273468,-227.3503302,-1.391689572e-06,-37.37068728,54.13913148,50.78693456,1.114420529,6.82175138e-09,26.75851534,-140.8412444,-46.48556557,-2.702047673,-1.654016322e-08,-1.804637925,97.53491596,9.076429186,42.99845452,2.632083301e-07,
28000000,-1.999692282,-12.86799742,224.4823094,-215.2458291,-1.223479917e-06,-36.82265112,52.08002395,50.8806338,1.157565552,6.579724272e-09,27.16584047,-143.5890559,-46.53236741,-2.425503175,-1.378681499e-08,-1.976110072,93.38000707,10.57541064,46.00491366,2.614967648e-07,
30000000,-1.945128461,-12.97695624,222.6149529,-221.3743053,-1.174427166e-06,-39.31839413,49.20689147,50.70484335,0.8305172812,4.406031021e-09,27.62395005,-146.406551,-46.60525944,-2.147713837,-1.139397578e-08,-1.955371486,89.12750203,11.23650795,49.48845879,2.625444281e-07,
32000000,-2.20205664,-12.88213275,222.9067547,-193.9396865,-9.645768679e-07,-36.72219809,47.06779263,50.99161418,1.089224286,5.417357162e-09,27.80293615,-147.9728139,-46.62052805,-2.017068032,-1.003207337e-08,-2.168330749,85.25068532,13.29638852,52.53240327,2.612747392e-07,
34000000,-2.244963711,-13.01636595,220.4293832,-189.9655733,-8.892341177e-07,-37.02224057,44.22599387,51.00997046,1.002760959,4.693951864e-09,28.12057148,-149.7504044,-46.68427624,-1.849577379,-8.657923013e-09,-2.32840818,80.79802665,15.48051407,56.32824589,2.636740815e-07,
36000000,-2.372467222,-13.58902264,211.0120202,-179.2754599,-7.925715448e-07,-35.47345524,44.89506638,51.19266579,1.217240261,5.381383456e-09,28.35077096,-151.3222254,-46.72390651,-1.717123444,-7.591352332e-09,-2.498750858,77.37079511,17.71900795,59.28162561,2.620823264e-07,
38000000,-2.405367883,-13.61508526,210.2835252,-176.483458,-7.391635451e-07,-36.23798466,47.54326149,51.03853537,1.161618146,4.865191313e-09,28.57526738,-152.7694515,-46.76687941,-1.59686376,-6.688125286e-09,-2.623079366,73.28413667,20.21598336,63.14883928,2.644855243e-07,
40000000,-2.535868147,-13.57316588,208.973043,-165.620668,-6.589836999e-07,-35.56886363,42.18439261,51.23658858,1.146425053,4.561480351e-09,28.7628022,-154.0907536,-46.80126428,-1.49332387,-5.941746887e-09,-2.694958352,70.07336749,22.27418586,66.4211099,2.642811991e-07,
42000000,-2.622015621,-13.80770286,204.8424846,-159.5181174,-6.044784976e-07,-35.23435884,44.5862455,51.23283116,1.245422164,4.71940699e-09,28.91389234,-155.4167758,-46.82398736,-1.397881477,-5.297136831e-09,-2.833346308,66.72203301,25.21067787,69.75092882,2.643144073e-07,
44000000,-2.640987843,-13.94110122,203.0310576,-158.4235799,-5.730430875e-07,-35.5011929,44.81068036,51.19069318,1.211515507,4.382242764e-09,29.06972005,-156.5768779,-46.85353565,-1.312749243,-4.748421161e-09,-2.945454772,63.44257351,28.2872188,73.20389636,2.647900445e-07,
46000000,-2.053979934,-18.73796063,147.1669856,-198.0699993,-6.853004231e-07,-30.36674013,177.863287,47.05952912,0.1064787065,3.684046191e-10,28.88186048,-159.9988885,-46.71700918,-1.150930289,-3.982092273e-09,-2.650007271,47.62577302,41.54212428,99.04710057,3.426920794e-07,
48000000,-2.840001351,-13.47920737,204.2440192,-143.0416544,-4.742872161e-07,-34.9554286,43.85611254,51.28976839,1.270770457,4.213529161e-09,29.25806124,-158.2954185,-46.88439045,-1.195810452,-3.964982177e-09,-3.13473565,58.04724624,34.36223045,79.05906455,2.621383525e-07,
50000000,-2.875032412,-14.1518979,196.8184097,-142.7588026,-4.544153821e-07,-35.06528423,41.87372018,51.31728624,1.209512187,3.849996866e-09,29.36808805,-160.1103839,-46.88887821,-1.086285568,-3.457754357e-09,-3.16642755,54.58680783,38.20616322,83.55178932,2.659536055e-07,
52000000,-2.89886682,-14.17292811,196.1761141,-141.2857716,-4.324294027e-07,-35.56677135,35.28940671,51.36891659,0.9890535462,3.027168478e-09,29.43815555,-161.2908612,-46.89295928,-1.016038416,-3.109760313e-09,-3.151032924,51.73304029,41.45622299,87.78294243,2.686747924e-07,
54000000,-3.001545048,-14.40062947,192.1442553,-135.5701606,-3.995678e-07,-34.88995376,37.57116966,51.43551082,1.130018377,3.330518713e-09,29.49261999,-162.3085171,-46.89546083,-0.9566138519,-2.81944117e-09,-3.245937409,49.35297541,45.61301016,90.48827666,2.66697343e-07,
56000000,-3.055413814,-14.54617663,189.8514827,-132.7972515,-3.774167679e-07,-34.49200641,37.3946599,51.50694503,1.179925093,3.353409127e-09,29.53796916,-163.3680311,-46.89514483,-0.8962874357,-2.547295997e-09,-3.328740641,46.71567962,50.51023584,93.63588301,2.661181006e-07,
58000000,-3.172935618,-15.29212951,181.5233999,-128.1876809,-3.51753501e-07,-34.42033034,43.64543856,51.3768597,1.348680124,3.700846697e-09,29.58106774,-164.4182669,-46.89521152,-0.8369706764,-2.296690006e-09,-3.453519206,44.17832732,56.23343569,96.01314709,2.634649476e-07,
60000000,-3.113689075,-15.11488198,183.9502105,-130.9816417,-3.474395956e-07,-35.58497619,42.74588227,51.22274322,1.156305546,3.067195723e-09,29.61777582,-165.1936291,-46.89760524,-0.7929536566,-2.103374901e-09,-3.473509257,41.18533353,62.51307638,100.2434385,2.659039793e-07,
62000000,-2.954329401,-19.61789141,148.8716846,-144.1571693,-3.700536464e-07,-38.14869698,4.648045459,51.24878738,0.1028055444,2.639033963e-10,27.88867803,-158.0555011,-46.37425652,-1.399950005,-3.593692958e-09,-4.814328733,38.08383182,78.69554267,83.24710937,2.13696596e-07,
64000000,-3.196901053,-15.83751465,176.7884093,-128.1732011,-3.187406021e-07,-34.91572369,42.27897685,51.33123818,1.240547933,3.084989619e-09,29.65336848,-166.9021738,-46.88908543,-0.7001504703,-1.741131379e-09,-3.454303073,36.89230996,72.80908011,107.060421,2.662374253e-07,
66000000,-3.251885893,-16.42260622,171.5241998,-126.5500411,-3.051676452e-07,-34.40874844,40.8090369,51.44567538,1.280474721,3.087786081e-09,29.68028445,-167.9651281,-46.88676703,-0.642176466,-1.548569074e-09,-3.538215373,35.63613788,77.14260458,107.3436463,2.588526049e-07,
68000000,-3.295394427,-16.53037072,170.1702077,-124.6061122,-2.916423337e-07,-34.03565968,38.23069033,51.56980961,1.268775804,2.969587365e-09,29.68339177,-168.9301686,-46.87811079,-0.5910320041,-1.383318603e-09,-3.533538141,33.63073673,83.20227019,110.2069504,2.579408958e-07,
70000000,-3.313655774,-17.14489557,165.4683029,-124.8099661,-2.837731865e-07,-33.99622079,40.25826243,51.52946849,1.329956779,3.02384565e-09,29.68720353,-169.8856701,-46.87059761,-0.540248815,-1.22833242e-09,-3.571485948,31.9668381,89.07022205,111.5155796,2.535465104e-07,
72000000,-3.238983383,-17.20319944,165.8061837,-128.5076116,-2.840641891e-07,-34.56328976,33.92380074,51.56471087,1.076648919,2.379916632e-09,29.68236166,-170.782467,-46.86132453,-0.4929593201,-1.089679341e-09,-3.541919568,29.81464721,96.73464245,114.7400687,2.536312375e-07,
74000000,-3.294238088,-17.71605643,161.559007,-126.5698956,-2.722192504e-07,-34.39390324,37.0222147,51.53212614,1.183742434,2.545925131e-09,29.67598805,-171.7725479,-46.85152928,-0.4406276431,-9.476765874e-10,-3.562204099,28.12444187,103.686882,115.9020904,2.492755488e-07,
76000000,-3.385721635,-18.39305129,156.1213182,-123.2334799,-2.580686511e-07,-33.75702332,42.43242473,51.51765471,1.427057589,2.988464071e-09,29.66744102,-172.6211086,-46.84271967,-0.3957641548,-8.287871255e-10,-3.656192085,26.42753197,111.4844775,114.4651892,2.397065877e-07,
78000000,-3.390857707,-18.42490334,155.8682961,-123.0433976,-2.51063653e-07,-33.70877674,39.74336814,51.5938212,1.361797251,2.778676461e-09,29.65661084,-173.4940003,-46.83358168,-0.3495302977,-7.131983927e-10,-3.634048072,24.81391545,118.8910089,115.8473378,2.363804674e-07,
80000000,-3.424634464,-19.02597156,151.6746732,-122.2171156,-2.43143226e-07,-34.14333549,47.2274486,51.32918606,1.479529675,2.943430765e-09,29.67014406,-174.0633656,-46.83525019,-0.3185699199,-6.337747185e-10,-3.700111139,23.15753815,127.1059592,113.864765,2.265267525e-07,
82000000,-3.512230193,-19.25755808,149.6346612,-118.7853727,-2.305521858e-07,-33.1899677,46.29107731,51.51050337,1.631885645,3.167349597e-09,29.64213507,-175.419659,-46.81907378,-0.2466779983,-4.787807657e-10,-3.650005777,21.67300504,134.970879,115.1975617,2.235885534e-07,
84000000,-3.335796758,-19.2484361,150.7202468,-126.2510858,-2.392081474e-07,-33.80724076,35.00232041,51.68505016,1.210124627,2.292825192e-09,29.64272697,-176.2895331,-46.81610965,-0.1998771184,-3.787075168e-10,-3.67157744,19.85396298,145.0225145,113.119681,2.143280522e-07,
86000000,-3.411140078,-19.63037794,147.8708827,-123.3010024,-2.281856282e-07,-33.6987913,38.19354436,51.63312264,1.319524203,2.441962784e-09,29.62094215,-177.1782023,-46.80580745,-0.1523998185,-2.820370284e-10,-3.709727042,18.36027999,153.3732559,109.7479048,2.031037389e-07,
88000000,-3.370094373,-19.95592939,145.9681995,-125.2336131,-2.2649487e-07,-33.66454574,35.60506124,51.69970402,1.248952445,2.258829037e-09,29.62225112,-178.0893503,-46.80437113,-0.1031943231,-1.866350752e-10,-3.683059602,17.03180619,161.6611766,108.3919924,1.960354703e-07,
90000000,-3.402772233,-20.45273368,142.7421775,-124.1214942,-2.194949927e-07,-34.06790074,38.49644112,51.55789909,1.271206396,2.247986462e-09,29.59072984,-178.9523027,-46.79199528,-0.05678472819,-1.004174465e-10,-3.747502398,15.28866953,171.2475634,101.481447,1.794585991e-07,
92000000,-3.452991381,-21.04468962,139.0301874,-122.3373239,-2.116368459e-07,-34.36546574,41.3440876,51.4404879,1.300606391,2.249977566e-09,29.58188914,-179.7779666,-46.78836884,-0.01204610258,-2.083909533e-11,-3.799147789,14.02146498,177.7649499,95.39839051,1.650339719e-07,
94000000,-3.481008985,-20.76806233,140.6018448,-121.1316339,-2.050925351e-07,-33.42896719,40.3016508,51.63198384,1.423887203,2.410837094e-09,29.57303863,179.3261262,-46.78537944,0.03659431168,6.195920843e-11,-3.794388426,12.69478822,185.713304,90.51759196,1.532587468e-07,
96000000,-3.515922396,-21.12849236,138.3888569,-119.9328724,-1.988323905e-07,-33.23660403,41.25551987,51.64337975,1.484504711,2.461106904e-09,29.56433416,178.4558785,-46.78311665,0.08392456142,1.391355083e-10,-3.832560205,11.32427219,192.4326964,82.91987695,1.374698781e-07,
98000000,-3.456841056,-21.43338328,136.7350598,-122.2929319,-1.98607394e-07,-33.36926349,36.45300723,51.73893971,1.319745291,2.143305987e-09,29.54322461,177.5834324,-46.77707795,0.1316231044,2.137598744e-10,-3.864843635,9.710320179,199.9689093,73.35630609,1.191328441e-07,
100000000,-3.460441201,-21.60286429,135.7451708,-122.187958,-1.94468175e-07,-33.28757613,37.2943068,51.73504569,1.358461856,2.162059194e-09,29.5518456,176.8634744,-46.78194859,0.1706503005,2.715983887e-10,-3.911674103,8.519912984,203.9655747,64.88393963,1.032659972e-07,
102000000,-3.566508966,-22.31003683,131.6653306,-118.3732715,-1.847028557e-07,-33.82727765,43.58397035,51.47580475,1.445210609,2.255023649e-09,29.55730246,176.1524118,-46.78610962,0.2091714801,3.263791669e-10,-3.974546226,7.146670028,207.2255547,54.42181268,8.491667157e-08,
104000000,-3.574103249,-21.94350266,133.6617811,-118.026941,-1.806208758e-07,-32.9477378,42.52194447,51.66359661,1.573667213,2.408239575e-09,29.55153097,175.386766,-46.78691889,0.2508841394,3.839370281e-10,-4.026138053,5.946750513,209.2883251,45.14459519,6.908639882e-08,
106000000,-3.501669676,-22.42505033,131.0696292,-120.7274069,-1.812675809e-07,-33.07929186,38.95438771,51.73490624,1.443801057,2.167812028e-09,29.5621594,174.6229178,-46.79410769,0.2919981998,4.384241215e-10,-4.003397717,4.775585648,213.9211104,37.30534266,5.601254423e-08,
108000000,-3.483429417,-22.70064224,129.5484436,-121.3815659,-1.788747798e-07,-33.27811303,37.06510731,51.7425649,1.352987116,1.993838772e-09,29.55560534,173.926551,-46.79530302,0.3299381094,4.862155651e-10,-4.047604018,3.299111785,215.2361947,25.64248428,3.778822339e-08,
110000000,-3.553079843,-24.04669773,122.5244304,-118.7119297,-1.717599129e-07,-34.4735771,38.33606657,51.48994204,1.207289488,1.746782635e-09,29.5464078,172.9475087,-46.79772136,0.3833005103,5.545833718e-10,-4.068939448,1.646627883,216.5574729,12.81001523,1.853433859e-08,
112000000,-3.523490071,-22.95616697,128.1824794,-119.927276,-1.704198106e-07,-32.86525256,39.32890327,51.76836135,1.492756048,2.12124557e-09,29.57315829,172.5600373,-46.80974443,0.4031017859,5.728182303e-10,-4.090176053,1.071345778,215.9352893,8.265024574,1.17448171e-08,
114000000,-3.495927851,-23.11821346,127.2908834,-120.8841308,-1.687658506e-07,-32.62496128,39.01403603,51.82694488,1.526082644,2.130557862e-09,29.59214444,171.9381949,-46.82075026,0.4357266853,6.08316279e-10,-4.123949125,-0.02721569111,214.5622422,-0.2068022468,-2.887157879e-10,
116000000,-3.554714356,-23.43927669,125.6510169,-118.7843044,-1.629750794e-07,-32.98092698,40.4316651,51.71519788,1.505766851,2.065950324e-09,29.57521069,171.4463134,-46.81835531,0.4630000936,6.352478754e-10,-4.215565835,-1.216839841,209.6782355,-8.824135055,-1.210693718e-08,
118000000,-3.534178852,-23.41654006,125.7487427,-119.4959818,-1.611726795e-07,-32.66167164,39.69939916,51.80022942,1.541171607,2.078687114e-09,29.5730483,170.7871182,-46.82276806,0.4985559312,6.724376344e-10,-4.247802146,-2.574947357,206.826918,-18.26337878,-2.463311026e-08,
120000000,-3.574415575,-23.9906011,122.8445928,-118.0128133,-1.565193548e-07,-32.76252555,41.2672416,51.73552862,1.571031155,2.083644784e-09,29.57793255,170.2000082,-46.82943207,0.5298032025,7.026733212e-10,-4.287069423,-3.763544767,203.1779941,-25.95377888,-3.442226834e-08,
122000000,-3.536331912,-24.18091184,121.810144,-119.2319208,-1.555438489e-07,-32.56789016,40.03082318,51.81049266,1.569059782,2.046914921e-09,29.56149726,169.5408497,-46.82952159,0.5661279835,7.385415327e-10,-4.265178226,-5.246962437,200.8792748,-35.94803944,-4.689596862e-08,
124000000,-4.516366965,-26.83841075,110.5236121,-91.77373534,-1.177922873e-07,-35.03040957,51.38223769,51.09853634,1.415426177,1.816710263e-09,28.5332744,169.4471261,-46.4457674,0.6378396511,8.186720433e-10,-5.919484616,-7.19680495,147.5531566,-25.13280802,-3.225815024e-08,
126000000,-3.549063985,-24.4126824,120.6717887,-118.7298422,-1.499717562e-07,-32.47317485,40.19621101,51.82567749,1.592193459,2.01115444e-09,29.59695713,168.6228481,-46.8508776,0.6129567273,7.742467702e-10,-4.409727066,-7.328328294,189.4315462,-45.60933364,-5.761072143e-08,
128000000,-3.560673587,-24.61974147,119.6706255,-118.2732141,-1.47060677e-07,-32.28768215,39.8011332,51.87685927,1.614882077,2.007941133e-09,29.56705896,168.178276,-46.84490575,0.6386926094,7.941491086e-10,-4.388188388,-8.384418044,186.813222,-51.69111659,-6.427263061e-08,
130000000,-3.563179399,-25.21123292,116.7946613,-117.9374503,-1.443871399e-07,-32.73960378,37.13295734,51.85306564,1.444949324,1.769006365e-09,29.5613813,167.8595114,-46.8462807,0.6561083887,8.032530252e-10,-4.444948723,-9.735771016,180.2573037,-57.0431323,-6.983612673e-08,
132000000,-3.624118509,-25.10529059,117.4745854,-116.0600393,-1.399358254e-07,-32.54445058,42.05733559,51.75659933,1.636846975,1.973577934e-09,29.55402293,167.4077121,-46.84862886,0.6807496426,8.207929593e-10,-4.462201802,-10.75675589,175.9909969,-61.20997888,-7.38020508e-08,
134000000,-3.618208306,-25.37428864,116.1851257,-116.1352403,-1.37936549e-07,-32.35955826,39.77952327,51.86194366,1.600373104,1.900800674e-09,29.53320448,167.0154198,-46.84573805,0.7032425838,8.35257712e-10,-4.510160677,-12.09094684,169.6026592,-65.43664624,-7.772063962e-08,
136000000,-3.677426406,-25.77584753,114.4911008,-114.1524296,-1.335876723e-07,-32.70720253,42.97930912,51.69696985,1.632987833,1.911015335e-09,29.53393643,166.4542433,-46.85258658,0.7331247441,8.579443156e-10,-4.535113959,-12.54745393,167.2141698,-66.5118553,-7.783595989e-08,
138000000,-3.577498508,-25.99046133,113.170734,-117.0718153,-1.35018537e-07,-32.01209202,37.78229905,51.99751751,1.599200593,1.844352749e-09,29.52679962,166.1225046,-46.85410504,0.7513738068,8.665569236e-10,-4.518626405,-14.22984786,160.8741665,-72.69130142,-8.383463726e-08,
140000000,-3.606555779,-26.07634449,112.8867283,-116.1402154,-1.320306384e-07,-31.79514515,40.04689586,51.97926716,1.721396885,1.956920166e-09,29.50717357,165.6025049,-46.85372153,0.7807038707,8.875205722e-10,-4.502526188,-14.94319327,158.2576656,-75.3061239,-8.560958474e-08,
