Frequency,S11_Magnitude,S11_Phase,S11_Resistance,S11_Reactance,S11_Inductance,S12_Magnitude,S12_Phase,S12_Resistance,S12_Reactance,S12_Inductance,S21_Magnitude,S21_Phase,S21_Resistance,S21_Reactance,S21_Inductance,S22_Magnitude,S22_Phase,S22_Resistance,S22_Reactance,S22_Inductance,
1000000,-1.17083828,-2.735280516,660.2967169,-233.0538974,-3.709167978e-05,-42.07427066,-129.4239677,49.49869686,-0.6023066493,-9.586008049e-08,9.065292968,-62.31405138,-54.97087003,-39.13750021,-6.228926618e-06,-0.3640576924,-176.6209523,1.048600018,-1.474167093,-2.346209798e-07,
1199000,-0.9276726773,-2.936693169,761.9261928,-364.7983647,-4.84232385e-05,-50.82411414,-101.3949786,49.94241651,-0.2816121175,-3.738111805e-08,9.856901923,-64.15960623,-54.46754376,-35.15182028,-4.666043333e-06,-0.1824041414,-179.3586076,0.5249984735,-0.2798323029,-3.714486593e-08,
1398000,-0.85448813,-3.470764172,737.8646478,-453.3373723,-5.161007417e-05,-47.82627159,-109.1321268,49.86559575,-0.3826912387,-4.356738363e-08,10.45657191,-66.99607911,-53.18298519,-32.28167834,-3.675099198e-06,-0.1445793554,178.470287,0.416197386,0.6674566024,7.598642173e-08,
1597000,-0.7446762935,-3.539672612,768.4616695,-552.7150053,-5.508285862e-05,-54.43464102,-116.5262099,49.91502364,-0.1695207499,-1.689421747e-08,11.03266674,-68.83717844,-52.57156784,-29.88734601,-2.978534035e-06,-0.1825996858,176.8886477,0.5259323743,1.357767129,1.353133063e-07,
1796000,-0.6849230289,-3.570847008,781.224903,-616.4048707,-5.462354239e-05,-50.79411299,-112.6449361,49.88830022,-0.2657573801,-2.355044582e-08,11.60995285,-70.85158333,-51.91303102,-27.6790811,-2.452818807e-06,-0.1611633009,175.8389559,0.4644640613,1.816239861,1.609485255e-07,
1995000,-0.6517393358,-3.364185255,827.2012285,-646.3262502,-5.156191357e-05,-47.14268351,108.2697698,49.86070568,0.4161014431,3.319528897e-08,12.07063711,-72.43076115,-51.44038492,-26.05488795,-2.07857855e-06,-0.2116545251,174.5562098,0.6105371847,2.376736411,1.896086959e-07,
2194000,-0.6046566338,-3.562914323,799.54476,-713.1819888,-5.173493111e-05,-52.82124199,4.453761466,50.22835424,0.01782731683,1.293211302e-09,12.54208301,-74.06146695,-50.98400913,-24.50310146,-1.777479361e-06,-0.1577958674,173.8988391,0.4554503006,2.664431563,1.932805167e-07,
2393000,-0.6128047973,-3.84017728,745.6118276,-707.2096035,-4.703548023e-05,-60.41481106,30.09053121,50.08253365,0.04787761714,3.184270552e-09,12.93240713,-75.47714288,-50.60498885,-23.29109856,-1.549057027e-06,-0.1688712482,173.0113534,0.4878473267,3.052869071,2.030418735e-07,
2592000,-0.6196060094,-3.963263886,723.0878888,-700.0119858,-4.298239497e-05,-61.29009817,126.8339557,49.94830388,0.06891921701,4.231803264e-09,13.35044833,-77.03391209,-50.21179323,-22.06248187,-1.354688676e-06,-0.1538950018,172.1086346,0.4450409007,3.448439246,2.117423426e-07,
2791000,-0.6347799657,-4.053861814,706.9202595,-683.2173745,-3.896002234e-05,-56.04291808,145.7334453,49.86975683,0.08856549451,5.050389193e-09,13.70216955,-78.29330993,-49.92280151,-21.08699449,-1.20247202e-06,-0.1468263573,170.9276569,0.4252499049,3.96656293,2.261906476e-07,
2990000,-0.6165014307,-4.464881945,639.4295347,-700.7385884,-3.729966895e-05,-48.89843959,77.44560201,50.07686185,0.350946257,1.868054567e-08,14.06001455,-79.73003805,-49.59359293,-20.129668,-1.071483667e-06,-0.175009571,170.4024618,0.5072505778,4.197106589,2.234081138e-07,
3189000,-0.6977156124,-4.328858504,661.2174329,-620.655656,-3.097535767e-05,-61.78446761,-162.7487455,49.92228926,-0.02411113243,-1.203325779e-09,14.35167182,-80.82560991,-49.36819973,-19.38862416,-9.676373081e-07,-0.1495003374,169.4979643,0.4339200897,4.594907146,2.293202212e-07,
3388000,-0.6996710675,-4.699762096,610.1316854,-619.92696,-2.912173555e-05,-55.53374586,76.30264332,50.03935021,0.1626017536,7.63839222e-09,14.66635385,-82.1478033,-49.0950021,-18.61005831,-8.742275003e-07,-0.1436050558,168.9338542,0.4171975299,4.843249101,2.275168344e-07,
3587000,-0.7090442334,-5.018436553,570.1204816,-610.2611986,-2.707724738e-05,-49.41507002,62.16950755,50.15726839,0.3000758161,1.33143433e-08,14.96323193,-83.25855952,-48.89611869,-17.91454061,-7.948669336e-07,-0.1798592375,168.0619728,0.5233165638,5.227307386,2.319352689e-07,
3786000,-0.7920374148,-5.274272822,543.898635,-547.5342779,-2.301711221e-05,-52.18795049,46.98005319,50.16766284,0.1803206183,7.5802741e-09,15.23544085,-84.28435073,-48.72247433,-17.29937735,-7.27226999e-07,-0.1768591524,167.2098035,0.5154177773,5.603479135,2.35557687e-07,
3985000,-0.8112534464,-5.210793389,550.3635993,-534.3903338,-2.134275111e-05,-57.33811943,87.51111523,50.00571591,0.1357483615,5.421586638e-09,15.50373468,-85.4343595,-48.52194712,-16.70345213,-6.671109094e-07,-0.1590454514,166.5981833,0.4640750099,5.873954521,2.34596963e-07,
4184000,-0.8523585606,-5.425656085,528.4906729,-508.4085764,-1.933932554e-05,-52.55948663,58.07321779,50.1243049,0.2003886954,7.62257443e-09,15.76482482,-86.50599973,-48.35174035,-16.14597523,-6.141758531e-07,-0.1768829807,165.6796808,0.517125763,6.28048841,2.38903149e-07,
4383000,-0.9053459101,-5.502251464,519.7837728,-477.2945252,-1.733145859e-05,-52.89361574,83.01754101,50.02705165,0.2250729804,8.172821672e-09,15.98991559,-87.47494817,-48.20146573,-15.67642133,-5.692402336e-07,-0.2002431382,164.8330147,0.5865344557,6.655863015,2.416868582e-07,
4582000,-0.9222307611,-5.690928706,503.1632573,-469.0445857,-1.629217904e-05,-48.36368682,78.47388966,50.07494128,0.3746492155,1.301337289e-08,16.22760391,-88.39754562,-48.077337,-15.2018937,-5.280350343e-07,-0.1984457491,164.162223,0.582197101,6.953949763,2.4154419e-07,
4781000,-0.9861260893,-5.838625134,488.7570724,-436.9969453,-1.454721271e-05,-51.28192426,73.39706035,50.07733547,0.2618685261,8.717354187e-09,16.44365144,-89.33521253,-47.94617551,-14.77526178,-4.918544129e-07,-0.1994568952,163.4902137,0.5861391784,7.253038567,2.41446756e-07,
4980000,-1.029276604,-5.769227021,491.0394047,-415.5693301,-1.328110705e-05,-46.43357147,96.04104202,49.94760343,0.4736499423,1.51372951e-08,16.65003582,-90.27529737,-47.81693717,-14.37475628,-4.594003046e-07,-0.2441758539,162.6171751,0.7191672893,7.641860636,2.442248785e-07,
5179000,-1.040999373,-5.973014216,475.9946569,-412.2975111,-1.26702427e-05,-48.3474871,82.98060641,50.04532158,0.3799777037,1.167702835e-08,16.88411717,-91.12030596,-47.73011689,-13.94844214,-4.286471354e-07,-0.2433015186,161.881529,0.7180303652,7.97061683,2.449436316e-07,
5378000,-1.056335267,-6.063391268,468.9548555,-406.3081881,-1.202416448e-05,-50.37779644,58.52971826,50.15764221,0.2590508456,7.666274189e-09,17.1249625,-91.91121134,-47.66395157,-13.52796504,-4.003426005e-07,-0.2339178976,161.0568038,0.6919638186,8.340098763,2.468144188e-07,
5577000,-1.050199903,-6.183906774,461.3021364,-409.9840562,-1.170001598e-05,-51.54521479,63.2254401,50.11882025,0.23687568,6.759895171e-09,17.35004504,-92.79444421,-47.57452863,-13.135732,-3.74864027e-07,-0.236381088,160.1140592,0.7012199072,8.763370437,2.500867354e-07,
5776000,-1.043356366,-6.337714925,451.4916113,-413.9153113,-1.140524027e-05,-47.82505962,58.09953181,50.21392282,0.3463373502,9.543161575e-09,17.55914039,-93.59021454,-47.50165516,-12.782467,-3.522148212e-07,-0.2751249168,159.3770536,0.8180100253,9.094526453,2.50595367e-07,
5975000,-1.02171916,-6.388588126,448.7624969,-423.5261456,-1.128138571e-05,-46.93824242,77.5934041,50.09481127,0.4402073348,1.172571938e-08,17.79289934,-94.3570872,-47.45051033,-12.40648982,-3.304693189e-07,-0.2838231694,158.4517508,0.8464064382,9.511978623,2.533687726e-07,
6174000,-1.043599495,-6.595588363,434.9533686,-414.8108162,-1.069309878e-05,-49.59112076,62.13009052,50.15432858,0.293930697,7.577020303e-09,17.9735446,-95.16481962,-47.37038345,-12.10803725,-3.121240653e-07,-0.2645935538,157.6990292,0.7910808398,9.852995754,2.539930318e-07,
6373000,-1.049359462,-6.602667379,434.4072265,-412.4451982,-1.030012428e-05,-47.50355292,78.27455598,50.08402866,0.4134289256,1.032469122e-08,18.14830236,-95.83437365,-47.31877292,-11.83303954,-2.95510236e-07,-0.2844955683,156.853144,0.8530987426,10.23650196,2.556393986e-07,
6572000,-1.041701135,-6.848836864,419.2860053,-415.9109891,-1.007216826e-05,-44.69983644,68.88836409,50.20714258,0.5453111358,1.320586774e-08,18.36211707,-96.61660089,-47.2664577,-11.50678378,-2.786612169e-07,-0.3054932339,156.2027743,0.9182110251,10.53198635,2.550544261e-07,
6771000,-1.036970338,-6.83412076,420.1842871,-417.8172212,-9.820953488e-06,-48.02370114,81.06711234,50.06014556,0.3926847942,9.230206183e-09,18.55923054,-97.40010844,-47.20995254,-11.2089167,-2.634698715e-07,-0.3173862613,155.2504746,0.9573633065,10.9662897,2.57766831e-07,
6970000,-1.065876569,-6.883239018,417.1270774,-406.3604198,-9.278948276e-06,-47.71669627,69.33622303,50.14386656,0.385959564,8.813109389e-09,18.72656128,-98.01521158,-47.17387761,-10.9648375,-2.503741877e-07,-0.3160488142,154.5631934,0.9558775212,11.28093886,2.575921353e-07,
7169000,-1.036220824,-7.20341356,398.147158,-417.4908301,-9.268479469e-06,-45.07639057,80.48566862,50.08919236,0.5507474453,1.222683475e-08,18.90460793,-98.85904643,-47.10451163,-10.69732131,-2.374852231e-07,-0.3338694255,153.636544,1.013521241,11.70601122,2.598785812e-07,
7368000,-1.033427798,-7.188226082,398.9712491,-418.6111982,-9.0423509e-06,-43.05162649,73.41579298,50.19669521,0.6771621786,1.462726764e-08,19.0814886,-99.54945472,-47.0649518,-10.44701494,-2.25664233e-07,-0.3916400834,153.0825575,1.191553648,11.95941804,2.583334009e-07,
7567000,-1.054518287,-7.287314297,393.7072175,-410.3368753,-8.630519629e-06,-44.74857348,79.58892395,50.10146296,0.5705014962,1.199922468e-08,19.23085096,-100.1919523,-47.02356331,-10.23554516,-2.1528183e-07,-0.360370915,152.441963,1.099424149,12.25617289,2.57781221e-07,
7766000,-1.058593497,-7.271508541,394.6678805,-408.8628872,-8.379159096e-06,-43.46562793,88.71317296,50.01056921,0.6709967355,1.375128087e-08,19.38833859,-100.8519766,-46.98518597,-10.01765247,-2.052998852e-07,-0.3933295573,151.4435781,1.205168801,12.71764899,2.60633106e-07,
7965000,-1.08279171,-7.511926306,381.9206132,-399.4863905,-7.982452448e-06,-46.4292434,62.35288873,50.22004326,0.4244254498,8.48077945e-09,19.55149144,-101.5925367,-46.93871022,-9.792155781,-1.956647829e-07,-0.3872971935,150.8790393,1.189701467,12.9803154,2.593699132e-07,
8164000,-1.112225649,-7.375159623,389.4999215,-389.3959314,-7.59116699e-06,-46.48633579,71.85469192,50.14576574,0.4516522059,8.804836002e-09,19.68444469,-102.122107,-46.91454506,-9.616508948,-1.874712071e-07,-0.4151479045,150.1878204,1.279265082,13.30152569,2.593095988e-07,
8363000,-1.109226647,-7.698375805,372.7138741,-389.9049315,-7.42021968e-06,-42.91964004,60.03203553,50.35432264,0.6234155946,1.186412453e-08,19.83583526,-102.909269,-46.86033978,-9.40718393,-1.790266439e-07,-0.4144424156,149.5865274,1.280700373,13.58270841,2.584903962e-07,
8562000,-1.137518565,-7.693538401,373.3386355,-380.5534382,-7.073926746e-06,-44.66273665,59.49007499,50.29512125,0.5066521983,9.417916583e-09,19.97639112,-103.4818752,-46.83653899,-9.226743104,-1.715115363e-07,-0.4510972311,148.6008991,1.400550349,14.04372277,2.610520787e-07,
8761000,-1.129425878,-7.948651048,360.7417173,-382.5662308,-6.949812429e-06,-42.86661181,69.63982212,50.24617113,0.6773407935,1.230477519e-08,20.11075596,-104.1999035,-46.78998687,-9.045300455,-1.643196301e-07,-0.4812903814,148.1171607,1.497811533,14.27011094,2.59235098e-07,
8960000,-1.163709748,-7.728817804,371.7718293,-372.066174,-6.608947629e-06,-47.3594251,70.54557739,50.14130451,0.4052575186,7.198519788e-09,20.2401969,-104.7710464,-46.76484967,-8.881239885,-1.577559407e-07,-0.4787253741,147.2253189,1.496565472,14.69167149,2.609656406e-07,
9159000,-1.16848578,-7.85992158,365.532803,-370.4594342,-6.437433145e-06,-44.7653233,59.09614267,50.29513142,0.4986627348,8.665207902e-09,20.38126881,-105.369783,-46.74249756,-8.706783944,-1.512968341e-07,-0.4844201304,146.5878703,1.519366185,14.99377534,2.605451972e-07,
9358000,-1.161769903,-7.937549814,361.8087537,-372.4370315,-6.334173386e-06,-42.89399222,74.22146433,50.1904651,0.6922984976,1.177417482e-08,20.52653417,-105.9272104,-46.72934435,-8.534078976,-1.451422156e-07,-0.5061855205,145.74898,1.594662959,15.39206701,2.617785369e-07,
9557000,-1.139799015,-8.23725199,347.4347936,-378.2476669,-6.299046343e-06,-42.62925861,60.74966821,50.35811313,0.6492654016,1.081236769e-08,20.67355981,-106.6485575,-46.69592617,-8.351564847,-1.390805512e-07,-0.5051209719,145.170087,1.596313474,15.66883005,2.609366699e-07,
9756000,-1.161746701,-8.248892405,347.4699774,-371.6188271,-6.062420385e-06,-42.53960628,66.89417287,50.28904768,0.6906086398,1.126627499e-08,20.79731662,-107.2558254,-46.66948987,-8.200221976,-1.337746886e-07,-0.536676038,144.521511,1.702041973,15.97796367,2.606572262e-07,
9955000,-1.186543809,-8.302390942,345.5959974,-364.1740421,-5.822209838e-06,-44.16917516,63.64046833,50.27240036,0.55749105,8.912853474e-09,20.9185393,-107.8662955,-46.64302005,-8.052919336,-1.287455468e-07,-0.5388932456,143.7355254,1.716665367,16.35622922,2.614941969e-07,
10154000,-1.15626137,-8.3911546,340.9663686,-372.6776919,-5.841392244e-06,-42.50232408,75.58971957,50.18161858,0.7287855716,1.142306738e-08,21.05954415,-108.4442429,-46.63108585,-7.89300234,-1.237158104e-07,-0.565971132,142.959257,1.810943468,16.72977849,2.62224438e-07,
10353000,-1.158438594,-8.398391254,340.7083783,-372.0099304,-5.718846644e-06,-43.24315973,71.09784627,50.21923831,0.6541652109,1.005637273e-08,21.19449232,-108.9637835,-46.62509048,-7.744632089,-1.19056938e-07,-0.5762899048,142.2974289,1.851137301,17.05038633,2.621127467e-07,
10552000,-1.149784641,-8.561219236,333.2875762,-373.7188812,-5.636770969e-06,-40.92228374,73.19782089,50.25315677,0.8652989866,1.305123303e-08,21.30619039,-109.5385812,-46.60292317,-7.613833218,-1.148388166e-07,-0.6029877723,141.6943551,1.94382795,17.34226813,2.615719956e-07,
10751000,-1.155285927,-8.39575231,340.7340075,-372.9427928,-5.520945863e-06,-43.2569069,75.65465338,50.1661267,0.6681266683,9.890769405e-09,21.43607805,-110.1005109,-46.59164742,-7.47090725,-1.105973229e-07,-0.5960569915,140.8395148,1.931599551,17.7612087,2.629322072e-07,
10950000,-1.188769104,-8.730577982,327.3913563,-361.9657383,-5.261062692e-06,-41.69980794,68.31925966,50.29880549,0.7687097427,1.117296396e-08,21.5345156,-110.6927906,-46.56395803,-7.35281351,-1.068709238e-07,-0.6009188269,140.3232349,1.953625333,18.01458196,2.618365084e-07,
11149000,-1.180256983,-8.749553321,326.3358799,-364.200801,-5.199063392e-06,-41.94263576,75.7957179,50.19054572,0.7781494415,1.110829044e-08,21.66632271,-111.3410384,-46.54579479,-7.206328976,-1.028722646e-07,-0.6234015772,139.4668677,2.037703067,18.43541028,2.631703896e-07,
11348000,-1.226118431,-8.727798083,328.4656687,-351.9100516,-4.935515001e-06,-42.375147,55.56273689,50.42807853,0.6328348111,8.875466016e-09,21.76940305,-111.8059274,-46.53747784,-7.096092843,-9.952222882e-08,-0.6272317301,139.0883884,2.055232248,18.62262108,2.611810185e-07,
11547000,-1.216610164,-8.845418166,323.5136822,-354.0019123,-4.879289357e-06,-42.65181201,67.91004158,50.27318959,0.6865768597,9.463245955e-09,21.88996028,-112.4207016,-46.52064854,-6.964039675,-9.59869523e-08,-0.6518526846,138.2617091,2.147436101,19.03159148,2.6231678e-07,
11746000,-1.207437776,-8.858406505,322.7372979,-356.3709197,-4.828724115e-06,-41.36894928,77.79397669,50.17391764,0.8378412843,1.135250995e-08,21.99692927,-112.8663455,-46.51790262,-6.855027787,-9.28836674e-08,-0.6914564828,137.4698984,2.28984876,19.42360595,2.631843095e-07,
11945000,-1.241426027,-9.056147928,315.9327265,-346.7540533,-4.620144129e-06,-40.55181836,57.8349162,50.49569378,0.8023571675,1.069059099e-08,22.10397458,-113.3530234,-46.51132731,-6.744568346,-8.986449487e-08,-0.6911082473,136.8868829,2.297830665,19.71646629,2.627018058e-07,
12144000,-1.245290535,-9.130133504,313.2246328,-345.4838052,-4.527787826e-06,-41.078245,66.55469206,50.34602871,0.8160084455,1.069431635e-08,22.20068565,-113.9370523,-46.49048515,-6.636306829,-8.697307606e-08,-0.7207531878,136.2151631,2.407430385,20.05207146,2.627953139e-07,
12343000,-1.257947597,-9.003654751,318.3316857,-342.7849898,-4.419989107e-06,-41.77840741,64.87474616,50.34168749,0.742844587,9.578496959e-09,22.29793681,-114.3687179,-46.48713196,-6.538935169,-8.431530865e-08,-0.7066347339,135.6947884,2.369020649,20.31717988,2.619767972e-07,
12542000,-1.285204696,-9.1411616,313.741183,-335.6330666,-4.259102345e-06,-40.91569869,60.24830589,50.44240641,0.788293384,1.000325217e-08,22.40578701,-114.8977368,-46.47883218,-6.428877518,-8.158089902e-08,-0.7464112522,135.0307131,2.514041765,20.65029732,2.620472727e-07,
12741000,-1.296889201,-9.131575381,314.3022617,-332.8353413,-4.157632039e-06,-40.73628231,53.53568333,50.54346738,0.7469582085,9.330671938e-09,22.50008389,-115.4190198,-46.46625075,-6.329843734,-7.906961143e-08,-0.7477248491,134.4517669,2.529065413,20.94581751,2.616458986e-07,
12940000,-1.298580028,-9.073794559,316.4452562,-332.5653017,-4.090371844e-06,-41.93148867,64.84566537,50.33616582,0.7296117519,8.97382665e-09,22.57763263,-115.9857046,-46.44255869,-6.239978907,-7.674833755e-08,-0.7803392031,133.7140742,2.65355621,21.32022127,2.622270945e-07,
13139000,-1.29342242,-9.376770156,305.4051945,-332.9176085,-4.03268765e-06,-41.00182665,64.05197331,50.38492093,0.8074689611,9.781008947e-09,22.68999042,-116.4682834,-46.44348524,-6.133526358,-7.429644862e-08,-0.8087340452,133.0667855,2.763282128,21.65017129,2.622522094e-07,
13338000,-1.288580194,-9.48583212,301.4355048,-333.6355994,-3.981088232e-06,-40.43214199,65.28047928,50.39191079,0.8711316541,1.039473001e-08,22.79695956,-117.0282605,-46.43513702,-6.026806345,-7.191453148e-08,-0.8055730292,132.2898305,2.768866655,22.05333583,2.631502031e-07,
13537000,-1.315701796,-9.560562444,299.5131032,-327.1573589,-3.84639956e-06,-40.20149521,59.60861173,50.48954958,0.851142881,1.000691415e-08,22.88140483,-117.555345,-46.42100196,-5.937822553,-6.981117016e-08,-0.8231378406,131.9295444,2.836987741,22.23837548,2.614572936e-07,
13736000,-1.321331403,-9.389120525,305.5446586,-326.4076186,-3.781987913e-06,-42.37360624,59.03374469,50.38873296,0.657547978,7.618812683e-09,22.9711452,-118.0183473,-46.41605126,-5.850575183,-6.778887306e-08,-0.8207283742,131.2093802,2.844695662,22.61516422,2.620351758e-07,
13935000,-1.315828067,-9.708378675,294.5069169,-326.5838578,-3.729991769e-06,-39.57790666,60.54942928,50.51034697,0.9235734046,1.054835111e-08,23.07942153,-118.4939452,-46.41860424,-5.751973525,-6.569465512e-08,-0.862694373,130.6900761,3.002128275,22.88145536,2.613345336e-07,
14134000,-1.318494619,-9.83828674,290.2559161,-325.4700435,-3.664933229e-06,-39.82147382,68.19549768,50.3715131,0.9548786496,1.075234591e-08,23.16460852,-119.0801449,-46.40155057,-5.661281826,-6.374847792e-08,-0.8976438337,129.82603,3.145245461,23.33184442,2.627266429e-07,
14333000,-1.352657588,-9.714957246,295.1196816,-318.497394,-3.536624197e-06,-41.62022425,57.04078528,50.44859535,0.7025702845,7.801404706e-09,23.24580659,-119.6589282,-46.38435058,-5.574242965,-6.189690378e-08,-0.8610317657,129.1869183,3.033181037,23.67739179,2.629159243e-07,
14532000,-1.342049733,-9.889232312,289.2100372,-320.1945402,-3.50678116e-06,-40.49424305,59.92749525,50.46885102,0.8252639805,9.038318322e-09,23.33499978,-120.0714614,-46.38630673,-5.494231861,-6.017300848e-08,-0.9000239385,128.4908742,3.188565973,24.04241841,2.63313359e-07,
14731000,-1.345296944,-9.94457475,287.5095768,-319.2966475,-3.449707404e-06,-40.55323003,63.5251793,50.41290931,0.8469051623,9.150033461e-09,23.41660629,-120.5322073,-46.38115513,-5.416263507,-5.851775916e-08,-0.907006318,128.0020657,3.226507038,24.30342824,2.6257625e-07,
14930000,-1.350523419,-9.930295436,288.0949379,-318.2456187,-3.392522661e-06,-39.90331306,66.76180757,50.39183242,0.9365353537,9.983538575e-09,23.49974677,-121.0410821,-46.37305949,-5.334959484,-5.687107656e-08,-0.926907992,127.2260155,3.319039336,24.71829157,2.634988807e-07,
