Frequency,S11_Magnitude,S11_Magnitude (linear),S11_Phase,S11_Unwrapped Phase,S11_VSWR,
30000000,-0.942829174,0.897136531,-134.2679996,-134.2679996,18.4432486,
30104444,-0.9721987541,0.8941081679,-137.7294727,-137.7294727,17.88719801,
30208888,-0.9777796935,0.8935338617,-141.4209008,-141.4209008,17.78531551,
30313333,-0.9884505718,0.8924368023,-145.0876828,-145.0876828,17.59372018,
30417777,-0.9989130291,0.8913624782,-148.7538346,-148.7538346,17.40984557,
30522222,-1.010427825,0.8901815909,-152.4046256,-152.4046256,17.21188283,
30626666,-1.021539399,0.8890435389,-156.083769,-156.083769,17.02508821,
30731111,-1.033363898,0.8878340666,-159.7629665,-159.7629665,16.83072577,
30835555,-1.046170108,0.8865260357,-163.4389919,-163.4389919,16.62518841,
30940000,-1.058681034,0.8852500263,-167.1232583,-167.1232583,16.42919789,
31044444,-1.071111912,0.883984,-170.8429432,-170.8429432,16.23900151,
31148888,-1.083097462,0.8827650427,-174.5420993,-174.5420993,16.059758,
31253333,-1.095325749,0.8815231309,-178.2462736,-178.2462736,15.88093225,
31357777,-1.107774603,0.8802606129,178.0533874,-181.9466126,15.70294168,
31462222,-1.121289546,0.8788920229,174.3188972,-185.6811028,15.51418881,
31566666,-1.131793796,0.8778297804,170.6161727,-189.3838273,15.37060166,
31671111,-1.145042863,0.8764917989,166.8905565,-193.1094435,15.19325665,
31775555,-1.161020844,0.8748809453,163.1431604,-196.8568396,14.9847755,
31880000,-1.173048423,0.8736703131,159.4101601,-200.5898399,14.83159152,
31984444,-1.186007146,0.8723678316,155.668343,-204.331657,14.67003073,
32088888,-1.201082641,0.8708550366,151.9218,-208.0782,14.48647309,
32193333,-1.21510651,0.8694501255,148.1704548,-211.8295452,14.31981557,
32297777,-1.230231156,0.8679374787,144.3935873,-215.6064127,14.1443421,
32402222,-1.246559745,0.8663073772,140.6254992,-219.3745008,13.95968857,
32506666,-1.264506778,0.8645192362,136.8329782,-223.1670218,13.76224332,
32611111,-1.282078238,0.8627720911,133.0430053,-226.9569947,13.5742948,
32715555,-1.303517114,0.8606451868,129.2386672,-230.7613328,13.35185448,
32820000,-1.325554255,0.8584643947,125.4246947,-234.5753053,13.13071994,
32924444,-1.353356067,0.855721013,121.600258,-238.399742,12.86203246,
33028888,-1.383450767,0.8527612581,117.7922158,-242.2077842,12.58338148,
33133333,-1.422380238,0.8489478017,113.9898269,-246.0101731,12.2404561,
33237777,-1.470925782,0.8442162567,110.2398098,-249.7601902,11.83831007,
33342222,-1.52745469,0.8387398266,106.5620136,-253.4379864,11.4023183,
33446666,-1.587582834,0.8329536935,103.0140669,-256.9859331,10.97272805,
33551111,-1.641925181,0.8277586751,99.64454422,-260.3554558,10.61161528,
33655555,-1.672627134,0.8248379673,96.43519858,-263.5648014,10.41799949,
33760000,-1.667656884,0.8253100921,93.25678008,-266.7432199,10.44885829,
33864444,-1.629742586,0.8289204817,89.99069194,-270.0093081,10.69047014,
33968888,-1.581882717,0.8335004989,86.51152107,-273.4884789,11.01204801,
34073333,-1.536191704,0.8378965742,82.9143154,-277.0856846,11.33780218,
34177777,-1.494396108,0.8419381613,79.19147695,-280.808523,11.65327555,
34282222,-1.458419561,0.8454326616,75.42055608,-284.5794439,11.93934424,
34386666,-1.434248572,0.847788598,71.61731874,-288.3826813,12.13962012,
34491111,-1.414550946,0.8497133717,67.81975506,-292.1802449,12.30790386,
34595555,-1.401602711,0.8509810016,64.03446512,-295.9655349,12.42110752,
34700000,-1.384953996,0.8526136873,60.25507584,-299.7449242,12.56978109,
34804444,-1.380380681,0.8530627256,56.45835839,-303.5416416,12.61125016,
34908888,-1.372111492,0.8538752498,52.6637545,-307.3362455,12.68693529,
35013333,-1.365832809,0.8544927053,48.89836287,-311.1016371,12.74501535,
35117777,-1.360085282,0.8550583175,45.12238918,-314.8776108,12.79865313,
35222222,-1.355700055,0.855490118,41.30943159,-318.6905684,12.83988398,
35326666,-1.350548351,0.8559976698,37.51496054,-322.4850395,12.88866414,
35431111,-1.347434646,0.8563045817,33.71142144,-326.2885786,12.91832825,
35535555,-1.344032101,0.8566400896,29.94134917,-330.0586508,12.95090158,
35640000,-1.341994523,0.856841068,26.23521508,-333.7647849,12.97048701,
35744444,-1.339502626,0.8570869226,22.57095829,-337.4290417,12.99452056,
35848888,-1.338948122,0.8571416405,18.91447133,-341.0855287,12.99988077,
35953333,-1.336655694,0.8573678919,15.20195748,-344.7980425,13.0220882,
36057777,-1.332637719,0.8577645904,11.50749472,-348.4925053,13.06119619,
36162222,-1.329231745,0.8581010092,7.803769114,-352.1962309,13.09453295,
36266666,-1.329211867,0.858102973,4.101617462,-355.8983825,13.09472801,
36371111,-1.326386811,0.8583821135,0.3740693351,-359.6259307,13.12250987,
36475555,-1.321428346,0.8588722732,-3.33700883,-363.3370088,13.17155966,
36580000,-1.31957778,0.8590552791,-7.052145692,-367.0521457,13.18996034,
36684444,-1.3169169,0.8593184868,-10.75833308,-370.7583331,13.21650901,
36788888,-1.313946041,0.8596124522,-14.48593015,-374.4859302,13.24627776,
36893333,-1.310754598,0.8599283563,-18.22776884,-378.2277688,13.27840744,
36997777,-1.308569094,0.8601447547,-21.96077825,-381.9607782,13.30050046,
37102222,-1.30458584,0.8605392981,-25.70617782,-385.7061778,13.34095751,
37206666,-1.304416771,0.8605560485,-29.47470377,-389.4747038,13.34268018,
37311111,-1.30025255,0.8609687184,-33.27907449,-393.2790745,13.38525185,
37415555,-1.299148931,0.8610781191,-37.16824692,-397.1682469,13.3965802,
37520000,-1.292245985,0.8617627165,-40.93531971,-400.9353197,13.46787689,
37624444,-1.294399837,0.8615490505,-44.43368124,-404.4336812,13.44554918,
37728888,-1.291666503,0.8618202112,-48.08691407,-408.0869141,13.47389678,
37833333,-1.291451153,0.8618415787,-51.78729122,-411.7872912,13.4761353,
37937777,-1.287846812,0.862199287,-55.52030223,-415.5203022,13.51371301,
38042222,-1.287912993,0.8621927177,-59.29491311,-419.2949131,13.51302113,
38146666,-1.286806405,0.8623025686,-63.02883618,-423.0288362,13.52459918,
38251111,-1.286195387,0.8623632303,-66.66366402,-426.663664,13.53100072,
38355555,-1.287163665,0.8622671018,-70.30629302,-430.306293,13.52085905,
38460000,-1.288255632,0.8621587068,-73.98076674,-433.9807667,13.50944019,
38564444,-1.285985233,0.8623840953,-77.68179357,-437.6817936,13.53320388,
38668888,-1.284634679,0.8625181963,-81.37863155,-441.3786315,13.5473797,
38773333,-1.285725406,0.8624098927,-85.04995133,-445.0499513,13.53592878,
38877777,-1.285233282,0.8624587565,-88.74698457,-448.7469846,13.5410929,
38982222,-1.290536769,0.8619323115,-92.43664137,-452.4366414,13.48564847,
39086666,-1.290275204,0.861958268,-96.12560206,-456.1256021,13.48837225,
39191111,-1.293574079,0.8616309609,-99.81064089,-459.8106409,13.45410052,
39295555,-1.296061694,0.8613842275,-103.4797865,-463.4797865,13.4283725,
39400000,-1.298326635,0.8611596414,-107.1581409,-467.1581409,13.40503338,
39504444,-1.299697338,0.8610237542,-110.8506401,-470.8506401,13.39094853,
39608888,-1.306501249,0.8603495533,-114.5171392,-474.5171392,13.32147227,
39713333,-1.311257121,0.8598786065,-118.1928141,-478.1928141,13.27333792,
39817777,-1.314932527,0.8595148285,-121.8799189,-481.8799189,13.23637797,
39922222,-1.318463924,0.8591654492,-125.5685177,-485.5685177,13.20106066,
40026666,-1.323576483,0.8586598888,-129.2529453,-489.2529453,13.1502648,
40131111,-1.329842464,0.8580406769,-132.9271048,-492.9271048,13.0885428,
40235555,-1.333826367,0.8576472149,-136.6049337,-496.6049337,13.04960218,
40340000,-1.33964348,0.8570730239,-140.291673,-500.291673,12.99315968,
40444444,-1.345620813,0.8564834183,-143.9768719,-503.9768719,12.93567193,
40548888,-1.352714817,0.8557841904,-147.6723625,-507.6723625,12.86810507,
40653333,-1.358540158,0.8552104365,-151.3720026,-511.3720026,12.81315028,
40757777,-1.365723955,0.8545034141,-155.0686791,-515.0686791,12.74602701,
40862222,-1.371769343,0.8539088858,-158.7634626,-518.7634626,12.69008657,
40966666,-1.377914334,0.853304986,-162.4460708,-522.4460708,12.63372855,
41071111,-1.386457162,0.852466148,-166.0809315,-526.0809315,12.55621082,
41175555,-1.394642501,0.8516631863,-169.7161219,-529.7161219,12.48282971,
41280000,-1.403340019,0.8508108097,-173.3595573,-533.3595573,12.405797,
41384444,-1.412159733,0.8499473288,-177.0191947,-537.0191947,12.32865309,
41488888,-1.419439114,0.8492353121,179.335036,-540.664964,12.26570583,
41593333,-1.428768364,0.8483236639,175.6615957,-544.3384043,12.18597253,
41697777,-1.437333405,0.8474875555,172.0124217,-547.9875783,12.11368398,
41802222,-1.446429188,0.846600539,168.3752171,-551.6247829,12.03785545,
41906666,-1.45427649,0.8458360197,164.7157437,-555.2842563,11.97319903,
42011111,-1.465037251,0.8447887805,161.0665778,-558.9334222,11.88566643,
42115555,-1.473799312,0.8439370131,157.4181374,-562.5818626,11.81533847,
42220000,-1.482691357,0.8430734876,153.7506865,-566.2493135,11.74481902,
42324444,-1.491537749,0.8422152725,150.0551784,-569.9448216,11.67549802,
42428888,-1.501403723,0.8412591752,146.4145352,-573.5854648,11.59915338,
42533333,-1.516367572,0.839811121,142.9026729,-577.0973271,11.48526123,
42637777,-1.526163212,0.8388645455,139.2821162,-580.7178838,11.4119177,
42742222,-1.533652257,0.8381415814,135.4828949,-584.5171051,11.35647807,
42846666,-1.54868667,0.8366920963,132.0386737,-587.9613263,11.24680469,
42951111,-1.561095809,0.8354976055,128.4338875,-591.5661125,11.15787774,
43055555,-1.572692034,0.8343829064,124.8274164,-595.1725836,11.07604817,
43160000,-1.583720368,0.8333241761,121.2065841,-598.7934159,10.99934071,
43264444,-1.597628317,0.8319909153,117.5913292,-602.4086708,10.90411818,
43368888,-1.60853681,0.8309466849,113.9754865,-606.0245135,10.83058728,
43473333,-1.621737127,0.8296848188,110.3740688,-609.6259312,10.7429344,
43577777,-1.634702688,0.8284472594,106.743816,-613.256184,10.65822238,
43682222,-1.650120468,0.8269780388,103.0821359,-616.9178641,10.55922627,
43786666,-1.660428739,0.825997177,99.3675525,-620.6324475,10.49406639,
43891111,-1.677465655,0.8243786148,95.83853608,-624.1614639,10.38813475,
43995555,-1.695785957,0.8226416656,92.32488118,-627.6751188,10.27660568,
44100000,-1.712950191,0.8210176441,88.78947321,-631.2105268,10.17428581,
44204444,-1.733898293,0.8190399493,85.23876366,-634.7612363,10.05216313,
44308888,-1.750499744,0.8174760029,81.68998153,-638.3100185,9.957463305,
44413333,-1.770124094,0.8156311342,78.13472817,-641.8652718,9.847818539,
44517777,-1.791970952,0.8135822265,74.59322762,-645.4067724,9.728590745,
44622222,-1.813665985,0.811552651,71.03211925,-648.9678808,9.613043963,
44726666,-1.835830771,0.8094843586,67.48589547,-652.5141045,9.497825718,
44831111,-1.860669422,0.807172819,63.95603005,-656.0439699,9.37198174,
44935555,-1.886550148,0.8047713233,60.41708567,-659.5829143,9.24439664,
45040000,-1.91272107,0.8023501655,56.88648579,-663.1135142,9.118905511,
45144444,-1.939247193,0.7999035798,53.35089176,-666.6491082,8.995181311,
45248888,-1.969440255,0.7971278583,49.7909169,-670.2090831,8.858426016,
45353333,-2.000583868,0.7942748415,46.20084231,-673.7991577,8.721708393,
45457777,-2.03068054,0.791527436,42.56175251,-677.4382475,8.593588535,
45562222,-2.067933867,0.7881398858,38.97804936,-681.0219506,8.440191268,
45666666,-2.107301236,0.784575854,35.59376647,-684.4062335,8.284010345,
45771111,-2.145470895,0.7811356435,32.0882903,-687.9117097,8.138080005,
45875555,-2.193839148,0.7767978996,28.76224588,-691.2377541,7.960489156,
45980000,-2.241749449,0.772524973,25.38105548,-694.6189445,7.792173921,
46084444,-2.290740038,0.7681800039,21.97468566,-698.0253143,7.62738346,
46188888,-2.343676643,0.7635125286,18.6013869,-701.3986131,7.457107636,
46293333,-2.398636264,0.7586966856,15.23791081,-704.7620892,7.288323783,
46397777,-2.456254618,0.753680483,11.88089978,-708.1191002,7.119535245,
46502222,-2.518631166,0.748287416,8.56330095,-711.4366991,6.945570174,
46606666,-2.584320164,0.7426496689,5.271212474,-714.7287875,6.771507391,
46711111,-2.650202941,0.7370379547,2.006408967,-717.993591,6.605660344,
46815555,-2.721563486,0.7310074881,-1.291016419,-721.2910164,6.435151209,
46920000,-2.793984622,0.724937839,-4.359984088,-724.3599841,6.271083718,
47024444,-2.868684868,0.7187299732,-7.291685942,-727.2916859,6.110604791,
47128888,-2.941599557,0.7127217662,-10.24181731,-730.2418173,5.961891868,
47233333,-3.014816039,0.7067392284,-13.15228987,-733.1522899,5.819868846,
47337777,-3.086898452,0.7008984143,-16.01551812,-736.0155181,5.686691396,
47442222,-3.153097282,0.6955768763,-18.81210352,-738.8121035,5.569803159,
47546666,-3.215091284,0.690629994,-21.52170102,-741.521701,5.464750821,
47651111,-3.268530605,0.6863939861,-24.17441945,-744.1744195,5.377428721,
47755555,-3.313088324,0.6828818717,-26.76809688,-746.7680969,5.306798072,
47860000,-3.348571009,0.6800979246,-29.32606418,-749.3260642,5.251913175,
47964444,-3.367797778,0.6785941495,-31.86757206,-751.8675721,5.222662086,
48068888,-3.374073346,0.6781040414,-34.39902759,-754.3990276,5.213187666,
48173333,-3.362831444,0.6789822605,-36.79271185,-756.7927118,5.230185296,
48277777,-3.338440677,0.6808915839,-39.25261019,-759.2526102,5.267462401,
48382222,-3.298802698,0.6840059272,-41.58963987,-761.5896399,5.329232641,
48486666,-3.246307261,0.6881524128,-44.02686642,-764.0268664,5.413389368,
48591111,-3.181350763,0.6933179782,-46.59788271,-766.5978827,5.521412595,
48695555,-3.105550948,0.6993948863,-49.07568995,-769.0756899,5.653246763,
48800000,-3.023328259,0.7060469594,-51.65582345,-771.6558235,5.803807831,
48904444,-2.931420658,0.7135574866,-54.357436,-774.357436,5.982203781,
49008888,-2.835547992,0.7214771821,-57.15098771,-777.1509877,6.180740219,
49113333,-2.743432895,0.7291692662,-60.03378682,-780.0337868,6.384686264,
49217777,-2.649628722,0.7370866814,-62.96638517,-782.9663852,6.60706993,
49322222,-2.552926036,0.7453387457,-65.9770903,-785.9770903,6.853570053,
49426666,-2.461750758,0.7532037301,-69.05954901,-789.059549,7.103850195,
49531111,-2.37356405,0.7608898617,-72.18643995,-792.18644,7.364346298,
49635555,-2.290124178,0.7682344725,-75.36701612,-795.3670161,7.629411034,
49740000,-2.209715905,0.7753793038,-78.59202464,-798.5920246,7.903899034,
49844444,-2.135925254,0.7819945698,-81.86783785,-801.8678378,8.174083407,
49948888,-2.064403039,0.7884603311,-85.17111895,-805.171119,8.454491493,
50053333,-1.998906468,0.794428245,-88.46926072,-808.4692607,8.728963009,
50157777,-1.938798731,0.7999448807,-91.79989385,-811.7998939,8.997244793,
50262222,-1.884967618,0.8049179623,-95.14831427,-815.1483143,9.252097136,
50366666,-1.833979317,0.8096569239,-98.49275042,-818.4927504,9.507343061,
50471111,-1.785527858,0.8141859564,-101.8512844,-821.8512844,9.763449095,
50575555,-1.743970294,0.8180907558,-105.2310582,-825.2310582,9.994493487,
50680000,-1.704849811,0.8217836747,-108.5933341,-828.5933341,10.22231646,
50784444,-1.666066233,0.8254612453,-111.9449963,-831.9449963,10.45877317,
50888888,-1.633264748,0.8285844194,-115.2691058,-835.2691058,10.66755083,
50993333,-1.603885137,0.8313918123,-118.6234765,-838.6234765,10.86182016,
51097777,-1.575246543,0.8341375515,-121.9848027,-841.9848027,11.05818446,
51202222,-1.549940023,0.8365713724,-125.3477742,-845.3477742,11.23775803,
51306666,-1.528953719,0.8385950876,-128.7234153,-848.7234153,11.39119659,
51411111,-1.508977138,0.8405259827,-132.0964812,-852.0964812,11.54122793,
51515555,-1.489850071,0.8423789318,-135.4568281,-855.4568281,11.68865909,
51620000,-1.475523224,0.8437695312,-138.7616896,-858.7616896,11.80160019,
51724444,-1.460208963,0.8452585099,-142.1260925,-862.1260925,11.92478183,
51828888,-1.445301473,0.8467104628,-145.4676857,-865.4676857,12.04720489,
51933333,-1.431982753,0.8480097827,-148.8388629,-868.8388629,12.15874163,
52037777,-1.421778912,0.8490065766,-152.1851195,-872.1851195,12.24561001,
52142222,-1.412650131,0.8498993428,-155.5125023,-875.5125023,12.32439203,
52246666,-1.405842449,0.8505657239,-158.8099652,-878.8099652,12.38381028,
52351111,-1.400908136,0.8510490538,-162.1062727,-882.1062727,12.42723931,
52455555,-1.395041639,0.8516240511,-165.4740696,-885.4740696,12.47927353,
52560000,-1.385828359,0.8525278634,-168.8633401,-888.8633401,12.56188393,
52664444,-1.383481909,0.8527582007,-172.166402,-892.166402,12.58309942,
52768888,-1.379943018,0.8531057106,-175.46304,-895.46304,12.61523316,
52873333,-1.375488101,0.8535433733,-178.7813485,-898.7813485,12.65592016,
52977777,-1.374044926,0.8536852028,177.8785333,-902.1214667,12.66915745,
53082222,-1.371914553,0.8538946103,174.549515,-905.450485,12.68874895,
53186666,-1.369614637,0.854120741,171.2406195,-908.7593805,12.70996819,
53291111,-1.367279495,0.8543503963,167.8804317,-912.1195683,12.7315856,
53395555,-1.367487424,0.8543299445,164.5703776,-915.4296224,12.72965771,
53500000,-1.367897472,0.8542896139,161.2698249,-918.7301751,12.72585753,
53604444,-1.366875899,0.8543900953,157.9624937,-922.0375063,12.73532937,
53708888,-1.366717685,0.8544056582,154.6333822,-925.3666178,12.73679756,
53813333,-1.367122235,0.8543658647,151.2956441,-928.7043559,12.73304408,
53917777,-1.367774429,0.8543017157,147.963191,-932.036809,12.72699761,
54022222,-1.370336078,0.8540498015,144.6173734,-935.3826266,12.70330442,
54126666,-1.369691782,0.8541131551,141.3229217,-938.6770783,12.70925528,
54231111,-1.371728955,0.8539128563,137.9974024,-942.0025976,12.69045865,
54335555,-1.373589685,0.8537299469,134.6636969,-945.3363031,12.67333885,
54440000,-1.377004372,0.8533943857,131.3418383,-948.6581617,12.64204235,
54544444,-1.378676101,0.853230153,127.9844757,-952.0155243,12.62677717,
54648888,-1.377497331,0.8533459535,124.6442202,-955.3557798,12.6375371,
54753333,-1.374474654,0.8536429684,121.3160778,-958.6839222,12.66521292,
54857777,-1.375298809,0.8535619749,117.9780047,-962.0219953,12.65765482,
54962222,-1.377086981,0.8533862693,114.6132892,-965.3867108,12.64128715,
55066666,-1.378358257,0.853261376,111.2649154,-968.7350846,12.62967667,
55171111,-1.379074241,0.8531910439,107.9225115,-972.0774885,12.62314707,
55275555,-1.383242474,0.8527817081,104.5757833,-975.4242167,12.58526834,
55380000,-1.377853686,0.8533109442,101.2495296,-978.7504704,12.63428232,
55484444,-1.381815441,0.8529218259,97.85152185,-982.1484782,12.5982107,
55588888,-1.38071315,0.8530300736,94.46980095,-985.530199,12.60822618,
55693333,-1.376806939,0.8534137838,91.07864613,-988.9213539,12.64384764,
55797777,-1.376389921,0.8534547581,87.68003277,-992.3199672,12.64766248,
55902222,-1.371701115,0.8539155932,84.25450532,-995.7454947,12.69071514,
56006666,-1.366798061,0.8543977518,80.81316918,-999.1868308,12.73605164,
56111111,-1.358608092,0.8552037477,77.34604591,-1002.653954,12.81251219,
56215555,-1.346798829,0.8563672664,73.85332131,-1006.146679,12.92440253,
56320000,-1.339220083,0.8571148032,70.35876516,-1009.641235,12.99725125,
56424444,-1.332973035,0.8577314773,66.94299051,-1013.057009,13.05792344,
56528888,-1.324996834,0.8585194888,63.50801051,-1016.491989,13.1362226,
56633333,-1.312046241,0.8598004894,60.02628077,-1019.973719,13.26538503,
56737777,-1.296328969,0.8613577222,56.50744797,-1023.492552,13.42561411,
56842222,-1.280866106,0.8628925009,52.96967996,-1027.03032,13.58709416,
56946666,-1.26191448,0.8647772899,49.40737702,-1030.592623,13.790415,
57051111,-1.243320349,0.8666305262,45.82269028,-1034.17731,13.9959353,
57155555,-1.224684514,0.8684919039,42.2031925,-1037.796808,14.20818915,
57260000,-1.201161523,0.8708471279,38.52312769,-1041.476872,14.48552477,
57364444,-1.176941752,0.8732787903,34.75304436,-1045.246956,14.78267762,
57468888,-1.151354188,0.8758551553,30.87929362,-1049.120706,15.11021388,
57573333,-1.12428422,0.8785890555,26.94268282,-1053.057317,15.4729795,
57677777,-1.103417398,0.8807022991,23.05329863,-1056.946701,15.76478244,
57782222,-1.086802299,0.8823885928,19.07554148,-1060.924459,16.00515322,
57886666,-1.076471523,0.8834387077,15.0057886,-1064.994211,16.15835472,
57991111,-1.076848269,0.8834003898,10.82528244,-1069.174718,16.152716,
58095555,-1.085660699,0.8825045741,6.546198046,-1073.453802,16.02193924,
58200000,-1.108865334,0.880150081,2.171452256,-1077.828548,15.68753735,
58304444,-1.149496216,0.8760425269,-2.284775412,-1082.284775,15.13456575,
