Frequency,S11_Magnitude,S11_Magnitude (linear),S11_Phase,S11_Unwrapped Phase,S11_VSWR,
30000000,-1.068792252,0.884220109,-130.688503,-130.688503,16.27415687,
30104444,-1.088501474,0.8822159926,-134.1529271,-134.1529271,15.98023394,
30208888,-1.095106087,0.8815454245,-137.8683531,-137.8683531,15.8841093,
30313333,-1.106576111,0.8803820809,-141.5598363,-141.5598363,15.71990296,
30417777,-1.118306328,0.8791939351,-145.266375,-145.266375,15.55546021,
30522222,-1.131888602,0.8778201989,-148.9603398,-148.9603398,15.36931786,
30626666,-1.146724947,0.8763220765,-152.6910763,-152.6910763,15.17103475,
30731111,-1.162031057,0.8747791981,-156.4313099,-156.4313099,14.97178719,
30835555,-1.180864659,0.8728844706,-160.1805561,-160.1805561,14.73371884,
30940000,-1.199999454,0.8709636447,-163.9557251,-163.9557251,14.49950784,
31044444,-1.222615943,0.8686987625,-167.7753019,-167.7753019,14.2321489,
31148888,-1.246451212,0.8663182021,-171.6033227,-171.6033227,13.96089992,
31253333,-1.273631277,0.8636115384,-175.4441236,-175.4441236,13.66399706,
31357777,-1.305730624,0.8604258881,-179.3137335,-179.3137335,13.32930486,
31462222,-1.343095164,0.8567324994,176.7637344,-183.2362656,12.95990013,
31566666,-1.388268884,0.8522883573,172.8569609,-187.1430391,12.5398941,
31671111,-1.445690483,0.8466725425,168.8847221,-191.1152779,12.04397811,
31775555,-1.517919158,0.8396611165,164.9001869,-195.0998131,11.47358068,
31880000,-1.608976447,0.8309046275,160.9336426,-199.0663574,10.82764478,
31984444,-1.72425608,0.8199496711,157.0344848,-202.9655152,10.10800526,
32088888,-1.865151125,0.8067564453,153.2572256,-206.7427744,9.34963367,
32193333,-2.032189885,0.7913899044,149.7252549,-210.2747451,8.587263713,
32297777,-2.207570111,0.77557088,146.5492222,-213.4507778,7.911499541,
32402222,-2.356398235,0.7623950857,143.8354783,-216.1645217,7.417334323,
32506666,-2.44888224,0.7543204607,141.4455166,-218.5544834,7.140686058,
32611111,-2.463045425,0.7530914704,139.180513,-220.819487,7.100165689,
32715555,-2.40931923,0.7577641214,136.7025034,-223.2974966,7.256415243,
32820000,-2.314832164,0.7660522487,133.9164411,-226.0835589,7.548917394,
32924444,-2.211224954,0.7752446045,130.7805679,-229.2194321,7.898562792,
33028888,-2.11141507,0.7842043491,127.4275156,-232.5724844,8.268027373,
33133333,-2.025996687,0.7919543811,123.8919006,-236.1080994,8.613276216,
33237777,-1.954220894,0.7985258051,120.2696896,-239.7303104,8.926829592,
33342222,-1.894989713,0.8039897543,116.5604584,-243.4395416,9.203548254,
33446666,-1.845203418,0.8086113428,112.8092068,-247.1907932,9.449940081,
33551111,-1.805870024,0.8122813815,109.0378013,-250.9621987,9.654244189,
33655555,-1.773734738,0.8152921544,105.257291,-254.742709,9.827910385,
33760000,-1.746215361,0.8178793289,101.464361,-258.535639,9.981729792,
33864444,-1.72248925,0.8201164771,97.6943204,-262.3056796,10.11830571,
33968888,-1.704696774,0.8217981538,93.87819826,-266.1218017,10.22322828,
34073333,-1.689899058,0.8231994036,90.0969709,-269.9030291,10.31217903,
34177777,-1.678186216,0.8243102292,86.31916179,-273.6808382,10.38370203,
34282222,-1.666115888,0.8254565264,82.55125974,-277.4487403,10.45846338,
34386666,-1.656771675,0.826345024,78.78639331,-281.2136067,10.51709007,
34491111,-1.648193298,0.8271615438,75.0265996,-284.9734004,10.57149887,
34595555,-1.641541181,0.8277952708,71.28254783,-288.7174522,10.6140829,
34700000,-1.628909151,0.8290000227,67.5331954,-292.4668046,10.69590798,
34804444,-1.62400657,0.8294680676,63.78900472,-296.2109953,10.72800878,
34908888,-1.618605485,0.8299840104,60.02078632,-299.9792137,10.76359944,
35013333,-1.61184689,0.8306300821,56.27567139,-303.7243286,10.8084724,
35117777,-1.608078244,0.8309905553,52.52804638,-307.4719536,10.83365819,
35222222,-1.601146883,0.8316539525,48.72797496,-311.272025,10.8802908,
35326666,-1.596334556,0.8321148493,45.05143869,-314.9485613,10.91290589,
35431111,-1.591737722,0.8325553461,41.36629635,-318.6337037,10.94424518,
35535555,-1.586652278,0.8330429362,37.66587438,-322.3341256,10.97912777,
35640000,-1.584880125,0.8332129164,33.94057239,-326.0594276,10.99133624,
35744444,-1.581235517,0.8335626068,30.23265754,-329.7673425,11.01653043,
35848888,-1.57740554,0.833930241,26.53036724,-333.4696328,11.04313182,
35953333,-1.573071405,0.8343464641,22.81852324,-337.1814768,11.07339155,
36057777,-1.571303288,0.8345163226,19.09661779,-340.9033822,11.08578412,
36162222,-1.566396445,0.8349878917,15.38286455,-344.6171355,11.12032269,
36266666,-1.560591692,0.835546098,11.66521697,-348.334783,11.16146273,
36371111,-1.555591949,0.8360271907,7.935548815,-352.0644512,11.1971442,
36475555,-1.551359067,0.83643471,4.186827386,-355.8131726,11.22753311,
36580000,-1.544313468,0.8371134631,0.4275533446,-359.5724467,11.27848561,
36684444,-1.541781509,0.8373575193,-3.241757067,-363.2417571,11.29691032,
36788888,-1.538768794,0.8376480085,-6.919751647,-366.9197516,11.31891264,
36893333,-1.533881719,0.8381194398,-10.6433903,-370.6433903,11.35478798,
36997777,-1.528279559,0.8386601782,-14.36032825,-374.3603283,11.39619567,
37102222,-1.524739689,0.8390020376,-18.06934738,-378.0693474,11.42251746,
37206666,-1.522589776,0.8392097313,-21.81846116,-381.8184612,11.4385637,
37311111,-1.516382469,0.8398096807,-25.53375887,-385.5337589,11.48514897,
37415555,-1.512467089,0.8401883311,-29.27583859,-389.2758386,11.51473071,
37520000,-1.503848503,0.8410224229,-33.10335956,-393.1033596,11.58039049,
37624444,-1.504515943,0.8409577995,-36.7716957,-396.7716957,11.57527873,
37728888,-1.501755699,0.8412250857,-40.50645621,-400.5064562,11.5964483,
37833333,-1.499737023,0.8414206164,-44.22973735,-404.2297373,11.61197991,
37937777,-1.496111518,0.8417719001,-47.96300504,-407.963005,11.63997988,
38042222,-1.494297037,0.8419477645,-51.7059089,-411.7059089,11.65404436,
38146666,-1.491216895,0.8422463843,-55.44184774,-415.4418477,11.67799785,
38251111,-1.489929692,0.84237121,-59.13011447,-419.1301145,11.68803751,
38355555,-1.489152303,0.8424466058,-62.75584765,-422.7558476,11.69410926,
38460000,-1.488818937,0.8424789397,-66.39131649,-426.3913165,11.69671494,
38564444,-1.484677506,0.8428807292,-70.05053785,-430.0505379,11.72918332,
38668888,-1.48259762,0.8430825861,-73.70665254,-433.7066525,11.745558,
38773333,-1.481633659,0.8431761567,-77.36827531,-437.3682753,11.75316277,
38877777,-1.479528012,0.8433805855,-81.03732249,-441.0373225,11.76980894,
38982222,-1.48206872,0.8431339244,-84.71623,-444.71623,11.7497293,
39086666,-1.480771395,0.8432598644,-88.37840379,-448.3784038,11.75997365,
39191111,-1.481766655,0.8431632463,-92.05165966,-452.0516597,11.75211296,
39295555,-1.481651688,0.8431744065,-95.70922547,-455.7092255,11.75302045,
39400000,-1.482835436,0.8430595031,-99.38195912,-459.3819591,11.74368337,
39504444,-1.484070013,0.8429396825,-103.0645443,-463.0645443,11.73396127,
39608888,-1.489070231,0.842454566,-106.7396664,-466.7396664,11.69475064,
39713333,-1.491709176,0.8421986505,-110.4127151,-470.4127151,11.67416284,
39817777,-1.493305063,0.8420439248,-114.0917169,-474.0917169,11.66174788,
39922222,-1.495236292,0.8418567247,-117.7845143,-477.7845143,11.6467597,
40026666,-1.498554843,0.8415351445,-121.4602498,-481.4602498,11.62109503,
40131111,-1.502326879,0.841169769,-125.1395533,-485.1395533,11.59206127,
40235555,-1.505551701,0.8408575247,-128.8344966,-488.8344966,11.56735511,
40340000,-1.510072923,0.8404199513,-132.5208397,-492.5208397,11.53289503,
40444444,-1.514031306,0.8400370376,-136.2135004,-496.2135004,11.50289423,
40548888,-1.519675629,0.8394913364,-139.9168711,-499.9168711,11.4603866,
40653333,-1.524322274,0.8390423582,-143.6070237,-503.6070237,11.42562936,
40757777,-1.530299473,0.8384651695,-147.2618386,-507.2618386,11.38123068,
40862222,-1.536782952,0.8378395406,-150.8981577,-510.8981577,11.33346284,
40966666,-1.542340896,0.8373035937,-154.5036505,-514.5036505,11.29283452,
41071111,-1.551321357,0.8364383413,-158.1080141,-518.1080141,11.22780459,
41175555,-1.557917359,0.8358033972,-161.7551659,-521.7551659,11.18051998,
41280000,-1.565269382,0.835096245,-165.4173571,-525.4173571,11.12828659,
41384444,-1.572387533,0.8344121578,-169.0872989,-529.0872989,11.07818143,
41488888,-1.578442455,0.8338306929,-172.7599269,-532.7599269,11.03591707,
41593333,-1.586647818,0.8330433639,-176.4336124,-536.4336124,10.97915846,
41697777,-1.594223403,0.832317124,179.8993208,-540.1006792,10.92727634,
41802222,-1.602446249,0.8315295505,176.2529562,-543.7470438,10.87151815,
41906666,-1.609263513,0.8308771668,172.5911706,-547.4088294,10.82572431,
42011111,-1.618155928,0.8300269691,168.9324706,-551.0675294,10.76657255,
42115555,-1.625564787,0.8293192775,165.2838591,-554.7161409,10.71778494,
42220000,-1.634238852,0.8284915006,161.6340215,-558.3659785,10.66122966,
42324444,-1.643446824,0.8276136763,157.9696347,-562.0303653,10.60184844,
42428888,-1.652819789,0.8267210781,154.3188539,-565.6811461,10.54208474,
42533333,-1.662299492,0.8258192942,150.6771867,-569.3228133,10.48232803,
42637777,-1.670794611,0.8250120074,147.0230175,-572.9769825,10.42935564,
42742222,-1.680619198,0.8240793662,143.3737704,-576.6262296,10.36876304,
42846666,-1.689739012,0.823214572,139.7106156,-580.2893844,10.31314963,
42951111,-1.700322512,0.8222121202,136.0671511,-583.9328489,10.24936077,
43055555,-1.711622319,0.8211431684,132.4746919,-587.5253081,10.18212809,
43160000,-1.722480631,0.820117291,128.8761595,-591.1238405,10.11835601,
43264444,-1.736159513,0.8188267543,125.2673359,-594.7326641,10.03915753,
43368888,-1.746957615,0.8178094398,121.6518881,-598.3481119,9.977517156,
43473333,-1.759226913,0.8166550544,118.042346,-601.957654,9.908399975,
43577777,-1.771221678,0.8155280743,114.3907549,-605.6092451,9.841758131,
43682222,-1.785675039,0.8141721602,110.7329503,-609.2670497,9.76265,
43786666,-1.798039533,0.8130139985,107.1440057,-612.8559943,9.695987849,
43891111,-1.811462051,0.8117585983,103.5249889,-616.4750111,9.624655265,
43995555,-1.825355876,0.8104611588,99.87125004,-620.12875,9.551926917,
44100000,-1.837883965,0.8092930331,96.22498783,-623.7750122,9.487293845,
44204444,-1.855072695,0.807693086,92.61221102,-627.387789,9.400042091,
44308888,-1.870926578,0.8062201922,89.03589243,-630.9641076,9.320992797,
44413333,-1.889922975,0.8044588824,85.4910482,-634.5089518,9.228027866,
44517777,-1.911842162,0.8024313578,81.95935968,-638.0406403,9.123063953,
44622222,-1.932284363,0.8005450599,78.42893965,-641.5710603,9.02732747,
44726666,-1.954321302,0.7985165742,74.9113918,-645.0886082,8.926374799,
44831111,-1.978129429,0.7963308278,71.40376153,-648.5962385,8.81984646,
44935555,-2.003271156,0.7940291425,67.87915199,-652.120848,8.710111537,
45040000,-2.028424437,0.7917330568,64.36675097,-655.633249,8.60306023,
45144444,-2.053482571,0.7894522584,60.83975436,-659.1602456,8.499033259,
45248888,-2.081997678,0.7868647969,57.30319431,-662.6968057,8.38371499,
45353333,-2.112864497,0.7840734987,53.74831322,-666.2516868,8.262410994,
45457777,-2.139811133,0.7816448006,50.15363716,-669.8463628,8.15938803,
45562222,-2.172555064,0.7787037154,46.47611038,-673.5238896,8.037657381,
45666666,-2.211614771,0.7752098127,43.08615292,-676.9138471,7.897185522,
45771111,-2.250204511,0.7717733438,39.7551335,-680.2448665,7.763218255,
45875555,-2.290892779,0.7681664957,36.22234901,-683.777651,7.626880769,
45980000,-2.334322811,0.7643351979,32.69269348,-687.3073065,7.486630086,
46084444,-2.379517655,0.7603685005,29.24240828,-690.7575917,7.346148167,
46188888,-2.429818993,0.7559778141,25.84369315,-694.1563068,7.195976087,
46293333,-2.482033821,0.7514469204,22.46409882,-697.5359012,7.046570991,
46397777,-2.5372726,0.7466831828,19.09195491,-700.9080451,6.895251574,
46502222,-2.597575093,0.7415172275,15.74493432,-704.2550657,6.737459563,
46606666,-2.660971988,0.7361247174,12.43972548,-707.5602745,6.579338163,
46711111,-2.725103188,0.7307096463,9.184012584,-710.8159874,6.426927746,
46815555,-2.795270275,0.7248305444,5.928034725,-714.0719653,6.268248562,
46920000,-2.866597233,0.7189027391,2.754909645,-717.2450904,6.114975058,
47024444,-2.940293537,0.7128289399,-0.2601091259,-720.2601091,5.964490082,
47128888,-3.012685735,0.7069125848,-3.186693956,-723.186694,5.823902687,
47233333,-3.08505162,0.7010474582,-6.097060839,-726.0970608,5.690025072,
47337777,-3.157287608,0.6952413907,-8.97637719,-728.9763772,5.562570962,
47442222,-3.225518706,0.6898013893,-11.77087666,-731.7708767,5.447482132,
47546666,-3.287242355,0.6849168999,-14.49012786,-734.4901279,5.347531807,
47651111,-3.340184806,0.6807548744,-17.13597215,-737.1359722,5.264778502,
47755555,-3.384956169,0.6772549556,-19.70568364,-739.7056836,5.196841856,
47860000,-3.419681247,0.6745527818,-22.21524814,-742.2152481,5.145389754,
47964444,-3.438106248,0.6731233989,-24.68986245,-744.6898624,5.118516875,
48068888,-3.441498885,0.6728605337,-27.10556058,-747.1055606,5.113600486,
48173333,-3.423745547,0.674237219,-29.61773273,-749.6177327,5.139436783,
48277777,-3.393179267,0.6766140888,-32.10857024,-752.1085702,5.184561327,
48382222,-3.346540941,0.6802568958,-34.51252421,-754.5125242,5.255021528,
48486666,-3.284656323,0.6851208491,-36.94216951,-756.9421695,5.351643144,
48591111,-3.21110748,0.6909468258,-39.52511745,-759.5251175,5.471378283,
48695555,-3.124443021,0.6978753344,-42.00555526,-762.0055553,5.619783909,
48800000,-3.029889056,0.7055138555,-44.60614843,-764.6061484,5.791490999,
48904444,-2.929716709,0.7136974821,-47.36102678,-767.3610268,5.985617921,
49008888,-2.826117598,0.7222609256,-50.20754967,-770.2075497,6.201003331,
49113333,-2.72551627,0.7306748961,-53.15808515,-773.1580851,6.425969475,
49217777,-2.624385016,0.7392319843,-56.15975842,-776.1597584,6.669652256,
49322222,-2.524733874,0.7477618537,-59.23844272,-779.2384427,6.929014819,
49426666,-2.42902342,0.7560470601,-62.40306124,-782.4030612,7.198302512,
49531111,-2.338661492,0.7639535008,-65.60753194,-785.6075319,7.472906852,
49635555,-2.254774259,0.7713674116,-68.86236745,-788.8623675,7.747659353,
49740000,-2.173743291,0.7785971962,-72.16047055,-792.1604706,8.033309272,
49844444,-2.10274691,0.7849873433,-75.51261837,-795.5126184,8.301778002,
49948888,-2.032519037,0.7913599152,-78.87239508,-798.8723951,8.585885673,
50053333,-1.970322426,0.7970469031,-82.24391856,-802.2439186,8.854493627,
50157777,-1.91386466,0.8022445345,-85.64517548,-805.6451755,9.113500503,
50262222,-1.863494438,0.8069103352,-89.07893005,-809.0789301,9.35788219,
50366666,-1.817310672,0.8112121868,-92.53621535,-812.5362154,9.593904162,
50471111,-1.774131896,0.8152548765,-95.93517381,-815.9351738,9.825725527,
50575555,-1.737743091,0.8186774825,-99.33338443,-819.3333844,10.03006967,
50680000,-1.705421666,0.8217295725,-102.7126169,-822.7126169,10.21891066,
50784444,-1.67407823,0.8247001784,-106.0779727,-826.0779727,10.40902473,
50888888,-1.646915022,0.8272832836,-109.4272296,-829.4272296,10.57965507,
50993333,-1.624726367,0.8293993327,-112.8125842,-832.8125842,10.72328357,
51097777,-1.60337533,0.8314406112,-116.1960342,-836.1960342,10.86525422,
51202222,-1.584305898,0.8332680023,-119.5826134,-839.5826134,10.99529801,
51306666,-1.570682526,0.8345759658,-122.9723052,-842.9723052,11.09014162,
51411111,-1.56022947,0.835580943,-126.3234926,-846.3234926,11.16404008,
51515555,-1.549887319,0.8365764485,-129.7023964,-849.7023964,11.23813815,
51620000,-1.541301644,0.8374037816,-133.0675963,-853.0675963,11.30040908,
51724444,-1.5346798,0.8380424349,-136.4289174,-856.4289174,11.34891373,
51828888,-1.530519253,0.8384439539,-139.7832532,-859.7832532,11.37960478,
51933333,-1.526802324,0.8388028238,-143.1657293,-863.1657293,11.40716523,
52037777,-1.526050554,0.8388754258,-146.5002684,-866.5002684,11.41275585,
52142222,-1.526982728,0.8387854022,-149.8235724,-869.8235724,11.40582445,
52246666,-1.528867938,0.8386033695,-153.1450851,-873.1450851,11.39183243,
52351111,-1.531219921,0.8383763216,-156.4742894,-876.4742894,11.37442446,
52455555,-1.53439539,0.8380698761,-159.8347423,-879.8347423,11.35100642,
52560000,-1.538216358,0.8377012859,-163.1603121,-883.1603121,11.32295654,
52664444,-1.546693308,0.8368841344,-166.4688131,-886.4688131,11.26122298,
52768888,-1.553356957,0.836242339,-169.7883415,-889.7883415,11.21316907,
52873333,-1.561060506,0.8355010013,-173.0984625,-893.0984625,11.15812871,
52977777,-1.570544558,0.8345892224,-176.433621,-896.433621,11.09111056,
53082222,-1.579841281,0.8336964188,-179.777442,-899.777442,11.02619923,
53186666,-1.591835669,0.8325459578,176.9485348,-903.0514652,10.94357553,
53291111,-1.604493988,0.8313335366,173.6492449,-906.3507551,10.8577218,
53395555,-1.619119759,0.82993487,170.3717161,-909.6282839,10.76020035,
53500000,-1.633860854,0.8285275562,167.0725261,-912.9274739,10.66368167,
53604444,-1.649885134,0.8270004451,163.7991102,-916.2008898,10.56072338,
53708888,-1.66642804,0.8254268618,160.5097818,-919.4902182,10.45651628,
53813333,-1.681709086,0.8239759688,157.2042582,-922.7957418,10.36208497,
53917777,-1.699084945,0.8223292774,153.9184723,-926.0815277,10.25677867,
54022222,-1.721157913,0.8202421909,150.6383431,-929.3616569,10.12608131,
54126666,-1.740151304,0.818450531,147.3515272,-932.6484728,10.01628119,
54231111,-1.760869283,0.816500652,144.0692712,-935.9307288,9.899221286,
54335555,-1.79108291,0.813665411,140.9157939,-939.0842061,9.733380266,
54440000,-1.815690494,0.8113635162,137.6660742,-942.3339258,9.602402885,
54544444,-1.837397672,0.809338344,134.3982219,-945.6017781,9.489786157,
54648888,-1.86419106,0.8068456223,131.1385894,-948.8614106,9.354411967,
54753333,-1.888000747,0.8046369325,127.895988,-952.104012,9.237349495,
54857777,-1.915297053,0.8021122469,124.6642705,-955.3357295,9.106739648,
54962222,-1.944668962,0.7994044323,121.4231162,-958.5768838,8.970310029,
55066666,-1.974738202,0.7966417994,118.1965754,-961.8034246,8.834862792,
55171111,-2.004450894,0.7939213029,115.0053659,-964.9946341,8.7050303,
55275555,-2.037678335,0.790889998,111.8190571,-968.1809429,8.564344032,
55380000,-2.063163321,0.7885728743,108.6254612,-971.3745388,8.459524145,
55484444,-2.101891608,0.7850646451,105.411029,-974.588971,8.305123397,
55588888,-2.134915791,0.7820854575,102.2349446,-977.7650554,8.17790973,
55693333,-2.166034816,0.7792884854,99.04940733,-980.9505927,8.061602442,
55797777,-2.202622933,0.7760127438,95.92970562,-984.0702944,7.92907942,
55902222,-2.238223941,0.7728385961,92.87106081,-987.1289392,7.804312554,
56006666,-2.276821444,0.769411951,89.83948511,-990.1605149,7.673476396,
56111111,-2.308775075,0.7665866402,86.7535972,-993.2464028,7.568489832,
56215555,-2.341427485,0.7637102611,83.73454379,-996.2654562,7.464184731,
56320000,-2.375758583,0.7606976434,80.7317534,-999.2682466,7.357627683,
56424444,-2.405537047,0.7580941541,77.76544496,-1002.234555,7.267679486,
56528888,-2.431594703,0.7558232807,74.75869423,-1005.241306,7.190789056,
56633333,-2.449969281,0.7542260633,71.76357208,-1008.236428,7.137559363,
56737777,-2.47397544,0.7521444028,68.95095995,-1011.04904,7.069214585,
56842222,-2.492523499,0.7505399692,66.08127073,-1013.918729,7.017316415,
56946666,-2.5018135,0.7497376576,63.20867704,-1016.791323,6.991613843,
57051111,-2.506333505,0.749347607,60.35423409,-1019.645766,6.979177762,
57155555,-2.508042861,0.7492001522,57.5009888,-1022.499011,6.974486499,
57260000,-2.497996731,0.750067181,54.6549589,-1025.345041,7.002150371,
57364444,-2.486293678,0.7510784755,51.79496626,-1028.205034,7.03466074,
57468888,-2.462348952,0.753151859,48.94097278,-1031.059027,7.102147304,
57573333,-2.433385016,0.7556675085,46.0731122,-1033.926888,7.185567083,
57677777,-2.394441691,0.7590631624,43.19356893,-1036.806431,7.300930733,
57782222,-2.349473041,0.7630031799,40.2638607,-1039.736139,7.438931794,
57886666,-2.299240813,0.7674285632,37.29539962,-1042.7046,7.599508297,
57991111,-2.237686078,0.7728864547,34.12732572,-1045.872674,7.806167845,
58095555,-2.171939072,0.778758942,31.20864022,-1048.79136,8.039913377,
58200000,-2.106306447,0.7846657161,28.13639992,-1051.8636,8.287884696,
58304444,-2.034064948,0.7912190818,24.86962035,-1055.13038,8.579419504,
58408888,-1.963160784,0.7977043509,21.75295852,-1058.247041,8.886520095,
