Frequency,S11_Magnitude,S11_Phase,S11_VSWR,
30000000,-0.9679319041,-133.9775929,17.96588455,
30104444,-0.9584882317,-137.8413278,18.14253251,
30208888,-0.9700823582,-141.5177653,17.92614063,
30313333,-0.9800881617,-145.1841041,17.743513,
30417777,-0.9904673918,-148.8742973,17.5579726,
30522222,-1.001565917,-152.562729,17.36383303,
30626666,-1.012711512,-156.2892705,17.17315716,
30731111,-1.023514423,-159.9996841,16.99231144,
30835555,-1.03520666,-163.7238477,16.80083619,
30940000,-1.044700966,-167.4506896,16.64851169,
31044444,-1.054601221,-171.1907012,16.49259882,
31148888,-1.064759536,-174.927991,16.33563932,
31253333,-1.074406172,-178.6536142,16.18933692,
31357777,-1.082272795,177.6128576,16.07196352,
31462222,-1.088834663,173.8677314,15.97535669,
31566666,-1.096582328,170.099266,15.86278239,
31671111,-1.104657094,166.3153296,15.74713801,
31775555,-1.114568148,162.5342815,15.60748848,
31880000,-1.122980553,158.7508434,15.49089204,
31984444,-1.13235344,154.9596536,15.3630265,
32088888,-1.142632403,151.1359,15.2252153,
32193333,-1.151287208,147.302306,15.1110904,
32297777,-1.160436565,143.4588081,14.99229791,
32402222,-1.173226186,139.5887017,14.8293511,
32506666,-1.188833732,135.6583443,14.63525936,
32611111,-1.210763556,131.688304,14.37101324,
32715555,-1.242506646,127.6747181,14.00506985,
32820000,-1.297503776,123.6159301,13.41350311,
32924444,-1.39031563,119.609145,12.52151198,
33028888,-1.524988951,115.9497699,11.42065999,
33133333,-1.634192103,112.969094,10.66153285,
33237777,-1.638420162,110.2181468,10.63418187,
33342222,-1.573345532,107.087826,11.07147271,
33446666,-1.505583276,103.5841793,11.56711372,
33551111,-1.455504332,99.89012706,11.96314567,
33655555,-1.417987661,96.1123229,12.27820534,
33760000,-1.395517249,92.29816504,12.47503867,
33864444,-1.37854005,88.49392997,12.62801811,
33968888,-1.365988614,84.67337505,12.74356763,
34073333,-1.356755951,80.86866646,12.8299318,
34177777,-1.348612301,77.06045558,12.90709264,
34282222,-1.344353266,73.27350288,12.94781994,
34386666,-1.336824934,69.4606941,13.02044611,
34491111,-1.331631046,65.64836873,13.07103145,
34595555,-1.325904209,61.8352942,13.12726769,
34700000,-1.323477516,58.00945068,13.15124435,
34804444,-1.316648277,54.19053321,13.21919514,
34908888,-1.315379728,50.38485694,13.23189504,
35013333,-1.31226448,46.58548064,13.26318727,
35117777,-1.308193963,42.79007007,13.30430006,
35222222,-1.304621366,39.01686205,13.34059559,
35326666,-1.303366959,35.21288645,13.35338693,
35431111,-1.299027419,31.38260416,13.39782866,
35535555,-1.293144555,27.59683922,13.45855289,
35640000,-1.290295556,23.79697733,13.48816028,
35744444,-1.287046305,20.01423964,13.52208746,
35848888,-1.283990328,16.23447216,13.55415353,
35953333,-1.281564731,12.44224161,13.57971416,
36057777,-1.279475262,8.654750851,13.60181054,
36162222,-1.272459079,4.872428167,13.67653945,
36266666,-1.268142776,1.113662766,13.72292368,
36371111,-1.267791906,-2.696463974,13.72670813,
36475555,-1.26556757,-6.469957514,13.75074854,
36580000,-1.257634368,-10.26856455,13.83718356,
36684444,-1.2562891,-14.05121403,13.85194916,
36788888,-1.250237288,-17.85213891,13.9187673,
36893333,-1.248656261,-21.65957832,13.93633033,
36997777,-1.244717005,-25.45411646,13.98028445,
37102222,-1.240581419,-29.25909753,14.02673008,
37206666,-1.238062123,-33.07957656,14.05517594,
37311111,-1.233146774,-36.93340791,14.11101129,
37415555,-1.231098135,-40.89940195,14.13441443,
37520000,-1.231506854,-44.6780809,14.1297391,
37624444,-1.22729441,-48.42171029,14.17807479,
37728888,-1.227990793,-52.22765614,14.17006123,
37833333,-1.226480009,-56.04079117,14.187458,
37937777,-1.223482732,-59.86677752,14.22209921,
38042222,-1.22367778,-63.72880417,14.21983977,
38146666,-1.224485471,-67.46989265,14.21049109,
38251111,-1.224391182,-71.16712332,14.21158181,
38355555,-1.224292614,-74.93127734,14.2127222,
38460000,-1.226126018,-78.73295999,14.19154044,
38564444,-1.228012067,-82.53101795,14.16981656,
38668888,-1.23078586,-86.31837076,14.13798863,
38773333,-1.232684436,-90.1220584,14.11628612,
38877777,-1.235221893,-93.90938473,14.08738492,
38982222,-1.238644588,-97.72416476,14.04858892,
39086666,-1.244350749,-101.5229545,13.98438528,
39191111,-1.249351582,-105.3197188,13.92860079,
39295555,-1.254998639,-109.1223843,13.86614301,
39400000,-1.260888021,-112.925473,13.80160207,
39504444,-1.267871232,-116.7308723,13.72585235,
39608888,-1.275047171,-120.5535769,13.64887795,
39713333,-1.283521928,-124.3752412,13.55908193,
39817777,-1.290544216,-128.1606812,13.48557094,
39922222,-1.300706168,-131.9833728,13.38060116,
40026666,-1.309126945,-135.78455,13.29485418,
40131111,-1.319691621,-139.6108202,13.18882689,
40235555,-1.330867578,-143.4569244,13.07850051,
40340000,-1.342377469,-147.3163478,12.96680154,
40444444,-1.352519598,-151.2380513,12.86995493,
40548888,-1.364799473,-155.0919208,12.7546254,
40653333,-1.38294075,-158.7432371,12.58800257,
40757777,-1.398535619,-162.4942302,12.4482302,
40862222,-1.414089279,-166.3283417,12.3119044,
40966666,-1.427607231,-170.170849,12.19583936,
41071111,-1.446110329,-173.9793855,12.0404975,
41175555,-1.463150522,-177.8128028,11.90092059,
41280000,-1.482178013,178.3446044,11.74886709,
41384444,-1.501130451,174.498841,11.60125445,
41488888,-1.519825797,170.6387533,11.45926,
41593333,-1.540452234,166.7906252,11.30660758,
41697777,-1.562896329,162.9414422,11.14509239,
41802222,-1.58636552,159.0803931,10.98110141,
41906666,-1.611456567,155.2022907,10.81107543,
42011111,-1.635264134,151.3355382,10.65458454,
42115555,-1.661632222,147.4818598,10.48651189,
42220000,-1.689109403,143.6214241,10.31696968,
42324444,-1.718714572,139.777297,10.14038293,
42428888,-1.750020431,135.886948,9.960172183,
42533333,-1.783727966,132.0231504,9.773232012,
42637777,-1.819179949,128.1375827,9.584117653,
42742222,-1.856095925,124.264843,9.394899226,
42846666,-1.895708297,120.3522026,9.2000871,
42951111,-1.938097657,116.5077186,9.000472529,
43055555,-1.983915165,112.6367661,8.79434627,
43160000,-2.032188501,108.751038,8.587269509,
43264444,-2.081897543,104.8611282,8.384114395,
43368888,-2.136963302,100.9708969,8.170152524,
43473333,-2.193671949,97.08019702,7.96108949,
43577777,-2.249135203,92.90988935,7.766868175,
43682222,-2.322254949,89.33281522,7.525071998,
43786666,-2.393055306,85.43932939,7.305107344,
43891111,-2.464215713,81.40358886,7.096838508,
43995555,-2.54622587,77.52473481,6.87134788,
44100000,-2.633969289,73.66314779,6.645749291,
44204444,-2.727791262,69.81492583,6.420697166,
44308888,-2.828597778,65.98076726,6.195660951,
44413333,-2.937931543,62.15622736,5.969194986,
44517777,-3.050776737,58.33264498,5.752634137,
44622222,-3.175445043,54.55709633,5.531455522,
44726666,-3.306106299,50.81785667,5.317738337,
44831111,-3.447130928,47.12745796,5.105460542,
44935555,-3.597906012,43.45852898,4.89714344,
45040000,-3.757390541,39.83064812,4.695236431,
45144444,-3.926527688,36.28408556,4.499296698,
45248888,-4.105197259,32.79209726,4.31013486,
45353333,-4.292619361,29.37331365,4.128929196,
45457777,-4.489397692,26.05322483,3.955274608,
45562222,-4.695708971,22.87385386,3.789167224,
45666666,-4.905205935,19.62773622,3.635124053,
45771111,-5.12635073,16.8996242,3.486521475,
45875555,-5.345951388,13.94219361,3.351458007,
45980000,-5.569491043,11.38158548,3.225239701,
46084444,-5.791543232,9.244230055,3.109822344,
46188888,-6.003136652,7.133007946,3.008066453,
46293333,-6.2027542,5.128361999,2.918676034,
46397777,-6.385631057,3.295577836,2.841887419,
46502222,-6.547561192,1.615685815,2.777629908,
46606666,-6.684299248,0.07995286976,2.725904468,
46711111,-6.788847303,-1.32386777,2.687828752,
46815555,-6.857879217,-2.68199551,2.663355684,
46920000,-6.89191702,-3.996507153,2.651478311,
47024444,-6.888872837,-5.27692371,2.652535541,
47128888,-6.847879432,-6.595533129,2.666868673,
47233333,-6.775443493,-7.888307357,2.692641406,
47337777,-6.674489218,-9.156085656,2.729541469,
47442222,-6.548531886,-10.55429594,2.777254735,
47546666,-6.399778005,-12.14515739,2.836138024,
47651111,-6.23722637,-13.95300111,2.903842088,
47755555,-6.060619936,-15.98672445,2.981696629,
47860000,-5.874740219,-18.33669231,3.068904903,
47964444,-5.688103882,-20.68851823,3.162426799,
48068888,-5.500893832,-22.85969906,3.262845481,
48173333,-5.31373518,-25.43538204,3.370552553,
48277777,-5.13211541,-27.99636005,3.482823783,
48382222,-4.952127676,-30.68824174,3.602454151,
48486666,-4.781725645,-33.52386604,3.724244517,
48591111,-4.614005203,-36.42508882,3.853131664,
48695555,-4.453760286,-39.42754242,3.985562219,
48800000,-4.301122665,-42.59564013,4.121089686,
48904444,-4.15492816,-45.64541429,4.260429158,
49008888,-4.017446835,-48.76764712,4.400898569,
49113333,-3.886888718,-51.97764672,4.543662358,
49217777,-3.760390229,-55.20215344,4.691605369,
49322222,-3.642706283,-58.4875356,4.838614187,
49426666,-3.532381292,-61.77062193,4.985460371,
49531111,-3.424663132,-65.08859191,5.138094779,
49635555,-3.324530958,-68.40797692,5.288968964,
49740000,-3.229479749,-71.75848228,5.440951871,
49844444,-3.140700678,-75.12451679,5.59131303,
49948888,-3.056018894,-78.48006707,5.742966504,
50053333,-2.97642451,-81.84488032,5.893459679,
50157777,-2.89996326,-85.2273335,6.045886604,
50262222,-2.829530981,-88.61859782,6.193653252,
50366666,-2.761898001,-92.02015716,6.342704334,
50471111,-2.698367061,-95.47569572,6.489579647,
50575555,-2.638346688,-98.86323738,6.634890367,
50680000,-2.582648467,-102.1291495,6.775826468,
50784444,-2.528295025,-105.4741915,6.919391356,
50888888,-2.478305269,-108.8151806,7.057029584,
50993333,-2.432272949,-112.1785692,7.188809843,
51097777,-2.388353617,-115.5381804,7.319307948,
51202222,-2.344436708,-118.9034943,7.454719139,
51306666,-2.303694438,-122.2414078,7.584986873,
51411111,-2.266366234,-125.5916074,7.708474466,
51515555,-2.229578202,-128.9824224,7.834243996,
51620000,-2.194808449,-132.3694294,7.957010647,
51724444,-2.161955108,-135.6627307,8.076658663,
51828888,-2.133100547,-138.9440817,8.184799484,
51933333,-2.103288381,-142.2672269,8.299661526,
52037777,-2.077362128,-145.5674301,8.40224516,
52142222,-2.050620215,-148.8912543,8.510786906,
52246666,-2.025476788,-152.2127712,8.61546715,
52351111,-2.002375673,-155.5377841,8.713972477,
52455555,-1.977537208,-158.8911091,8.822465083,
52560000,-1.954001236,-162.2563759,8.92782468,
52664444,-1.931231565,-165.6151028,9.032208311,
52768888,-1.909734743,-168.9575519,9.133050591,
52873333,-1.889848019,-172.2871248,9.228390999,
52977777,-1.871861872,-175.60321,9.316371299,
53082222,-1.854952412,-178.924952,9.400647019,
53186666,-1.83628435,177.7581818,9.495497049,
53291111,-1.820297316,174.4725245,9.578277365,
53395555,-1.807638846,171.2032793,9.64486501,
53500000,-1.793302578,167.9143096,9.721417742,
53604444,-1.778656212,164.6140841,9.800905278,
53708888,-1.764962772,161.285008,9.876418656,
53813333,-1.750667729,157.9872542,9.956514278,
53917777,-1.739421374,154.6711625,10.02045644,
54022222,-1.725674198,151.3547065,10.09975307,
54126666,-1.713881671,148.0378748,10.16879186,
54231111,-1.703507479,144.7175189,10.23031998,
54335555,-1.690888571,141.4098577,10.30618223,
54440000,-1.680553107,138.0915136,10.36916827,
54544444,-1.668229124,134.7325037,10.44529602,
54648888,-1.653644843,131.3333251,10.53685659,
54753333,-1.643071406,127.9838269,10.60425642,
54857777,-1.6285107,124.6432162,10.6985097,
54962222,-1.619156203,121.3246493,10.75995955,
55066666,-1.608830533,118.0017687,10.8286212,
55171111,-1.601601014,114.6945439,10.87722312,
55275555,-1.589927691,111.2755242,10.95663508,
55380000,-1.583609893,108.0370082,11.00010381,
55484444,-1.576935293,104.6754052,11.04640689,
55588888,-1.56826733,101.2975341,11.10712823,
55693333,-1.557668655,97.83350512,11.18229557,
55797777,-1.54695093,94.42845749,11.25935747,
55902222,-1.540935735,91.06263473,11.30307843,
56006666,-1.531927962,87.64494736,11.36919446,
56111111,-1.519871276,84.20118375,11.45891884,
56215555,-1.5149495,80.78053107,11.49595765,
56320000,-1.506376723,77.3812171,11.56105145,
56424444,-1.500114858,73.94307794,11.60906967,
56528888,-1.494221555,70.49936007,11.65463019,
56633333,-1.487935906,67.04206234,11.70362261,
56737777,-1.483897985,63.56345174,11.735315,
56842222,-1.478704022,60.07723161,11.77633593,
56946666,-1.476976122,56.58749897,11.79004666,
57051111,-1.469662163,53.04387534,11.8484402,
57155555,-1.46776516,49.51098257,11.86368086,
57260000,-1.46682802,46.00205798,11.8712245,
57364444,-1.467014278,42.42525675,11.86972442,
57468888,-1.46706377,38.82785088,11.86932589,
57573333,-1.468111619,35.16554907,11.86089444,
57677777,-1.475768319,31.55637278,11.79964958,
57782222,-1.4828885,27.87321746,11.74326516,
57886666,-1.49107849,24.11055685,11.67907651,
57991111,-1.508122775,20.35872493,11.54773337,
58095555,-1.526639161,16.56673044,11.40837814,
58200000,-1.550507597,12.71574264,11.23366612,
58304444,-1.581761247,8.794144672,11.01288901,
58408888,-1.620374843,4.81822986,10.75191398,
58513333,-1.669213341,0.7753682612,10.43917489,
58617777,-1.730233693,-3.371391782,10.07331281,
58722222,-1.808193888,-7.622327446,9.641925694,
58826666,-1.909056881,-11.84724536,9.13626755,
58931111,-2.0383399,-16.17631952,8.561589719,
59035555,-2.203192257,-20.63030446,7.927052277,
59140000,-2.414633355,-25.15469456,7.240648515,
59244444,-2.688275955,-29.78481117,6.513553135,
59348888,-3.032888592,-34.29920855,5.785877786,
59453333,-3.49399421,-38.41318557,5.03876036,
59557777,-4.070530161,-42.08703786,4.345516299,
59662222,-4.757686606,-44.67760616,3.742146244,
59766666,-5.500530435,-45.53537339,3.263047281,
59871111,-6.149509764,-44.22336046,2.941928666,
59975555,-6.494587491,-41.06703605,2.798282264,
60080000,-6.401183936,-37.49972299,2.835568097,
60184444,-5.942081398,-35.36969647,3.036655905,
60288888,-5.325162785,-35.14451849,3.363752146,
60393333,-4.710765852,-36.52512899,3.777627347,
60497777,-4.172052268,-39.0814621,4.243593139,
60602222,-3.720457435,-42.3750839,4.740430546,
60706666,-3.353641318,-46.11250502,5.244166378,
60811111,-3.058689533,-50.05228241,5.738054162,
60915555,-2.819706842,-54.12212436,6.21485621,
61020000,-2.625125256,-58.24576633,6.667799845,
61124444,-2.46584494,-62.33812583,7.092211839,
61228888,-2.339793822,-66.45547436,7.469333719,
61333333,-2.228554865,-70.53954683,7.837802233,
61437777,-2.14793231,-74.57213765,8.128848417,
61542222,-2.069456734,-78.57903115,8.434038631,
61646666,-2.005351902,-82.57107132,8.701153624,
61751111,-2.329419427,-86.27335759,7.502201382,
61855555,-1.902271326,-90.47007563,9.168596898,
61960000,-1.861507053,-94.4176259,9.367796673,
62064444,-1.830212574,-98.35573331,9.526765546,
62168888,-1.793592028,-102.237899,9.719859989,
62273333,-1.767664945,-106.1334682,9.86142437,
62377777,-1.743008482,-110.0018778,9.999971691,
62482222,-1.718485952,-113.9047626,10.1417232,
62586666,-1.700453791,-117.7088989,10.24857452,
62691111,-1.68226635,-121.5396569,10.35867381,
62795555,-1.664706748,-125.4260206,10.46726222,
62900000,-1.638586988,-129.2502921,10.63310559,
63004444,-1.637319498,-133.0909266,10.64128833,
63108888,-1.626982242,-136.9239885,10.70850173,
63213333,-1.615276684,-140.7626751,10.78565359,
63317777,-1.60602044,-144.6115126,10.84746049,
63422222,-1.594564474,-148.4797094,10.92495211,
63526666,-1.585137188,-152.313839,10.98956363,
63631111,-1.578847876,-156.1710918,11.03309878,
63735555,-1.569860817,-160.0295879,11.095915,
63840000,-1.561148329,-163.9246332,11.15750438,
63944444,-1.552398084,-167.8178391,11.22005837,
64048888,-1.541232406,-171.7323363,11.30091408,
64153333,-1.529217791,-175.6494162,11.38923964,
64257777,-1.51510158,-179.5792318,11.49480956,
64362222,-1.49835696,176.44435,11.6226222,
64466666,-1.477393585,172.4601739,11.78673118,
64571111,-1.45801059,168.4258913,11.94267754,
64675555,-1.430238858,164.3404373,12.17349992,
64780000,-1.410134766,160.2566094,12.34627946,
64884444,-1.383724218,156.0995669,12.58090524,
64988888,-1.355052102,151.8895801,12.84599884,
65093333,-1.325469025,147.6054021,13.131561,
65197777,-1.296842558,143.2493757,13.42031685,
65302222,-1.269605854,138.8278822,13.70716563,
65406666,-1.246704481,134.3471583,13.95807347,
65511111,-1.229114089,129.7969838,14.15715417,
65615555,-1.223336415,125.2180308,14.22379463,
65720000,-1.220318083,120.5895817,14.25885984,
65824444,-1.220942072,115.9272353,14.25159646,
65928888,-1.225542627,111.2357668,14.19827361,
66033333,-1.231620936,106.526416,14.12843466,
66137777,-1.239348493,101.7805487,14.04063681,
66242222,-1.251670487,97.00992078,13.90288484,
66346666,-1.267915921,92.22863758,13.72537028,
66451111,-1.283580229,87.39454858,13.5584683,
66555555,-1.299070154,82.54710172,13.39738955,
66660000,-1.311969096,77.65439264,13.26616208,
66764444,-1.325360424,72.7289498,13.13263284,
66868888,-1.336287781,67.74571844,13.02565939,
66973333,-1.345730377,62.71788111,12.93462297,
67077777,-1.356820692,57.64684608,12.8293221,
67182222,-1.365963558,52.51674146,12.74380043,
67286666,-1.372779734,47.34566382,12.68078516,
67391111,-1.381883922,42.10660166,12.59758899,
67495555,-1.390000558,36.81657415,12.52433816,
67600000,-1.391842245,31.44848227,12.50783652,
67704444,-1.400324111,26.03844899,12.43239987,
67808888,-1.404099471,20.55860299,12.39911605,
67913333,-1.409729525,14.99788654,12.34981298,
68017777,-1.414861604,9.399402196,12.30521335,
68122222,-1.420320904,3.736349436,12.25812462,
68226666,-1.424115177,-2.00120714,12.22561055,
68331111,-1.43000533,-7.800326614,12.17547897,
68435555,-1.435804562,-13.66711021,12.12652397,
68540000,-1.438299211,-19.58939455,12.10558676,
68644444,-1.442879276,-25.56252105,12.06733588,
68748888,-1.442876017,-31.60078832,12.06736301,
68853333,-1.448067833,-37.69535467,12.02429611,
68957777,-1.450528827,-43.84406089,12.00398975,
69062222,-1.454692304,-50.02904315,11.96979251,
69166666,-1.457060785,-56.27926726,11.95042612,
69271111,-1.461610947,-62.55624879,11.91339725,
69375555,-1.467095434,-68.88024977,11.86907092,
69480000,-1.469803799,-75.23399645,11.84730387,
69584444,-1.473939929,-81.61393178,11.81421665,
69688888,-1.478766112,-88.03184622,11.77584385,
69793333,-1.484613138,-94.47594726,11.72968939,
69897777,-1.48923198,-100.9167566,11.69348665,
70002222,-1.495075341,-107.4087293,11.64800735,
70106666,-1.501080978,-113.8934882,11.60163492,
70211111,-1.507182164,-120.3882966,11.55490407,
70315555,-1.510903439,-126.8903194,11.52658744,
70420000,-1.518059312,-133.3921517,11.47252676,
70524444,-1.523857813,-139.8820834,11.42909401,
70628888,-1.529221663,-146.3987036,11.38921094,
70733333,-1.534192402,-152.9246968,11.35250049,
70837777,-1.539118599,-159.4252399,11.31635353,
70942222,-1.543364171,-165.9541069,11.28538641,
71046666,-1.547874701,-172.4965459,11.25267329,
71151111,-1.551780021,-179.0377821,11.22450354,
71255555,-1.555041114,174.3894712,11.20108939,
71360000,-1.558655924,167.7918572,11.17525042,
71464444,-1.560867804,161.1468491,11.15949889,
71568888,-1.561887794,154.4422727,11.15225028,
71673333,-1.563679125,147.658855,11.13954303,
71777777,-1.56584565,140.7822327,11.12421321,
71882222,-1.567674208,133.7907417,11.11130781,
71986666,-1.568509996,126.6117992,11.10541913,
72091111,-1.568879429,119.2314873,11.10281824,
72195555,-1.573219368,111.5599271,11.07235575,
72300000,-1.57822118,103.5353361,11.03745588,
72404444,-1.587097355,95.03223329,10.9760659,
72508888,-1.597780885,85.89580958,10.90308283,
72613333,-1.61708019,75.90630364,10.7736936,
72717777,-1.643893172,64.80617222,10.59898695,
72822222,-1.686125787,52.0680332,10.3351112,
72926666,-1.751969328,37.13779322,9.949167104,
73031111,-1.850352372,19.05339107,9.42384087,
73135555,-1.991437514,-3.33832182,8.761414617,
