Frequency,S11_Magnitude,S11_Magnitude (linear),S11_Phase,S11_Unwrapped Phase,S11_VSWR,
30000000,-0.9625150334,0.8951055467,-133.0898974,-133.0898974,18.06678511,
30104444,-0.9837952378,0.8929152455,-136.5395984,-136.5395984,17.67679493,
30208888,-0.9892815247,0.8923514296,-140.2035264,-140.2035264,17.57897409,
30313333,-0.9995699817,0.891295063,-143.8509862,-143.8509862,17.3984284,
30417777,-1.009936501,0.8902319461,-147.4992203,-147.4992203,17.2202374,
30522222,-1.020941195,0.8891047701,-151.1391649,-151.1391649,17.03504084,
30626666,-1.031765292,0.8879974843,-154.7949059,-154.7949059,16.85674177,
30731111,-1.042377854,0.8869131769,-158.4532097,-158.4532097,16.68552645,
30835555,-1.054944382,0.8856309409,-162.1088435,-162.1088435,16.48724713,
30940000,-1.066292592,0.8844746099,-165.7753589,-165.7753589,16.31221161,
31044444,-1.079161506,0.8831651529,-169.4659657,-169.4659657,16.11818048,
31148888,-1.09056134,0.8820067992,-173.151312,-173.151312,15.95012921,
31253333,-1.101854497,0.8808607831,-176.8350474,-176.8350474,15.78708365,
31357777,-1.112900751,0.879741263,179.4823172,-180.5176828,15.63080829,
31462222,-1.124305248,0.8785869285,175.7867133,-184.2132867,15.47269091,
31566666,-1.135291037,0.8774764068,172.1153863,-187.8846137,15.32338677,
31671111,-1.147303218,0.8762637364,168.4076423,-191.5923577,15.16341032,
31775555,-1.15924619,0.8750597145,164.6733018,-195.3266982,15.00764711,
31880000,-1.16859757,0.874118117,160.981778,-199.018222,14.88790978,
31984444,-1.179596636,0.8730119093,157.2820739,-202.7179261,14.74950839,
32088888,-1.189841957,0.8719827671,153.5778569,-206.4221431,14.62289666,
32193333,-1.19973731,0.8709899311,149.8727308,-210.1272692,14.50266594,
32297777,-1.210747577,0.8698865605,146.1470564,-213.8529436,14.37120229,
32402222,-1.220500499,0.8689103594,142.433704,-217.566296,14.2567357,
32506666,-1.230463006,0.8679143114,138.7104014,-221.2895986,14.14168583,
32611111,-1.240499467,0.8669120241,134.9859288,-225.0140712,14.0276536,
32715555,-1.249834542,0.8659808193,131.2628266,-228.7371734,13.92323703,
32820000,-1.256989019,0.8652678136,127.5408143,-232.4591857,13.84426293,
32924444,-1.267183793,0.8642528301,123.7918934,-236.2081066,13.73327217,
33028888,-1.273149243,0.8636594669,120.0568852,-239.9431148,13.66915197,
33133333,-1.281086231,0.8628706331,116.3124781,-243.6875219,13.58476798,
33237777,-1.288915451,0.8620932158,112.5914803,-247.4085197,13.50254976,
33342222,-1.295488631,0.8614410604,108.8563987,-251.1436013,13.4342906,
33446666,-1.300983883,0.8608962297,105.1098961,-254.8901039,13.37775551,
33551111,-1.307345804,0.860265903,101.366889,-258.633111,13.31289888,
33655555,-1.312993486,0.8597067284,97.63210534,-262.3678947,13.25585117,
33760000,-1.316262817,0.8593831994,93.88566685,-266.1143332,13.22305152,
33864444,-1.320557784,0.8589583598,90.17980094,-269.8201991,13.18020946,
33968888,-1.326042378,0.8584161527,86.42515099,-273.574849,13.12590517,
34073333,-1.331070625,0.8579193608,82.69330659,-277.3066934,13.07651325,
34177777,-1.334367348,0.8575938,78.94796807,-281.0520319,13.04433234,
34282222,-1.336343304,0.8573987278,75.21432084,-284.7856792,13.02512032,
34386666,-1.341274182,0.8569121308,71.4666605,-288.5333395,12.97742528,
34491111,-1.343003192,0.8567415712,67.708637,-292.291363,12.96078413,
34595555,-1.342675993,0.8567738454,63.93973591,-296.0602641,12.96393002,
34700000,-1.33535637,0.8574961553,60.16631626,-299.8336837,13.03470906,
34804444,-1.341841325,0.8568561807,56.38992816,-303.6100718,12.97196197,
34908888,-1.343291519,0.8567131322,52.63633266,-307.3636673,12.95801325,
35013333,-1.344884186,0.8565560574,48.90999099,-311.090009,12.94272888,
35117777,-1.343756967,0.856667225,45.17982009,-314.8201799,12.95354272,
35222222,-1.343192595,0.8567228894,41.41627268,-318.5837273,12.95896379,
35326666,-1.343609571,0.8566817624,37.67115707,-322.3288429,12.95495809,
35431111,-1.344361652,0.8566075885,33.89461339,-326.1053866,12.94773949,
35535555,-1.343805854,0.8566624034,30.07678968,-329.9232103,12.95307335,
35640000,-1.345523969,0.8564929678,26.26046377,-333.7395362,12.93659927,
35744444,-1.345434602,0.8565017801,22.54622722,-337.4537728,12.93745512,
35848888,-1.346471098,0.856399579,18.88242048,-341.1175795,12.92753577,
35953333,-1.346141813,0.856432046,15.22284923,-344.7771508,12.93068539,
36057777,-1.343894188,0.8566536913,11.54377527,-348.4562247,12.95222534,
36162222,-1.341845451,0.8568557737,7.852601403,-352.1473986,12.97192225,
36266666,-1.340122682,0.8570257403,4.143045946,-355.8569541,12.98853195,
36371111,-1.336765077,0.857357095,0.416834112,-359.5831659,13.02102684,
36475555,-1.333981781,0.8576318694,-3.308795974,-363.308796,13.04808781,
36580000,-1.329066003,0.8581173835,-7.040072307,-367.0400723,13.09615955,
36684444,-1.327453512,0.8582767033,-10.76524627,-370.7652463,13.11200591,
36788888,-1.325870543,0.8584331351,-14.51349264,-374.5134926,13.12759972,
36893333,-1.32133582,0.8588814223,-18.27963576,-378.2796358,13.17247844,
36997777,-1.318016457,0.8592097115,-22.03858073,-382.0385807,13.20552527,
37102222,-1.315329712,0.8594755259,-25.79025513,-385.7902551,13.23239627,
37206666,-1.313948589,0.8596121999,-29.55711409,-389.5571141,13.24625216,
37311111,-1.311608702,0.8598438017,-33.2914903,-393.2914903,13.26979344,
37415555,-1.30982926,0.8600199723,-37.03460678,-397.0346068,13.28775256,
37520000,-1.305160289,0.8604823875,-40.87264278,-400.8726428,13.33510769,
37624444,-1.303929191,0.860604357,-44.75597476,-404.7559748,13.34765074,
37728888,-1.301742616,0.8608210317,-48.60589747,-408.6058975,13.36998725,
37833333,-1.301693078,0.8608259412,-52.34253877,-412.3425388,13.37049416,
37937777,-1.299211999,0.8610718667,-56.07625294,-416.0762529,13.39593229,
38042222,-1.298437741,0.861148626,-59.80026356,-419.8002636,13.40389059,
38146666,-1.296647559,0.861326129,-63.48941899,-423.489419,13.42232762,
38251111,-1.296816221,0.861309404,-67.19667214,-427.1966721,13.4205884,
38355555,-1.29764712,0.8612270144,-70.89203377,-430.8920338,13.41202689,
38460000,-1.29913711,0.8610792909,-74.60349976,-434.6034998,13.39670164,
38564444,-1.297422169,0.8612493191,-78.3302377,-438.3302377,13.41434367,
38668888,-1.295810553,0.8614091337,-82.06034807,-442.0603481,13.43096543,
38773333,-1.297407098,0.8612508135,-85.77399557,-445.7739956,13.41449892,
38877777,-1.298312839,0.8611610093,-89.52419537,-449.5241954,13.4051753,
38982222,-1.302635035,0.8607325925,-93.28088729,-453.2808873,13.36086185,
39086666,-1.304194558,0.8605780646,-97.02084869,-457.0208487,13.34494504,
39191111,-1.308313741,0.8601700421,-100.7754446,-460.7754446,13.30308662,
39295555,-1.311124632,0.8598917226,-104.5168699,-464.5168699,13.27467411,
39400000,-1.315055667,0.8595026433,-108.2723677,-468.2723677,13.23514325,
39504444,-1.318778334,0.8591343498,-112.0495469,-472.0495469,13.19792545,
39608888,-1.325617845,0.8584581098,-115.8047787,-475.8047787,13.1300925,
39713333,-1.332922356,0.8577364818,-119.5647698,-479.5647698,13.05841797,
39817777,-1.337258565,0.8573083857,-123.3511132,-483.3511132,13.01624061,
39922222,-1.342064726,0.8568341426,-127.1350807,-487.1350807,12.96981122,
40026666,-1.349445852,0.8561063284,-130.9129311,-490.9129311,12.89915191,
40131111,-1.35766382,0.8552967248,-134.7020668,-494.7020668,12.82138723,
40235555,-1.364335404,0.8546400283,-138.5077773,-498.5077773,12.758946,
40340000,-1.373084069,0.853779645,-142.327373,-502.327373,12.67798621,
40444444,-1.38134979,0.8529675523,-146.1744209,-506.1744209,12.60243967,
40548888,-1.391540603,0.8519673858,-149.9986792,-509.9986792,12.51053625,
40653333,-1.401442225,0.850996725,-153.8139385,-513.8139385,12.42252377,
40757777,-1.412910788,0.8498738384,-157.586077,-517.586077,12.32212839,
40862222,-1.426727087,0.8485230526,-161.2781041,-521.2781041,12.20332918,
40966666,-1.438980343,0.847326878,-165.0140642,-525.0140642,12.09988276,
41071111,-1.454480323,0.8458161705,-168.7771108,-528.7771108,11.9715289,
41175555,-1.467866239,0.8445136782,-172.5673226,-532.5673226,11.86286779,
41280000,-1.482983115,0.8430451694,-176.3788194,-536.3788194,11.74251957,
41384444,-1.498229128,0.8415667021,179.803213,-540.196787,11.62360896,
41488888,-1.514191846,0.8400215114,175.9791016,-544.0208984,11.5016808,
41593333,-1.531846298,0.8383158649,172.1451114,-547.8548886,11.36979743,
41697777,-1.549451776,0.8366183986,168.3123956,-551.6876044,11.24128043,
41802222,-1.568473997,0.8347881974,164.4939991,-555.5060009,11.10567265,
41906666,-1.587408082,0.8329704519,160.6421524,-559.3578476,10.9739293,
42011111,-1.607676414,0.8310289998,156.7150979,-563.2849021,10.8363506,
42115555,-1.63059852,0.8288388014,152.9272523,-567.0727477,10.6848913,
42220000,-1.655806125,0.8264368881,149.1211857,-570.8788143,10.52318588,
42324444,-1.682286436,0.823921201,145.2534281,-574.7465719,10.3585509,
42428888,-1.709248079,0.821367654,141.3908493,-578.6091507,10.19618056,
42533333,-1.739524795,0.8185095676,137.5188047,-582.4811953,10.01986465,
42637777,-1.76858391,0.815775775,133.6128218,-586.3871782,9.856335534,
42742222,-1.801986431,0.812644646,129.6998896,-590.3001104,9.674901772,
42846666,-1.836162795,0.8094534161,125.7646352,-594.2353648,9.496120996,
42951111,-1.873862453,0.8059477317,121.8181128,-598.1818872,9.306501529,
43055555,-1.913923741,0.8022390777,117.8884416,-602.1115584,9.113221441,
43160000,-1.957461957,0.7982278978,113.9498391,-606.0501609,8.912173082,
43264444,-2.0067523,0.7937109741,110.0257735,-609.9742265,8.695135216,
43368888,-2.057808269,0.7890591977,106.1088816,-613.8911184,8.481333046,
43473333,-2.115629268,0.7838239631,102.2000807,-617.7999193,8.25171924,
43577777,-2.177682489,0.7782441692,98.27256376,-621.7274362,8.01892858,
43682222,-2.248480167,0.7719265734,94.36746267,-625.6325373,7.769105764,
43786666,-2.322222349,0.7654007484,90.4869533,-629.5130467,7.525176387,
43891111,-2.404259415,0.7582056725,86.62590623,-633.3740938,7.271492638,
43995555,-2.493116932,0.7504886929,82.74540069,-637.2545993,7.015668802,
44100000,-2.588301229,0.7423093631,78.84687157,-641.1531284,6.76124435,
44204444,-2.693128248,0.7334045291,74.94044864,-645.0595514,6.502002917,
44308888,-2.805253716,0.7239979128,71.01735275,-648.9826473,6.246322013,
44413333,-2.928809102,0.7137720617,67.10603007,-652.8939699,5.987438096,
44517777,-3.066754901,0.7025257624,63.22944551,-656.7705545,5.723271287,
44622222,-3.214745097,0.6906575205,59.35936667,-660.6406333,5.465326079,
44726666,-3.377066439,0.677870412,55.54044647,-664.4595535,5.208681458,
44831111,-3.556702569,0.6639950956,51.7905306,-668.2094694,4.952294069,
44935555,-3.749918443,0.6493877291,48.09223399,-671.907766,4.70430691,
45040000,-3.959972514,0.6338717171,44.49015037,-675.5098496,4.462566246,
45144444,-4.184159394,0.6177205227,40.97736623,-679.0226338,4.231774445,
45248888,-4.425952029,0.6007619227,37.58406652,-682.4159335,4.00954221,
45353333,-4.68436185,0.5831521854,34.34838178,-685.6516182,3.797914082,
45457777,-4.952431066,0.5654294787,31.26083683,-688.7391632,3.60224498,
45562222,-5.232435169,0.5474925849,28.19512318,-691.8048768,3.419817075,
45666666,-5.518520227,0.5297536878,25.47846963,-694.5215304,3.253090238,
45771111,-5.806538205,0.5124754787,23.32041343,-696.6795866,3.102357753,
45875555,-6.08987374,0.4960281377,21.6784037,-698.3215963,2.968475524,
45980000,-6.351704919,0.4812987725,20.17593678,-699.8240632,2.855784205,
46084444,-6.58051681,0.4687854886,18.89215813,-701.1078419,2.764957389,
46188888,-6.769404633,0.458701086,17.88987463,-702.1101254,2.694816207,
46293333,-6.904388777,0.4516276898,17.10628402,-702.893716,2.647157165,
46397777,-6.978537103,0.4477887154,16.44861563,-703.5513844,2.621802118,
46502222,-6.991260137,0.4471332776,15.84770445,-704.1522955,2.617508378,
46606666,-6.94051309,0.4497532864,15.20387635,-704.7961237,2.634733203,
46711111,-6.831052941,0.4554569704,14.41157469,-705.5884253,2.672804335,
46815555,-6.675209888,0.4637025729,13.34285753,-706.6571425,2.729273904,
46920000,-6.479815315,0.474252069,12.14443321,-707.8555668,2.804104366,
47024444,-6.258128174,0.4865120387,10.61268166,-709.3873183,2.894930652,
47128888,-6.019265519,0.5000768198,8.674080506,-711.3259195,3.000614653,
47233333,-5.772136793,0.5145092184,6.635567715,-713.3644323,3.119542689,
47337777,-5.527781432,0.5291891465,4.576946222,-715.4230538,3.24799043,
47442222,-5.286316448,0.5441068301,2.226964442,-717.7730356,3.386992682,
47546666,-5.049311975,0.5591578177,-0.379424859,-720.3794249,3.536770936,
47651111,-4.82336082,0.573894363,-3.171023928,-723.1710239,3.693671771,
47755555,-4.608637534,0.588258381,-6.098657025,-726.098657,3.857415203,
47860000,-4.408881672,0.6019437596,-9.153999961,-729.154,4.02441564,
47964444,-4.218634151,0.6152736164,-12.30643946,-732.3064395,4.198499727,
48068888,-4.042288922,0.6278928735,-15.54121874,-735.5412187,4.374796282,
48173333,-3.873910011,0.6401835338,-18.84822014,-738.8482201,4.558389312,
48277777,-3.718580427,0.6517349013,-22.26127128,-742.2612713,4.742751735,
48382222,-3.573843835,0.6626860191,-25.80152194,-745.8015219,4.929193907,
48486666,-3.440933924,0.6729043004,-29.15554999,-749.15555,5.114418509,
48591111,-3.319493761,0.682378464,-32.49977587,-752.4997759,5.296802242,
48695555,-3.204610805,0.6914638178,-35.89396518,-755.8939652,5.48222191,
48800000,-3.097045833,0.7000800605,-39.32653654,-759.3265365,5.668446264,
48904444,-2.995566965,0.7083071923,-42.78603915,-762.7860391,5.856528331,
49008888,-2.902664294,0.7159237754,-46.21551489,-766.2155149,6.040363912,
49113333,-2.819729468,0.7227923155,-49.65154761,-769.6515476,6.214807206,
49217777,-2.740179267,0.7294424553,-53.05769883,-773.0576988,6.392142776,
49322222,-2.663814405,0.7358838634,-56.47584038,-776.4758404,6.572426381,
49426666,-2.594993448,0.7417376562,-59.92676565,-779.9267656,6.744063537,
49531111,-2.530115375,0.7472987077,-63.3662259,-783.3662259,6.914482676,
49635555,-2.471233424,0.7523818819,-66.81441976,-786.8144198,7.076953397,
49740000,-2.4124957,0.7574870543,-70.26970938,-790.2697094,7.246982421,
49844444,-2.36181949,0.7619193891,-73.73858314,-793.7385831,7.400516079,
49948888,-2.309435425,0.7665283622,-77.2082714,-797.2082714,7.566351008,
50053333,-2.262316702,0.770697881,-80.65343987,-800.6534399,7.722117391,
50157777,-2.219865171,0.7744738197,-84.08802454,-804.0880245,7.868150018,
50262222,-2.180257146,0.7780135176,-87.47225393,-807.4722539,8.0095576,
50366666,-2.142967905,0.7813607737,-90.83068906,-810.8306891,8.147489376,
50471111,-2.104448365,0.7848335894,-94.23501352,-814.2350135,8.295131122,
50575555,-2.072621111,0.7877146897,-97.64749091,-817.6474909,8.421283069,
50680000,-2.041538376,0.7905386016,-101.0508983,-821.0508983,8.548298711,
50784444,-2.011326939,0.7932930565,-104.4315948,-824.4315948,8.675533711,
50888888,-1.983893873,0.7958025132,-107.7644396,-827.7644396,8.794439841,
50993333,-1.958531383,0.7981296243,-111.1022605,-831.1022605,8.907347687,
51097777,-1.932836427,0.8004941799,-114.437758,-834.437758,9.024770199,
51202222,-1.909187113,0.8026766775,-117.759419,-837.759419,9.135649322,
51306666,-1.888437818,0.8045964445,-121.0838335,-841.0838335,9.235228292,
51411111,-1.869036505,0.806395647,-124.4192844,-844.4192844,9.330346239,
51515555,-1.850289764,0.8081379689,-127.7016563,-847.7016563,9.424157341,
51620000,-1.833061317,0.8097425,-131.00481,-851.00481,9.512069168,
51724444,-1.817613658,0.8111838901,-134.3229677,-854.3229677,9.592316521,
51828888,-1.802342015,0.8126113786,-137.62896,-857.62896,9.67300664,
51933333,-1.787008643,0.8140471645,-140.9646361,-860.9646361,9.755415448,
52037777,-1.772630943,0.8153957676,-144.2982439,-864.2982439,9.83398779,
52142222,-1.761425333,0.8164483832,-147.6054837,-867.6054837,9.896117587,
52246666,-1.749115428,0.8176062988,-150.8899941,-870.8899941,9.965290947,
52351111,-1.737661881,0.8186851369,-154.2030379,-874.2030379,10.03053531,
52455555,-1.728529277,0.8195463797,-157.464177,-877.464177,10.08318024,
52560000,-1.717573527,0.8205807482,-160.7420703,-880.7420703,10.1470758,
52664444,-1.710930447,0.8212085789,-164.005642,-884.005642,10.18621905,
52768888,-1.702898846,0.8219682789,-167.2889722,-887.2889722,10.23395307,
52873333,-1.693545713,0.8228538668,-170.5615414,-890.5615414,10.29011378,
52977777,-1.684015758,0.8237571783,-173.8976196,-893.8976196,10.34797991,
53082222,-1.676422678,0.8244776098,-177.1909886,-897.1909886,10.39455769,
53186666,-1.669996401,0.8250878273,179.5419927,-900.4580073,10.43430997,
53291111,-1.662224306,0.8258264426,176.2459333,-903.7540667,10.48279928,
53395555,-1.655809778,0.8264365406,172.9715546,-907.0284454,10.52316281,
53500000,-1.647928567,0.8271867547,169.66478,-910.33522,10.57318698,
53604444,-1.640531482,0.8278915042,166.3702176,-913.6297824,10.62057684,
53708888,-1.634431397,0.8284731352,163.0777589,-916.9222411,10.65998109,
53813333,-1.629179115,0.8289742572,159.7922384,-920.2077616,10.69414597,
53917777,-1.624651843,0.829406449,156.5344942,-923.4655058,10.72377261,
54022222,-1.622058161,0.8296541539,153.2678691,-926.7321309,10.74082049,
54126666,-1.618144533,0.830028058,150.0123265,-929.9876735,10.76664793,
54231111,-1.615423377,0.8302881337,146.7438791,-933.2561209,10.78467978,
54335555,-1.61156255,0.830657274,143.4777154,-936.5222846,10.81036852,
54440000,-1.6094014,0.8308639769,140.2164277,-939.7835723,10.82480209,
54544444,-1.605947393,0.8311944416,136.9242593,-943.0757407,10.84795109,
54648888,-1.604196744,0.8313619865,133.6255178,-946.3744822,10.85972225,
54753333,-1.597237897,0.8320283131,130.3269392,-949.6730608,10.90676856,
54857777,-1.591905563,0.8325392585,127.0223526,-952.9776474,10.94309772,
54962222,-1.586979203,0.8330115821,123.7025938,-956.2974062,10.97687855,
55066666,-1.58296279,0.8333968613,120.3890305,-959.6109695,11.00457576,
55171111,-1.576495782,0.8340175911,117.085794,-962.914206,11.04946966,
55275555,-1.574404718,0.834218399,113.7805549,-966.2194451,11.06406493,
55380000,-1.566387014,0.8349887983,110.4964241,-969.5035759,11.12038928,
55484444,-1.565855656,0.8350398802,107.1155028,-972.8844972,11.12414251,
55588888,-1.55985715,0.8356167609,103.7251314,-976.2748686,11.16669054,
55693333,-1.556770244,0.8359137861,100.4322143,-979.5677857,11.18871441,
55797777,-1.555807815,0.8360064137,97.1035801,-982.8964199,11.19559889,
55902222,-1.551698229,0.8364020499,93.76676488,-986.2332351,11.22509206,
56006666,-1.554827371,0.8361007855,90.5240439,-989.4759561,11.20262102,
56111111,-1.552470522,0.8363276858,87.18573464,-992.8142654,11.21953762,
56215555,-1.54819205,0.8367397432,83.76279974,-996.2372003,11.25037887,
56320000,-1.53987811,0.8375410353,80.29051815,-999.7094819,11.3108011,
56424444,-1.539114849,0.8376146364,77.00812261,-1002.991877,11.31638096,
56528888,-1.542028283,0.8373337296,73.7151434,-1006.284857,11.29511192,
56633333,-1.539205127,0.8376059306,70.37594765,-1009.624052,11.31572068,
56737777,-1.535835156,0.8379309699,66.9930475,-1013.006953,11.34042061,
56842222,-1.534560857,0.838053911,63.59664117,-1016.403359,11.34978882,
56946666,-1.532020699,0.8382990328,60.19270799,-1019.807292,11.36850981,
57051111,-1.528935031,0.8385968919,56.78253536,-1023.217465,11.39133511,
57155555,-1.529585823,0.8385340623,53.3749168,-1026.625083,11.38651339,
57260000,-1.52852703,0.8386362841,49.94181724,-1030.058183,11.39436009,
57364444,-1.526181411,0.8388627879,46.49344853,-1033.506551,11.41178232,
57468888,-1.525653654,0.838913759,43.03710057,-1036.962899,11.41570967,
57573333,-1.526245307,0.838856617,39.58223949,-1040.417761,11.41130702,
57677777,-1.523654472,0.8391068692,36.11354372,-1043.886456,11.43061149,
57782222,-1.525222583,0.8389553944,32.62228287,-1047.377717,11.41891954,
57886666,-1.525455287,0.8389329182,29.1272516,-1050.872748,11.41718654,
57991111,-1.520921545,0.8393709272,25.47326557,-1054.526734,11.45104616,
58095555,-1.521965411,0.8392700581,22.04754732,-1057.952453,11.44323227,
58200000,-1.523581644,0.8391139049,18.51603274,-1061.483967,11.43115509,
58304444,-1.527979433,0.8386891572,14.9900246,-1065.009975,11.39842261,
58408888,-1.530296763,0.838465431,11.35682612,-1068.643174,11.38125073,
