Frequency,S11_Magnitude,S11_Phase,S11_VSWR,
30000000,-0.9061807629,-138.5474759,19.18770933,
30104444,-0.9242131463,-142.05893,18.81402168,
30208888,-0.9375587375,-145.729276,18.54672359,
30313333,-0.9510298677,-149.4103237,18.28452641,
30417777,-0.962817707,-153.098379,18.0611172,
30522222,-0.9761260195,-156.7928081,17.81538247,
30626666,-0.9901206007,-160.5066231,17.56410899,
30731111,-1.003655835,-164.2062115,17.32775632,
30835555,-1.016342549,-167.9330486,17.1119425,
30940000,-1.028347962,-171.6687544,16.91262754,
31044444,-1.040505689,-175.3963487,16.71547656,
31148888,-1.053593729,-179.1305629,16.50833109,
31253333,-1.064472009,177.1505158,16.34004075,
31357777,-1.075544194,173.4067305,16.17225079,
31462222,-1.084920414,169.6756191,16.03284325,
31566666,-1.095870623,165.9217044,15.87305704,
31671111,-1.105775667,162.1712681,15.7312515,
31775555,-1.114425475,158.4169137,15.60948113,
31880000,-1.129490061,154.6676172,15.40186346,
31984444,-1.143582739,150.916234,15.21259933,
32088888,-1.156011576,147.1520679,15.04951549,
32193333,-1.167268243,143.4023341,14.90481365,
32297777,-1.181179369,139.6470699,14.7298053,
32402222,-1.193603034,135.8744619,14.57696353,
32506666,-1.207653938,132.1433208,14.40789811,
32611111,-1.22259716,128.4008599,14.23236683,
32715555,-1.239841392,124.6651449,14.03507386,
32820000,-1.255817125,120.9654638,13.85713705,
32924444,-1.268794914,117.2838181,13.71589534,
33028888,-1.276484456,113.6211608,13.63356479,
33133333,-1.273820894,109.9294026,13.66197035,
33237777,-1.2686871,106.2040404,13.71705679,
33342222,-1.264731191,102.4388721,13.75980996,
33446666,-1.264891475,98.65779662,13.7580725,
33551111,-1.26466184,94.88200526,13.76056185,
33655555,-1.266939515,91.09520421,13.7359107,
33760000,-1.26787616,87.32406671,13.72579919,
33864444,-1.272468986,83.53325144,13.67643336,
33968888,-1.276342337,79.76310515,13.63507742,
34073333,-1.278752007,75.99557655,13.60947591,
34177777,-1.280367656,72.20662528,13.59236454,
34282222,-1.282083408,68.40917632,13.57424026,
34386666,-1.280952443,64.61213038,13.58618169,
34491111,-1.283430545,60.84120341,13.56004387,
34595555,-1.28504955,57.07137112,13.54302192,
34700000,-1.28721585,53.32729395,13.5203129,
34804444,-1.290728694,49.57484455,13.48365057,
34908888,-1.2908877,45.81363176,13.48199582,
35013333,-1.291297882,42.06359338,13.47772897,
35117777,-1.290888303,38.31209843,13.48198954,
35222222,-1.290935117,34.55435752,13.48150244,
35326666,-1.290952066,30.7863274,13.48132608,
35431111,-1.29178052,27.0409097,13.4727119,
35535555,-1.290724769,23.27112481,13.48369143,
35640000,-1.288989827,19.5106221,13.50177351,
35744444,-1.292277656,15.76397451,13.46754804,
35848888,-1.291882718,12.03746579,13.47165003,
35953333,-1.289795702,8.280153518,13.49336838,
36057777,-1.288112666,4.53253123,13.5109341,
36162222,-1.287269445,0.7685194941,13.51975205,
36266666,-1.285845885,-2.991726336,13.53466514,
36371111,-1.28517253,-6.744531304,13.54173068,
36475555,-1.285372518,-10.51854504,13.53963143,
36580000,-1.283769639,-14.29440929,13.55647513,
36684444,-1.283261079,-18.06393041,13.56182808,
36788888,-1.28306524,-21.85620961,13.56389056,
36893333,-1.28123099,-25.65810328,13.58323867,
36997777,-1.282188989,-29.43180023,13.57312655,
37102222,-1.280602654,-33.1991325,13.58987926,
37206666,-1.279008693,-36.95469566,13.60675445,
37311111,-1.28142582,-40.71238571,13.58118091,
37415555,-1.280924815,-44.49753073,13.58647367,
37520000,-1.285744248,-48.27604583,13.53573115,
37624444,-1.284971253,-51.98285687,13.54384413,
37728888,-1.285451589,-55.70716854,13.53880161,
37833333,-1.290385759,-59.34961727,13.48722086,
37937777,-1.288697862,-63.00591594,13.50482124,
38042222,-1.291908477,-66.72580694,13.47138241,
38146666,-1.294154844,-70.46802648,13.44808513,
38251111,-1.298794687,-74.19530025,13.4002205,
38355555,-1.302424296,-77.9256025,13.36301562,
38460000,-1.305663143,-81.65033999,13.32999118,
38564444,-1.310787835,-85.39810443,13.27807202,
38668888,-1.315065107,-89.11568157,13.23504861,
38773333,-1.320365637,-92.84209221,13.18212014,
38877777,-1.327396554,-96.58725308,13.11256636,
38982222,-1.333149806,-100.3193022,13.05619879,
39086666,-1.340671511,-104.0420215,12.98323589,
39191111,-1.347344461,-107.76514,12.91918948,
39295555,-1.355158607,-111.4937584,12.84499333,
39400000,-1.364181242,-115.2344188,12.76038194,
39504444,-1.37410038,-118.9454535,12.66864829,
39608888,-1.383226088,-122.6661983,12.5854168,
39713333,-1.393736572,-126.3868011,12.49090881,
39817777,-1.403833272,-130.1058948,12.40145699,
39922222,-1.413633322,-133.8235904,12.31585803,
40026666,-1.425590506,-137.549577,12.21301493,
40131111,-1.436594355,-141.2593371,12.11988747,
40235555,-1.449715801,-145.0025754,12.01069061,
40340000,-1.461328534,-148.7517741,11.91568878,
40444444,-1.473473839,-152.5377104,11.81793585,
40548888,-1.486121425,-156.3777964,11.71784255,
40653333,-1.501452058,-159.9714507,11.59878183,
40757777,-1.518959639,-163.5963284,11.4657612,
40862222,-1.534610637,-167.2939742,11.34942256,
40966666,-1.552612064,-171.0160516,11.21852023,
41071111,-1.567097239,-174.7192389,11.11537662,
41175555,-1.583392192,-178.4391312,11.00160787,
41280000,-1.60228062,177.8352961,10.8726356,
41384444,-1.620060181,174.1115365,10.75399024,
41488888,-1.637942429,170.3903913,10.63726519,
41593333,-1.656082135,166.658626,10.52144262,
41697777,-1.675674814,162.9435534,10.39916817,
41802222,-1.696166496,159.2153679,10.27431468,
41906666,-1.717088912,155.5104771,10.14992104,
42011111,-1.73911423,151.7947172,10.02221437,
42115555,-1.761626762,148.0804699,9.89499376,
42220000,-1.786141111,144.3624878,9.760120412,
42324444,-1.810791784,140.6322289,9.628192154,
42428888,-1.838022593,136.9278489,9.486583602,
42533333,-1.866214775,133.2641088,9.344345589,
42637777,-1.894301699,129.5547847,9.206864637,
42742222,-1.922914845,125.8549324,9.07095381,
42846666,-1.954972763,122.1471491,8.923425191,
42951111,-1.987176283,118.4245733,8.780038865,
43055555,-2.021306293,114.6913808,8.633083235,
43160000,-2.057939942,110.9757502,8.480795429,
43264444,-2.096290162,107.2739288,8.327100484,
43368888,-2.135746736,103.5588129,8.174759807,
43473333,-2.179973153,99.87353767,8.010590158,
43577777,-2.22273834,96.07075502,7.858089394,
43682222,-2.272342501,92.42696337,7.688429684,
43786666,-2.323763272,88.73795206,7.520245303,
43891111,-2.378048193,85.05075465,7.350631288,
43995555,-2.436904022,81.34866102,7.175325378,
44100000,-2.501952769,77.70644681,6.991229991,
44204444,-2.57124812,74.25139874,6.805431795,
44308888,-2.646867064,70.76720165,6.613857828,
44413333,-2.72426201,67.22375585,6.428880025,
44517777,-2.805385539,63.69703447,6.246033545,
44622222,-2.89450088,60.14244778,6.057087096,
44726666,-2.987390334,56.61765159,5.87224495,
44831111,-3.087755451,53.11444221,5.685145815,
44935555,-3.191111961,49.65088675,5.504895667,
45040000,-3.303252265,46.19449988,5.322223852,
45144444,-3.421845959,42.8321088,5.142217323,
45248888,-3.546837893,39.49832561,4.965690686,
45353333,-3.678494068,36.23241695,4.792898369,
45457777,-3.816222367,33.02491726,4.625079761,
45562222,-3.955188447,29.92044162,4.467781577,
45666666,-4.101141158,26.95122239,4.314243072,
45771111,-4.247275794,24.11128928,4.171273864,
45875555,-4.393207236,21.37681619,4.03817678,
45980000,-4.536481072,18.77862562,3.916004967,
46084444,-4.67197858,16.42730451,3.807509308,
46188888,-4.795974525,14.2531841,3.713720291,
46293333,-4.903203895,12.21019046,3.636532281,
46397777,-4.988930078,10.27838419,3.577271474,
46502222,-5.050841867,8.414596747,3.535757703,
46606666,-5.083468612,6.63668095,3.514298575,
46711111,-5.086861123,4.886930088,3.512083512,
46815555,-5.056979532,3.187163466,3.531699122,
46920000,-4.997156496,1.481348261,3.571694506,
47024444,-4.907911278,-0.3101384377,3.633222998,
47128888,-4.793388578,-2.186462488,3.715625508,
47233333,-4.657332806,-4.15684531,3.818925088,
47337777,-4.504398713,-6.231395525,3.942671979,
47442222,-4.338953024,-8.475890766,4.086592479,
47546666,-4.16865661,-10.92059438,4.246920466,
47651111,-3.995555838,-13.55432131,4.424173902,
47755555,-3.823532358,-16.37542171,4.616515806,
47860000,-3.650854809,-19.25304073,4.82812518,
47964444,-3.487136287,-22.17275654,5.048407729,
48068888,-3.330305498,-25.2305054,5.280018561,
48173333,-3.181060686,-28.41040321,5.521905002,
48277777,-3.041212695,-31.58786559,5.770358979,
48382222,-2.910895488,-34.89386977,6.023597725,
48486666,-2.787848662,-38.23312235,6.284651233,
48591111,-2.672321961,-41.62257995,6.551827471,
48695555,-2.565772102,-45.06383844,6.819746576,
48800000,-2.468127911,-48.54805514,7.085739017,
48904444,-2.374174577,-52.06680917,7.362475901,
49008888,-2.291394728,-55.57671988,7.625229252,
49113333,-2.215991024,-59.04490207,7.881757173,
49217777,-2.14380709,-62.50368528,8.144332206,
49322222,-2.08072191,-65.95866224,8.388806476,
49426666,-2.02150437,-69.40173681,8.632244911,
49531111,-1.966220945,-72.87044795,8.872806556,
49635555,-1.917594704,-76.32384629,9.095915984,
49740000,-1.873276425,-79.79315694,9.309390483,
49844444,-1.831102118,-83.24728276,9.522171546,
49948888,-1.793982776,-86.7271596,9.717757874,
50053333,-1.762236609,-90.17373412,9.891592823,
50157777,-1.730894627,-93.62489462,10.06949169,
50262222,-1.702767088,-97.07446956,10.23473991,
50366666,-1.676876429,-100.5106113,10.39176238,
50471111,-1.65467767,-103.9543903,10.5303192,
50575555,-1.633232307,-107.40579,10.66776147,
50680000,-1.617245371,-110.8044152,10.77259953,
50784444,-1.601098302,-114.2160882,10.88061907,
50888888,-1.586494667,-117.6299307,10.98021245,
50993333,-1.575771579,-121.00523,11.05452008,
51097777,-1.565001065,-124.38907,11.13018423,
51202222,-1.556778682,-127.7820844,11.18865409,
51306666,-1.551389975,-131.1606699,11.22731061,
51411111,-1.546794524,-134.5108187,11.26048997,
51515555,-1.54193612,-137.9258396,11.2957835,
51620000,-1.537395928,-141.297117,11.32896756,
51724444,-1.537458043,-144.6119402,11.32851224,
51828888,-1.539741049,-147.9124394,11.31180268,
51933333,-1.541354807,-151.2612894,11.30002135,
52037777,-1.547690854,-154.5907777,11.25400292,
52142222,-1.551671363,-157.9245752,11.22528538,
52246666,-1.555893587,-161.2697376,11.194985,
52351111,-1.562034477,-164.6013131,11.15120864,
52455555,-1.569354477,-167.9352254,11.0994756,
52560000,-1.577262552,-171.2770907,11.04412746,
52664444,-1.583685575,-174.6174164,10.99958103,
52768888,-1.593959389,-177.9296086,10.92907615,
52873333,-1.605373317,178.7452642,10.85180828,
52977777,-1.615506346,175.4120227,10.78412909,
53082222,-1.627640799,172.1116957,10.70419422,
53186666,-1.641939828,168.7932058,10.61152118,
53291111,-1.65597449,165.4586046,10.52212243,
53395555,-1.671235272,162.1181905,10.42662258,
53500000,-1.687501141,158.7922191,10.32674053,
53604444,-1.704685769,155.4586654,10.22329386,
53708888,-1.723845782,152.1716619,10.11039537,
53813333,-1.745212877,148.9047564,9.98742506,
53917777,-1.76721602,145.6252893,9.863912252,
54022222,-1.790937323,142.3360848,9.73416592,
54126666,-1.816880463,139.055885,9.59615936,
54231111,-1.842982189,135.7700959,9.461244326,
54335555,-1.869116699,132.4823371,9.329948997,
54440000,-1.898341206,129.1712721,9.187427827,
54544444,-1.926837144,125.8929863,9.052638965,
54648888,-1.957086883,122.6192403,8.91386672,
54753333,-1.991131846,119.3319274,8.76274791,
54857777,-2.024288477,116.0611252,8.620479125,
54962222,-2.058113573,112.7696743,8.480086607,
55066666,-2.092262545,109.5077422,8.342975783,
55171111,-2.127837869,106.2536368,8.204840741,
55275555,-2.167249868,103.0124636,8.057129286,
55380000,-2.206713638,99.78177073,7.914537361,
55484444,-2.252521336,96.52940332,7.755322084,
55588888,-2.298024668,93.39893398,7.603483482,
55693333,-2.34443188,90.23631512,7.454734306,
55797777,-2.390952624,87.03057025,7.311451169,
55902222,-2.438979974,83.86883837,7.169297483,
56006666,-2.488967358,80.786706,7.02720629,
56111111,-2.544014752,77.78107772,6.877235429,
56215555,-2.594065974,74.76634979,6.746439294,
56320000,-2.640063415,71.7409333,6.630641624,
56424444,-2.687575785,68.74037935,6.515223263,
56528888,-2.73384399,65.79851775,6.406713012,
56633333,-2.781787219,62.906745,6.298113253,
56737777,-2.828155523,60.01951207,6.19661289,
56842222,-2.871280872,57.17601081,6.105179243,
56946666,-2.905078147,54.36457006,6.035437176,
57051111,-2.938318303,51.55335928,5.968424069,
57155555,-2.962553593,48.77072619,5.920521844,
57260000,-2.984696957,46.0135492,5.877441033,
57364444,-2.995797365,43.27230207,5.856086727,
57468888,-3.001580111,40.51695585,5.845025411,
57573333,-3.002622186,37.76514402,5.843036691,
57677777,-2.992641704,34.97897846,5.862141125,
57782222,-2.973840939,32.2074881,5.89848091,
57886666,-2.948768068,29.46559175,5.947672114,
57991111,-2.920030109,26.74609228,6.005103027,
58095555,-2.883306905,23.96365247,6.080173924,
58200000,-2.845429052,21.14155505,6.159654128,
58304444,-2.800009656,18.29592959,6.257819836,
58408888,-2.746170181,15.37920661,6.37842688,
58513333,-2.687282039,12.4138399,6.515924204,
58617777,-2.621953336,9.441929142,6.675744817,
58722222,-2.558118993,6.438009435,6.839855882,
58826666,-2.494755741,3.368914037,7.011122895,
58931111,-2.428776355,0.333336124,7.199025296,
59035555,-2.363916252,-2.77558433,7.394032152,
59140000,-2.300777663,-5.947276966,7.594490876,
59244444,-2.235159042,-9.196944164,7.81489656,
59348888,-2.169631504,-12.42577051,8.048376015,
59453333,-2.110139376,-15.6858737,8.272976972,
59557777,-2.051334111,-19.05044972,8.507852361,
59662222,-1.988492309,-22.42547753,8.774278447,
59766666,-1.930741941,-25.75463816,9.03448006,
59871111,-1.877602034,-29.18609036,9.28810911,
59975555,-1.823585298,-32.61261969,9.561133308,
60080000,-1.772383987,-36.0534426,9.83534855,
60184444,-1.724305144,-39.535174,10.10771952,
60288888,-1.67988214,-42.98121485,10.37328413,
60393333,-1.636163666,-46.47843367,10.64876132,
60497777,-1.597849321,-50.00621169,10.90261846,
60602222,-1.562525321,-53.52499383,11.14772448,
60706666,-1.527954896,-57.10435871,11.39860471,
60811111,-1.497185918,-60.6801111,11.63166806,
60915555,-1.46581329,-64.24362333,11.87940359,
61020000,-1.43941811,-67.84881459,12.09621964,
61124444,-1.415088923,-71.490078,12.30324536,
61228888,-1.390693127,-75.08196016,12.51812755,
61333333,-1.36143679,-78.73178046,12.78599961,
61437777,-1.34578449,-82.41941435,12.93410495,
61542222,-1.326479743,-86.04878301,13.12159408,
61646666,-1.311596927,-89.73635163,13.26991212,
61751111,-1.412047184,-95.21839145,12.32963145,
61855555,-1.274282716,-97.08190943,13.65703672,
61960000,-1.262048094,-100.755762,13.78896012,
62064444,-1.250047362,-104.4881828,13.92087476,
62168888,-1.241157219,-108.1870631,14.02024485,
62273333,-1.228712222,-111.9043855,14.16176904,
62377777,-1.218786875,-115.6230406,14.27671502,
62482222,-1.208591085,-119.3554342,14.39676208,
62586666,-1.199525045,-123.0860538,14.50522415,
62691111,-1.19321582,-126.8410712,14.58167909,
62795555,-1.18695004,-130.594461,14.65841325,
62900000,-1.173943417,-134.3595068,14.82031848,
63004444,-1.175986754,-138.1522195,14.79464573,
63108888,-1.172430215,-141.9573744,14.83938832,
63213333,-1.168019785,-145.7836381,14.89525222,
63317777,-1.16859002,-149.5745331,14.88800567,
63422222,-1.168324683,-153.406832,14.89137669,
63526666,-1.169114497,-157.2793286,14.88134687,
63631111,-1.167833097,-161.1644072,14.89762618,
63735555,-1.170977479,-165.0361853,14.85774258,
63840000,-1.177618911,-168.9086442,14.77420319,
63944444,-1.18296383,-172.8163042,14.70765426,
64048888,-1.188571921,-176.7534363,14.63847308,
64153333,-1.194614243,179.2959289,14.56466329,
64257777,-1.201753921,175.3350268,14.47840693,
64362222,-1.208709517,171.3643607,14.395356,
64466666,-1.214564855,167.3430132,14.32618094,
64571111,-1.22058119,163.3253079,14.25579631,
64675555,-1.228759909,159.2742248,14.16122126,
64780000,-1.234948458,155.2084273,14.09049357,
64884444,-1.241756843,151.0966253,14.01349769,
64988888,-1.245610075,146.9673859,13.97029519,
65093333,-1.252412852,142.7983874,13.8946724,
65197777,-1.265165507,138.6491117,13.75510304,
65302222,-1.271133335,134.4133537,13.6907527,
65406666,-1.274590189,130.163465,13.65375399,
65511111,-1.280029234,125.8550847,13.59594518,
65615555,-1.287962345,121.5329035,13.51250523,
65720000,-1.300152833,117.1850653,13.38627462,
65824444,-1.308592163,112.790227,13.30026688,
65928888,-1.319414881,108.3776084,13.19158256,
66033333,-1.326814048,103.8964209,13.11830077,
66137777,-1.338495623,99.38084293,13.00425822,
66242222,-1.350183345,94.84399887,12.89213444,
66346666,-1.357837242,90.22811956,12.81975634,
66451111,-1.370479809,85.59232509,12.70197765,
66555555,-1.378956535,80.89306699,12.62422006,
66660000,-1.388923727,76.14720809,12.53400696,
66764444,-1.404032021,71.37740654,12.39970911,
66868888,-1.418463985,66.56684698,12.27410055,
66973333,-1.431040845,61.67508199,12.16670836,
67077777,-1.44505243,56.75023566,12.04927158,
67182222,-1.459808998,51.77862186,11.9280337,
67286666,-1.47737054,46.71974856,11.78691416,
67391111,-1.491544583,41.64012936,11.67544478,
67495555,-1.507461431,36.48758591,11.55277415,
67600000,-1.521780006,31.27368855,11.44461934,
67704444,-1.543877085,26.03136975,11.28165678,
67808888,-1.561340069,20.71401638,11.15614153,
67913333,-1.580275587,15.32935677,11.02318555,
68017777,-1.600258054,9.906552674,10.88629995,
68122222,-1.619848995,4.428047303,10.75538419,
68226666,-1.642159985,-1.103890762,10.61010698,
68331111,-1.665621575,-6.69167642,10.46154823,
68435555,-1.68664893,-12.34449236,10.33192564,
68540000,-1.711612905,-18.05138926,10.18218373,
68644444,-1.735720485,-23.78190857,10.04167998,
68748888,-1.760082447,-29.55776802,9.903616524,
68853333,-1.782943789,-35.39155963,9.777500429,
68957777,-1.804554743,-41.28231989,9.661230433,
69062222,-1.828590108,-47.19731142,9.535156224,
69166666,-1.854263552,-53.13857734,9.404112964,
69271111,-1.877900118,-59.09868313,9.286646208,
69375555,-1.903342543,-65.12448903,9.163477771,
69480000,-1.925342454,-71.1549954,9.059609458,
69584444,-1.947775495,-77.21306311,8.956122085,
69688888,-1.968810689,-83.28112074,8.861234551,
69793333,-1.99096335,-89.37091313,8.763483048,
69897777,-2.009658943,-95.46078602,8.682670389,
70002222,-2.030882987,-101.5601053,8.592739643,
70106666,-2.047637031,-107.6530514,8.523071837,
70211111,-2.064922225,-113.7447501,8.452385653,
70315555,-2.080072198,-119.8222722,8.391401838,
70420000,-2.093301302,-125.9035162,8.338875534,
70524444,-2.104665166,-131.9521551,8.294284949,
70628888,-2.113522054,-137.9931184,8.259865584,
70733333,-2.121443819,-144.0204214,8.229324941,
70837777,-2.128390848,-150.0248807,8.202730213,
70942222,-2.132817466,-155.9994856,8.185874978,
71046666,-2.134713507,-161.9390724,8.178676916,
71151111,-2.13416801,-167.8769014,8.180746505,
71255555,-2.132333638,-173.7855841,8.187713826,
71360000,-2.12712848,-179.6554469,8.20754985,
71464444,-2.120870551,174.4939095,8.231527358,
71568888,-2.109932522,168.6743905,8.273780115,
71673333,-2.098517182,162.8626915,8.318348725,
71777777,-2.083353123,157.0616098,8.378312384,
71882222,-2.066086425,151.2749307,8.44766748,
71986666,-2.045659317,145.4802562,8.531236028,
72091111,-2.022881837,139.6808419,8.626419595,
72195555,-1.996742561,133.8549842,8.738339804,
72300000,-1.96698353,127.9971506,8.869395841,
72404444,-1.934264906,122.0621465,9.018159999,
72508888,-1.895224713,116.0147541,9.202416056,
72613333,-1.854994184,109.8218563,9.400436931,
72717777,-1.807630551,103.4126787,9.64490895,
72822222,-1.754486249,96.64622806,9.934990787,
72926666,-1.6979492,89.37953668,10.26359581,
73031111,-1.644577191,81.22642475,10.59460479,
73135555,-1.619762494,71.59969469,10.75595524,
