Frequency,S11_Magnitude,S11_Magnitude (linear),S11_Phase,S11_Unwrapped Phase,S11_VSWR,
30000000,-0.9333473707,0.8981164095,-136.2769528,-136.2769528,18.63024654,
30104444,-0.9535172593,0.8960332733,-139.7627525,-139.7627525,18.2369238,
30208888,-0.9600651448,0.8953580503,-143.4408206,-143.4408206,18.11279372,
30313333,-0.9709115464,0.8942406803,-147.0930981,-147.0930981,17.91086295,
30417777,-0.9815942839,0.8931415337,-150.7465845,-150.7465845,17.71634574,
30522222,-0.9934872847,0.8919194523,-154.3901914,-154.3901914,17.50471748,
30626666,-1.005351247,0.8907020208,-158.0525299,-158.0525299,17.29859998,
30731111,-1.017135996,0.8894943631,-161.7162403,-161.7162403,17.09862425,
30835555,-1.030697981,0.888106607,-165.3809818,-165.3809818,16.87415634,
30940000,-1.042168713,0.8869345325,-169.0576125,-169.0576125,16.68886686,
31044444,-1.055546432,0.8855695568,-172.7549571,-172.7549571,16.47786641,
31148888,-1.067247626,0.8843773652,-176.4414697,-176.4414697,16.29765113,
31253333,-1.07840363,0.8832422156,179.8797091,-180.1202909,16.12947887,
31357777,-1.089830901,0.8820809745,176.1948433,-183.8051567,15.96079146,
31462222,-1.101436659,0.8809031583,172.5028134,-187.4971866,15.79305656,
31566666,-1.113315692,0.8796992372,168.8200094,-191.1799906,15.62499849,
31671111,-1.125504382,0.8784656432,165.110279,-194.889721,15.45625198,
31775555,-1.136795772,0.8773244068,161.384372,-198.615628,15.30316143,
31880000,-1.150647173,0.8759264512,157.7109761,-202.2890239,15.11947122,
31984444,-1.162291646,0.8747529539,154.0113975,-205.9886025,14.96844047,
32088888,-1.173014561,0.8736737191,150.2969013,-209.7030987,14.83201838,
32193333,-1.184024797,0.8725669517,146.5893688,-213.4106312,14.69451588,
32297777,-1.194167376,0.8715486433,142.8572074,-217.1427926,14.57009635,
32402222,-1.20431553,0.8705309647,139.1423237,-220.8576763,14.44770913,
32506666,-1.215163922,0.8694443786,135.4133439,-224.5866561,14.31914121,
32611111,-1.225627402,0.8683976308,131.6919878,-228.3080122,14.19729479,
32715555,-1.234314338,0.8675295626,127.9658842,-232.0341158,14.09770814,
32820000,-1.240581425,0.8669038441,124.2462866,-235.7537134,14.02673001,
32924444,-1.249859357,0.8659783453,120.5049216,-239.4950784,13.92296155,
33028888,-1.256372046,0.8653292772,116.775149,-243.224851,13.85103784,
33133333,-1.264921869,0.8644779226,113.0387953,-246.9612047,13.75774308,
33237777,-1.273153232,0.8636590703,109.31975,-250.68025,13.6691093,
33342222,-1.281908023,0.8627889987,105.5826917,-254.4173083,13.5760907,
33446666,-1.286706424,0.8623124944,101.8507208,-258.1492792,13.52564625,
33551111,-1.294135634,0.8615752571,98.11608696,-261.883913,13.44828401,
33655555,-1.30019143,0.8609747768,94.39258746,-265.6074125,13.38587872,
33760000,-1.304438081,0.8605539373,90.6369538,-269.3630462,13.34246303,
33864444,-1.307927041,0.8602083382,86.9113969,-273.0886031,13.30700497,
33968888,-1.315797139,0.8594292749,83.23409274,-276.7659073,13.22771347,
34073333,-1.322298505,0.858786235,79.55250881,-280.4474912,13.16292527,
34177777,-1.326624908,0.8583585839,75.8336677,-284.1663323,13.12016383,
34282222,-1.328675112,0.8581560022,72.13054934,-287.8694507,13.0999974,
34386666,-1.332344576,0.8577935399,68.39316306,-291.6068369,13.06405868,
34491111,-1.336086285,0.857424099,64.69746962,-295.3025304,13.02761607,
34595555,-1.340596188,0.8569790213,60.98430824,-299.0156918,12.98396248,
34700000,-1.337235233,0.8573106886,57.27340261,-302.7265974,13.01646683,
34804444,-1.343625369,0.8566802043,53.55214689,-306.4478531,12.95480638,
34908888,-1.345304695,0.8565145901,49.82544582,-310.1745542,12.93869942,
35013333,-1.347991691,0.8562496667,46.12313394,-313.8768661,12.91301121,
35117777,-1.350347704,0.8560174439,42.41436125,-317.5856387,12.89057156,
35222222,-1.352312338,0.8558238458,38.52298722,-321.4770128,12.87191947,
35326666,-1.354403561,0.8556178217,34.94893872,-325.0510613,12.85212513,
35431111,-1.356180929,0.8554427571,31.33698321,-328.6630168,12.83534965,
35535555,-1.357736846,0.855289534,27.67802365,-332.3219763,12.82070044,
35640000,-1.359294348,0.8551361823,23.99160588,-336.0083941,12.80606995,
35744444,-1.361768534,0.8548926304,20.32539215,-339.6746079,12.78289749,
35848888,-1.359870412,0.8550794701,16.66754425,-343.3324557,12.80066717,
35953333,-1.359926223,0.8550739758,12.99882464,-347.0011754,12.80014397,
36057777,-1.359200958,0.8551453767,9.330890317,-350.6691097,12.80694627,
36162222,-1.356554369,0.855405979,5.678127307,-354.3218727,12.83183057,
36266666,-1.352993506,0.8557567328,2.038757678,-357.9612423,12.86546519,
36371111,-1.344473611,0.8565965471,-1.627445432,-361.6274454,12.94666557,
36475555,-1.335160137,0.8575155282,-5.297304365,-365.2973044,13.03661729,
36580000,-1.323986391,0.8586193675,-8.987730127,-368.9877301,13.14620917,
36684444,-1.316410867,0.8593685514,-12.70618079,-372.7061808,13.22157007,
36788888,-1.309664798,0.8600362564,-16.43723263,-376.4372326,13.28941487,
36893333,-1.304113439,0.8605861017,-20.18565142,-380.1856514,13.34577201,
36997777,-1.30092854,0.860901715,-23.91435164,-383.9143516,13.3783225,
37102222,-1.29837746,0.8611546024,-27.64815833,-387.6481583,13.40451059,
37206666,-1.299512655,0.8610420619,-31.39216783,-391.3921678,13.39284453,
37311111,-1.297036986,0.8612875127,-35.09874754,-395.0987475,13.41831258,
37415555,-1.296750206,0.8613159502,-38.82884438,-398.8288444,13.42126908,
37520000,-1.288813399,0.8621033448,-42.76022709,-402.7602271,13.50361502,
37624444,-1.29390975,0.8615976633,-46.44817791,-406.4481779,13.45062308,
37728888,-1.293204785,0.8616675953,-49.9385204,-409.9385204,13.45792838,
37833333,-1.293186035,0.8616694553,-53.60652208,-413.6065221,13.45812279,
37937777,-1.291775593,0.8618093873,-57.30037978,-417.3003798,13.4727631,
38042222,-1.292582331,0.8617293469,-61.00616695,-421.006167,13.46438529,
38146666,-1.292022345,0.8617849051,-64.69870299,-424.698703,13.47019952,
38251111,-1.293223179,0.8616657706,-68.44047946,-428.4404795,13.45773767,
38355555,-1.295394816,0.8614503647,-72.21008756,-432.2100876,13.43525994,
38460000,-1.297713144,0.8612204679,-75.97404324,-435.9740432,13.41134705,
38564444,-1.295268278,0.8614629146,-79.53765392,-439.5376539,13.43656761,
38668888,-1.29457704,0.861531474,-83.11159872,-443.1115987,13.44371554,
38773333,-1.297196213,0.861271724,-86.72629352,-446.7262935,13.41667162,
38877777,-1.297830334,0.8612088484,-90.39324196,-450.393242,13.41014054,
38982222,-1.302941634,0.8607022104,-94.06274179,-454.0627418,13.35772962,
39086666,-1.30391622,0.8606056421,-97.72926326,-457.7292633,13.34778302,
39191111,-1.308025524,0.8601985849,-101.3953848,-461.3953848,13.30600684,
39295555,-1.310510337,0.8599525391,-105.0565543,-465.0565543,13.28087298,
39400000,-1.313751568,0.8596316986,-108.7285362,-468.7285362,13.24823112,
39504444,-1.317613513,0.8592495717,-112.4182892,-472.4182892,13.20954824,
39608888,-1.324368772,0.8585815691,-116.1000152,-476.1000152,13.14242817,
39713333,-1.329079652,0.858116035,-119.7842733,-479.7842733,13.09602558,
39817777,-1.332536846,0.857774552,-123.4794886,-483.4794886,13.06218105,
39922222,-1.33683071,0.8573506165,-127.1690511,-487.1690511,13.02039007,
40026666,-1.342710476,0.8567704439,-130.846618,-490.846618,12.9635984,
40131111,-1.349121657,0.8561382826,-134.5220424,-494.5220424,12.90223915,
40235555,-1.353983508,0.8556592008,-138.2099426,-498.2099426,12.8560962,
40340000,-1.360402079,0.8550271318,-141.9135832,-501.9135832,12.79568484,
40444444,-1.366938019,0.8543839849,-145.5870362,-505.5870362,12.734753,
40548888,-1.376397909,0.8534539731,-149.1378596,-509.1378596,12.64758938,
40653333,-1.38524972,0.8525846593,-152.7656592,-512.7656592,12.56710903,
40757777,-1.392833491,0.8518405806,-156.4372831,-516.4372831,12.49897298,
40862222,-1.401069147,0.851033278,-160.1206708,-520.1206708,12.42581734,
40966666,-1.408625725,0.8502932153,-163.7856456,-523.7856456,12.35944796,
41071111,-1.419404805,0.8492386666,-167.4144111,-527.4144111,12.266001,
41175555,-1.429481109,0.8482540552,-171.0444448,-531.0444448,12.17992387,
41280000,-1.440339433,0.8471943062,-174.6772359,-534.6772359,12.08851752,
41384444,-1.450764033,0.8461781336,-178.3323786,-538.3323786,12.00205261,
41488888,-1.461317318,0.8451506583,178.0005608,-541.9994392,11.9157798,
41593333,-1.472924291,0.844022036,174.3159444,-545.6840556,11.82232406,
41697777,-1.483175213,0.8430265247,170.6477094,-549.3522906,11.74100606,
41802222,-1.495719171,0.8418099243,166.9895747,-553.0104253,11.64301816,
41906666,-1.506673315,0.8407489513,163.3142548,-556.6857452,11.558787,
42011111,-1.521121272,0.8393516266,159.6453688,-560.3546312,11.44955027,
42115555,-1.533174531,0.8381876807,155.953564,-564.046436,11.35999835,
42220000,-1.545729721,0.836976981,152.2161394,-567.7838606,11.26820613,
42324444,-1.563104245,0.8353044359,148.593552,-571.406448,11.1436179,
42428888,-1.582312408,0.8334592667,145.0524379,-574.9475621,11.00907406,
42533333,-1.601649987,0.8316057827,141.4276472,-578.5723528,10.87689241,
42637777,-1.619243135,0.8299230816,137.7625071,-582.2374929,10.75938522,
42742222,-1.640035065,0.8279388213,134.1083349,-585.8916651,10.62377252,
42846666,-1.660909565,0.8259514535,130.449897,-589.550103,10.49104684,
42951111,-1.684042419,0.8237546498,126.8020397,-593.1979603,10.34781711,
43055555,-1.708338636,0.8214536586,123.1525471,-596.8474529,10.20157369,
43160000,-1.733622115,0.8190659921,119.4982694,-600.5017306,10.05375392,
43264444,-1.763345055,0.8162679549,115.8590725,-604.1409275,9.885417394,
43368888,-1.793477504,0.8134411243,112.2276754,-607.7723246,9.720476268,
43473333,-1.829121464,0.8101098763,108.5982605,-611.4017395,9.532406641,
43577777,-1.865334817,0.806739384,104.935522,-615.064478,9.34871999,
43682222,-1.907249536,0.8028557521,101.2787847,-618.7212153,9.144855966,
43786666,-1.947531715,0.7991410027,97.61480463,-622.3851954,8.957233817,
43891111,-1.99299201,0.7949693769,93.92822357,-626.0717764,8.754640404,
43995555,-2.044172909,0.7902988583,90.2612505,-629.7387495,8.537382506,
44100000,-2.099886268,0.7852459165,86.64855749,-633.3514425,8.312977744,
44204444,-2.165469557,0.7793392014,83.08856316,-636.9114368,8.063685132,
44308888,-2.234266683,0.7731907786,79.59461117,-640.4053888,7.817983625,
44413333,-2.311330389,0.7663611502,76.13637233,-643.8636277,7.560220193,
44517777,-2.394515509,0.7590567114,72.72211825,-647.2778817,7.300708486,
44622222,-2.482324837,0.751421744,69.35010605,-650.6498939,7.04575602,
44726666,-2.577538604,0.7432297235,66.05797662,-653.9420234,6.789063546,
44831111,-2.677236037,0.7347476372,62.84400725,-657.1559927,6.539989386,
44935555,-2.779789007,0.7261235959,59.70192775,-660.2980722,6.302564112,
45040000,-2.88228425,0.7176055477,56.63871488,-663.3612851,6.082292104,
45144444,-2.982126016,0.7094041083,53.66227319,-666.3377268,5.882409755,
45248888,-3.076628448,0.7017276312,50.77806006,-669.2219399,5.705280841,
45353333,-3.162365737,0.6948350427,48.01991511,-671.9800849,5.553832451,
45457777,-3.230272363,0.6894239746,45.40159234,-674.5984077,5.439647096,
45562222,-3.282539407,0.6852878464,42.90022975,-677.0997703,5.355013548,
45666666,-3.309376609,0.683173748,40.56833531,-679.4316647,5.312608211,
45771111,-3.310592138,0.6830781493,38.27496902,-681.725031,5.310704029,
45875555,-3.288306556,0.6848329885,35.92392753,-684.0760725,5.345841814,
45980000,-3.241957907,0.6884970831,33.58336081,-686.4166392,5.420485624,
46084444,-3.17393176,0.6939104247,31.15428323,-688.8457168,5.534035007,
46188888,-3.09231928,0.7004611229,28.65001045,-691.3499896,5.676929617,
46293333,-2.997042296,0.7081868939,26.02318507,-693.9768149,5.853701764,
46397777,-2.894833739,0.7165694902,23.25245386,-696.7475461,6.056403355,
46502222,-2.791718342,0.725127011,20.34526249,-699.6547375,6.276087792,
46606666,-2.688674935,0.7337806469,17.32418216,-702.6758178,6.512601832,
46711111,-2.587678069,0.7423626212,14.23028001,-705.76972,6.762848736,
46815555,-2.495067705,0.7503201587,11.09857147,-708.9014285,7.010258217,
46920000,-2.405370396,0.7581086993,7.98659167,-712.0134083,7.268176633,
47024444,-2.321495567,0.7654647951,4.806381998,-715.193618,7.527504437,
47128888,-2.24129912,0.7725650265,1.552271976,-718.447728,7.793722307,
47233333,-2.167949807,0.7791166933,-1.771299833,-721.7712998,8.05455478,
47337777,-2.102314833,0.7850263933,-5.135065683,-725.1350657,8.303467671,
47442222,-2.040114689,0.7906681879,-8.514194933,-728.5141949,8.55420956,
47546666,-1.984056797,0.7957875863,-11.90258825,-731.9025882,8.793723914,
47651111,-1.931381611,0.8006282674,-15.30933322,-735.3093332,9.031512359,
47755555,-1.884060215,0.8050020554,-18.73004053,-738.7300405,9.256518365,
47860000,-1.843018712,0.8088147531,-22.16031173,-742.1603117,9.461058229,
47964444,-1.802762699,0.8125720223,-25.57372354,-745.5737235,9.670765512,
48068888,-1.768312872,0.8158012311,-28.96427894,-748.9642789,9.857835871,
48173333,-1.733830911,0.8190463032,-32.28701634,-752.2870163,10.0525512,
48277777,-1.704242815,0.8218411054,-35.63462196,-755.634622,10.22593404,
48382222,-1.676568062,0.8244638099,-39.00419916,-759.0041992,10.39366189,
48486666,-1.650531727,0.826938884,-42.34707774,-762.3470777,10.55661102,
48591111,-1.628528013,0.8290364001,-45.69490058,-765.6949006,10.69839663,
48695555,-1.606938433,0.8310996097,-49.0215371,-769.0215371,10.84129887,
48800000,-1.588174847,0.832896923,-52.31821802,-772.318218,10.96866052,
48904444,-1.569276621,0.8347110619,-55.62781428,-775.6278143,11.10002328,
49008888,-1.55118986,0.8364510044,-58.90472171,-778.9047217,11.22875134,
49113333,-1.538620475,0.8376623122,-62.22155194,-782.2215519,11.31999806,
49217777,-1.525673093,0.8389118815,-65.51081431,-785.5108143,11.41556496,
49322222,-1.510964578,0.8403336819,-68.78552732,-788.7855273,11.52612338,
49426666,-1.498917726,0.8414999872,-72.07157641,-792.0715764,11.61829551,
49531111,-1.488011167,0.8425572921,-75.33986957,-795.3398696,11.70303354,
49635555,-1.479189552,0.8434134499,-78.60845134,-798.6084513,11.77248907,
49740000,-1.4682567,0.8444757153,-81.88006777,-801.8800678,11.85972801,
49844444,-1.461985804,0.8450856161,-85.17866721,-805.1786672,11.910357,
49948888,-1.453225642,0.845938358,-88.47193324,-808.4719332,11.98181672,
50053333,-1.445422883,0.8466986276,-91.74799616,-811.7479962,12.04619762,
50157777,-1.4379999,0.8474225277,-95.02974089,-815.0297409,12.10809499,
50262222,-1.433541448,0.8478576199,-98.30761107,-818.3076111,12.14558112,
50366666,-1.428651369,0.8483350905,-101.5664127,-821.5664127,12.18696597,
50471111,-1.423187842,0.8488688712,-104.8230687,-824.8230687,12.23354107,
50575555,-1.41929155,0.8492497399,-108.0748275,-828.0748275,12.26697545,
50680000,-1.416978825,0.8494758931,-111.3179329,-831.3179329,12.28690827,
50784444,-1.413626958,0.8498037674,-114.5459942,-834.5459942,12.31591322,
50888888,-1.411849306,0.8499777058,-117.7438874,-837.7438874,12.33135192,
50993333,-1.41123753,0.8500375747,-120.951644,-840.951644,12.33667415,
51097777,-1.409525288,0.8502051583,-124.1398625,-844.1398625,12.35159461,
51202222,-1.408777572,0.8502783506,-127.3194245,-847.3194245,12.35812161,
51306666,-1.408917864,0.8502646172,-130.5541378,-850.5541378,12.35689643,
51411111,-1.40956454,0.8502013163,-133.7670706,-853.7670706,12.35125216,
51515555,-1.409424544,0.8502150196,-137.0000368,-857.0000368,12.35247362,
51620000,-1.409886883,0.8501697649,-140.2119051,-860.2119051,12.34844065,
51724444,-1.411233231,0.8500379954,-143.4154269,-863.4154269,12.33671156,
51828888,-1.411143727,0.8500467547,-146.5989609,-866.5989609,12.3374906,
51933333,-1.412254924,0.8499380141,-149.8100587,-869.8100587,12.32782575,
52037777,-1.41367051,0.8497995064,-152.9963883,-872.9963883,12.31553547,
52142222,-1.416254319,0.8495467524,-156.1687808,-876.1687808,12.29316603,
52246666,-1.418843438,0.8492935544,-159.3427737,-879.3427737,12.27083253,
52351111,-1.421731212,0.8490112391,-162.4987566,-882.4987566,12.24601903,
52455555,-1.424505952,0.8487400626,-165.6755385,-885.6755385,12.22227177,
52560000,-1.425520488,0.8486409332,-168.9108468,-888.9108468,12.21361212,
52664444,-1.430049618,0.8481985371,-172.1128796,-892.1128796,12.1751036,
52768888,-1.431143275,0.8480917456,-175.3189502,-895.3189502,12.1658415,
52873333,-1.433089451,0.8479017419,-178.5107857,-898.5107857,12.14939451,
52977777,-1.43593602,0.8476239102,178.2789417,-901.7210583,12.12541884,
53082222,-1.441859264,0.8470460797,175.1489335,-904.8510665,12.07583354,
53186666,-1.445444558,0.8466965148,171.9771919,-908.0228081,12.04601782,
53291111,-1.448257176,0.8464223864,168.7697528,-911.2302472,12.02273133,
53395555,-1.4515397,0.8461025715,165.6029862,-914.3970138,11.99566874,
53500000,-1.454642517,0.8458003765,162.4246319,-917.5753681,11.97020028,
53604444,-1.456607383,0.8456090667,159.2256689,-920.7743311,11.95412857,
53708888,-1.457328489,0.8455388668,156.0052263,-923.9947737,11.94824114,
53813333,-1.460756426,0.8452052358,152.7980483,-927.2019517,11.92033364,
53917777,-1.463066212,0.8449805054,149.6015841,-930.3984159,11.90160315,
54022222,-1.467146047,0.8445837041,146.3906785,-933.6093215,11.86866341,
54126666,-1.469010064,0.8444024735,143.224347,-936.775653,11.85367477,
54231111,-1.473174389,0.8439977339,140.0504311,-939.9495689,11.82032659,
54335555,-1.474870199,0.8438329701,136.8340592,-943.1659408,11.80680052,
54440000,-1.477888798,0.8435397646,133.6124105,-946.3875895,11.78280065,
54544444,-1.47902865,0.8434290738,130.3623475,-949.6376525,11.77376362,
54648888,-1.483040364,0.8430396129,127.1681275,-952.8318725,11.74206847,
54753333,-1.486623537,0.8426919071,124.0261822,-955.9738178,11.71390406,
54857777,-1.488840331,0.8424768646,120.824864,-959.175136,11.69654768,
54962222,-1.494416202,0.8419362136,117.5965658,-962.4034342,11.65311964,
55066666,-1.498556995,0.841534936,114.3773691,-965.6226309,11.62107842,
55171111,-1.502514237,0.8411516248,111.1975955,-968.8024045,11.59062296,
55275555,-1.508069397,0.8406138286,108.0012774,-971.9987226,11.54814004,
55380000,-1.505920651,0.8408218084,104.8078266,-975.1921734,11.56453525,
55484444,-1.511788151,0.8402540074,101.4913774,-978.5086226,11.51987589,
55588888,-1.508448238,0.8405771654,98.19230622,-981.8076938,11.5452543,
55693333,-1.512375883,0.8401971535,95.01815721,-984.9818428,11.51542162,
55797777,-1.517687388,0.8396835219,91.73905626,-988.2609437,11.47532396,
55902222,-1.517929286,0.8396601374,88.51560036,-991.4843996,11.47350452,
56006666,-1.527539393,0.8387316474,85.34323838,-994.6567616,11.40168929,
56111111,-1.531525059,0.8383468697,82.11862022,-997.8813798,11.37216994,
56215555,-1.534427013,0.8380668249,78.86374399,-1001.136256,11.3507737,
56320000,-1.537817249,0.8377397784,75.59763178,-1004.402368,11.32587988,
56424444,-1.537792222,0.8377421922,72.33947862,-1007.660521,11.32606324,
56528888,-1.539333476,0.8375935536,69.07095732,-1010.929043,11.3147821,
56633333,-1.540534823,0.8374777138,65.76134013,-1014.23866,11.30600459,
56737777,-1.541624453,0.8373726603,62.43499712,-1017.565003,11.2980552,
56842222,-1.548005574,0.8367577073,59.20097238,-1020.799028,11.25172697,
56946666,-1.5494282,0.8366206695,55.93348401,-1024.066516,11.24145058,
57051111,-1.550389341,0.836528098,52.67283765,-1027.327162,11.23451844,
57155555,-1.553362279,0.8362418267,49.41570046,-1030.5843,11.21313086,
57260000,-1.555618635,0.8360246222,46.14184823,-1033.858152,11.19695314,
57364444,-1.556710843,0.8359195027,42.77952174,-1037.220478,11.18913907,
57468888,-1.560257722,0.8355782251,39.45995908,-1040.540041,11.16383901,
57573333,-1.563435379,0.8352725921,36.21073271,-1043.789267,11.14127039,
57677777,-1.565543781,0.8350698636,32.93247443,-1047.067526,11.12634661,
57782222,-1.567368431,0.8348944584,29.63227437,-1050.367726,11.11346379,
57886666,-1.570243012,0.8346181971,26.3360087,-1053.663991,11.09322891,
57991111,-1.573564664,0.8342990841,23.01307276,-1056.986927,11.06993932,
58095555,-1.576656447,0.8340021642,19.67206775,-1060.327932,11.04834985,
58200000,-1.58143099,0.8335438479,16.31474996,-1063.68525,11.01517622,
58304444,-1.585345024,0.8331683211,12.97318334,-1067.026817,10.98813087,
