Frequency,S11_Magnitude,S11_Magnitude (linear),S11_Phase,S11_Unwrapped Phase,S11_VSWR,
30000000,-0.9525733674,0.8961306501,-133.8555141,-133.8555141,18.25495829,
30104444,-0.965185204,0.8948304203,-137.323742,-137.323742,18.0169059,
30208888,-0.9716936556,0.8941601633,-140.9992057,-140.9992057,17.89647662,
30313333,-0.9814677858,0.8931545412,-144.6452857,-144.6452857,17.71862428,
30417777,-0.9919356556,0.8920787971,-148.2949024,-148.2949024,17.53203955,
30522222,-1.00284971,0.8909585801,-151.9293093,-151.9293093,17.34165404,
30626666,-1.013837891,0.8898321756,-155.5920141,-155.5920141,17.15412087,
30731111,-1.024636699,0.8887265714,-159.2590588,-159.2590588,16.97374293,
30835555,-1.036958888,0.8874666784,-162.9049102,-162.9049102,16.77251369,
30940000,-1.048778243,0.8862598762,-166.5789089,-166.5789089,16.58394429,
31044444,-1.061372854,0.8849757233,-170.2705811,-170.2705811,16.38763379,
31148888,-1.073505482,0.8837404342,-173.948382,-173.948382,16.20288551,
31253333,-1.085188978,0.8825525032,-177.6198206,-177.6198206,16.02888571,
31357777,-1.097035914,0.8813495849,178.6953598,-181.3046402,15.85624106,
31462222,-1.107356978,0.8803029376,174.9781984,-185.0218016,15.70884782,
31566666,-1.118900552,0.8791337894,171.3174369,-188.6825631,15.54722184,
31671111,-1.132102067,0.8777986259,167.6095068,-192.3904932,15.36642808,
31775555,-1.144728646,0.876523507,163.884407,-196.115593,15.197415,
31880000,-1.155934079,0.8753934566,160.1802465,-199.8197535,15.05052147,
31984444,-1.165423939,0.8744375587,156.4670315,-203.5329685,14.92832999,
32088888,-1.177546236,0.8732180177,152.754343,-207.245657,14.77511223,
32193333,-1.18944352,0.8720227675,149.0360897,-210.9639103,14.62777973,
32297777,-1.201201777,0.870843092,145.2956846,-214.7043154,14.48504088,
32402222,-1.21137287,0.86982394,141.5702644,-218.4297356,14.36380806,
32506666,-1.221359008,0.868824481,137.8250231,-222.1749769,14.24674737,
32611111,-1.236648735,0.867296439,134.0856407,-225.9143593,14.07118561,
32715555,-1.247587529,0.8662048749,130.3365873,-229.6634127,13.94822774,
32820000,-1.257275988,0.8652392269,126.5941324,-233.4058676,13.84111403,
32924444,-1.270883953,0.8638847397,122.8261556,-237.1738444,13.69342964,
33028888,-1.282907827,0.8626896916,119.070989,-240.929011,13.56554882,
33133333,-1.297581491,0.8612335217,115.2871639,-244.7128361,13.41270272,
33237777,-1.314997895,0.8595083601,111.5237401,-248.4762599,13.2357225,
33342222,-1.334668918,0.8575640252,107.7323192,-252.2676808,13.04139651,
33446666,-1.357165095,0.8553458356,103.926063,-256.073937,12.82607966,
33551111,-1.385486353,0.8525614322,100.1118007,-259.8881993,12.5649717,
33655555,-1.424142547,0.8487755734,96.32100473,-263.6789953,12.22537665,
33760000,-1.47572391,0.8437500363,92.56479912,-267.4352009,11.80000297,
33864444,-1.539411407,0.8375860386,88.94948786,-271.0505121,11.3142123,
33968888,-1.611620545,0.8306517278,85.54295108,-274.4570489,10.80998173,
34073333,-1.655782699,0.8264391171,82.43965795,-277.5603421,10.52333387,
34177777,-1.639823414,0.8279589961,79.41411817,-280.5858818,10.6251356,
34282222,-1.579188675,0.8337590601,76.17315818,-283.8268418,11.03073082,
34386666,-1.513620039,0.8400768133,72.64759939,-287.3524006,11.50600392,
34491111,-1.460588296,0.8452215963,68.95455374,-291.0454463,11.92169936,
34595555,-1.425243784,0.8486679685,65.19711624,-294.8028838,12.21597272,
34700000,-1.394319181,0.8516948888,61.41299112,-298.5870089,12.48571188,
34804444,-1.381434374,0.8529592461,57.61284677,-302.3871532,12.60167128,
34908888,-1.369814339,0.8541011036,53.80305798,-306.196942,12.70812288,
35013333,-1.359843452,0.8550821241,50.02295302,-309.977047,12.80091992,
35117777,-1.348338958,0.8562154341,46.06533902,-313.934661,12.90969877,
35222222,-1.342303793,0.8568105598,42.36350819,-317.6364918,12.96751043,
35326666,-1.338214339,0.8572140548,38.69564745,-321.3043525,13.00698085,
35431111,-1.335076068,0.857523828,34.98579651,-325.0142035,13.03743498,
35535555,-1.331978063,0.8578297364,31.27057694,-328.7294231,13.06763939,
35640000,-1.329481031,0.858076382,27.53995296,-332.460047,13.09208719,
35744444,-1.326083337,0.8584121048,23.82956721,-336.1704328,13.12550131,
35848888,-1.325471656,0.8584725584,20.12369396,-339.876306,13.13153504,
35953333,-1.32280582,0.8587360775,16.39766564,-343.6023344,13.15789655,
36057777,-1.320021759,0.8590113696,12.67758271,-347.3224173,13.18554102,
36162222,-1.31676912,0.8593331072,8.969165698,-351.0308343,13.21798662,
36266666,-1.314119541,0.8595952816,5.255113126,-354.7448869,13.24453553,
36371111,-1.310450733,0.8599584402,1.522819411,-358.4771806,13.28147475,
36475555,-1.307546971,0.8602459793,-2.192387259,-362.1923873,13.31085839,
36580000,-1.303673382,0.8606297031,-5.904641909,-365.9046419,13.35026002,
36684444,-1.302057152,0.8607898599,-9.608250574,-369.6082506,13.36676954,
36788888,-1.299882869,0.861005363,-13.3246669,-373.3246669,13.38904437,
36893333,-1.295997037,0.8613906396,-17.04916192,-377.0491619,13.42903996,
36997777,-1.293991343,0.8615895698,-20.77115574,-380.7711557,13.44977807,
37102222,-1.290099228,0.8619757314,-24.49539257,-384.4953926,13.49020539,
37206666,-1.289640484,0.8620212577,-28.22088964,-388.2208896,13.49498645,
37311111,-1.286023041,0.8623803415,-31.91593947,-391.9159395,13.53280747,
37415555,-1.284837371,0.862498069,-35.70887269,-395.7088727,13.54525028,
37520000,-1.279672181,0.8630111186,-39.43379141,-399.4337914,13.59972502,
37624444,-1.280334386,0.8629453258,-43.04397849,-403.0439785,13.59271646,
37728888,-1.278393324,0.8631381923,-46.75360278,-406.7536028,13.61328061,
37833333,-1.278146066,0.8631627633,-50.47601542,-410.4760154,13.61590462,
37937777,-1.276343896,0.8633418731,-54.19938113,-414.1993811,13.63506082,
38042222,-1.2747456,0.8635007517,-57.93096368,-417.9309637,13.65209534,
38146666,-1.273285424,0.8636459262,-61.65744821,-421.6574482,13.66769525,
38251111,-1.274071711,0.8635677485,-65.38983257,-425.3898326,13.65929044,
38355555,-1.274690341,0.8635062453,-69.0845095,-429.0845095,13.65268506,
38460000,-1.276622607,0.8633141708,-72.76520307,-432.7652031,13.63209472,
38564444,-1.274485377,0.863526622,-76.44347147,-436.4434715,13.65487284,
38668888,-1.273631309,0.8636115353,-80.12289427,-440.1228943,13.66399672,
38773333,-1.274807068,0.863494641,-83.78720767,-443.7872077,13.65143944,
38877777,-1.274263966,0.8635486344,-87.47718251,-447.4771825,13.65723696,
38982222,-1.278737005,0.8631040406,-91.18057382,-451.1805738,13.609635,
39086666,-1.279384561,0.8630396963,-94.87013652,-454.8701365,13.60277136,
39191111,-1.282603304,0.8627199377,-98.56875859,-458.5687586,13.56875795,
39295555,-1.284198143,0.8625615459,-102.2513714,-462.2513714,13.5519681,
39400000,-1.286430938,0.8623398443,-105.9292274,-465.9292274,13.52853216,
39504444,-1.288188117,0.8621654083,-109.610235,-469.610235,13.51014564,
39608888,-1.293768444,0.8616116803,-113.2545137,-473.2545137,13.45208674,
39713333,-1.29934647,0.8610585361,-116.8946799,-476.8946799,13.39455109,
39817777,-1.302474693,0.8607484818,-120.5428323,-480.5428323,13.3625005,
39922222,-1.306792908,0.8603206645,-124.1945265,-484.1945265,13.31851027,
40026666,-1.312226899,0.8597826065,-127.8443325,-487.8443325,13.26356567,
40131111,-1.31841505,0.8591702835,-131.502689,-491.502689,13.20154815,
40235555,-1.323229711,0.8586941703,-135.1566619,-495.1566619,13.15369772,
40340000,-1.329613826,0.8580632633,-138.7984269,-498.7984269,13.09078472,
40444444,-1.336833689,0.8573503225,-142.4378225,-502.4378225,13.02036118,
40548888,-1.344475205,0.8565963899,-146.1101631,-506.1101631,12.94665029,
40653333,-1.351116079,0.8559417218,-149.8203146,-509.8203146,12.8832702,
40757777,-1.35764273,0.8552988016,-153.5188211,-513.5188211,12.82158559,
40862222,-1.364676637,0.8546064538,-157.1856507,-517.1856507,12.75576875,
40966666,-1.371016552,0.8539828958,-160.8206914,-520.8206914,12.6970255,
41071111,-1.382487717,0.8528558134,-164.4280797,-524.4280797,12.59211021,
41175555,-1.393390836,0.8517859225,-168.0283135,-528.0283135,12.49399486,
41280000,-1.404455452,0.8507015565,-171.6285273,-531.6285273,12.39598695,
41384444,-1.414996966,0.8496697401,-175.2390421,-535.2390421,12.30404139,
41488888,-1.423872686,0.8488019443,-178.8738813,-538.8738813,12.22768332,
41593333,-1.433476347,0.8478639746,177.4747352,-542.5252648,12.14613021,
41697777,-1.442047841,0.8470276899,173.819568,-546.180432,12.0742616,
41802222,-1.451857439,0.8460716208,170.181422,-549.818578,11.99305567,
41906666,-1.461244746,0.8451577197,166.5137332,-553.4862668,11.91636881,
42011111,-1.473170508,0.843998111,162.856839,-557.143161,11.82035758,
42115555,-1.483212195,0.8430229354,159.194043,-560.805957,11.74071473,
42220000,-1.494607346,0.8419176859,155.5426466,-564.4573534,11.65163666,
42324444,-1.507883373,0.8406318321,151.9282329,-568.0717671,11.54955758,
42428888,-1.522680289,0.8392009862,148.338095,-571.661905,11.43788723,
42533333,-1.537196997,0.8377996028,144.7434623,-575.2565377,11.33042604,
42637777,-1.548944068,0.8366673021,141.1337204,-578.8662796,11.2449456,
42742222,-1.561997988,0.8354108292,137.5198421,-582.4801579,11.15146774,
42846666,-1.574587623,0.8342008323,133.8969554,-586.1030446,11.06278673,
42951111,-1.589187792,0.8327997966,130.2837285,-589.7162715,10.96170794,
43055555,-1.603502621,0.8314284266,126.6858467,-593.3141533,10.86439658,
43160000,-1.616876126,0.8301492764,123.0762139,-596.9237861,10.77504551,
43264444,-1.634211098,0.8284941479,119.4731671,-600.5268329,10.66140965,
43368888,-1.649581145,0.827029389,115.8833078,-604.1166922,10.56265789,
43473333,-1.666502069,0.8254198269,112.3064311,-607.6935689,10.45605463,
43577777,-1.682244499,0.823925179,108.6642241,-611.3357759,10.35880752,
43682222,-1.698161985,0.8224166626,104.8730862,-615.1269138,10.2623179,
43786666,-1.719869009,0.820363916,101.3896754,-618.6103246,10.13362057,
43891111,-1.742351688,0.8182432203,97.9034418,-622.0965582,10.00371608,
43995555,-1.765557749,0.8160600405,94.36605521,-625.6339448,9.87311319,
44100000,-1.787799109,0.8139730848,90.82411515,-629.1758849,9.751132424,
44204444,-1.81341685,0.8115759289,87.27778508,-632.7222149,9.614355099,
44308888,-1.837017012,0.8093738141,83.75023431,-636.2497657,9.491738007,
44413333,-1.863340052,0.8069246776,80.21949357,-639.7805064,9.358651615,
44517777,-1.891791089,0.8042858823,76.69873027,-643.3012697,9.218986875,
44622222,-1.921404616,0.8015484326,73.17610701,-646.823893,9.078025716,
44726666,-1.952543438,0.7986800346,69.66493174,-650.3350683,8.934434453,
44831111,-1.985411909,0.7956634427,66.16998042,-653.8300196,8.78777379,
44935555,-2.020443222,0.7924608919,62.6712221,-657.3287779,8.636737954,
45040000,-2.056091802,0.7892151435,59.18216385,-660.8178361,8.48834766,
45144444,-2.090704791,0.7860764047,55.61403204,-664.385968,8.349132325,
45248888,-2.133677125,0.7821969961,52.24848363,-667.7515164,8.182609808,
45353333,-2.177536661,0.7782572353,48.81212735,-671.1878726,8.019460016,
45457777,-2.218571157,0.7745892085,45.37448314,-674.6255169,7.872689665,
45562222,-2.264818844,0.7704758982,41.89469519,-678.1053048,7.71368185,
45666666,-2.310855972,0.7664030094,38.41224704,-681.587753,7.561754135,
45771111,-2.361467199,0.7619502924,35.14945044,-684.8505496,7.401606622,
45875555,-2.417314778,0.7570669043,31.9110249,-688.0889751,7.232719359,
45980000,-2.473170407,0.7522141169,28.62999337,-691.3700066,7.071484846,
46084444,-2.527860929,0.7474926963,25.34524943,-694.6547506,6.920562973,
46188888,-2.585950888,0.742510254,22.12492441,-697.8750756,6.767299596,
46293333,-2.644150224,0.7375517347,18.93617605,-701.063824,6.620549513,
46397777,-2.702942783,0.7325762939,15.76824423,-704.2317558,6.47876854,
46502222,-2.762899058,0.7275369366,12.64517898,-707.354821,6.340444518,
46606666,-2.821968467,0.7226060222,9.57281948,-710.4271805,6.20996186,
46711111,-2.876618319,0.7180738048,6.517955315,-713.4820447,6.094055232,
46815555,-2.932898451,0.7134360943,3.590123764,-716.4098762,5.979246025,
46920000,-2.983078177,0.7093263465,0.8085177661,-719.1914822,5.880568555,
47024444,-3.028277109,0.7056447985,-2.002735568,-722.0027356,5.794512173,
47128888,-3.065845545,0.7025993161,-4.784535952,-724.784536,5.724934099,
47233333,-3.097358873,0.70005483,-7.532126469,-727.5321265,5.667885335,
47337777,-3.123268791,0.6979696853,-10.27552201,-730.275522,5.621851856,
47442222,-3.137847439,0.6967991754,-12.99336357,-732.9933636,5.596288129,
47546666,-3.142838617,0.6963988883,-15.68780918,-735.6878092,5.587591162,
47651111,-3.138244277,0.696767341,-18.3360513,-738.3360513,5.595595628,
47755555,-3.124333577,0.6978841278,-20.94597588,-740.9459759,5.619976585,
47860000,-3.103192347,0.6995848286,-23.5665895,-743.5665895,5.657453385,
47964444,-3.070101422,0.7022551437,-26.22545037,-746.2254504,5.717160542,
48068888,-3.031325504,0.7053971892,-28.9016758,-748.9016758,5.788801487,
48173333,-2.981385444,0.7094645957,-31.67631589,-751.6763159,5.883842624,
48277777,-2.928455977,0.7138010807,-34.3803062,-754.3803062,5.988146583,
48382222,-2.869001516,0.7187037721,-37.10285188,-757.1028519,6.109942478,
48486666,-2.806436222,0.7238993537,-39.87308676,-759.8730868,6.243735308,
48591111,-2.743132868,0.7291944535,-42.72437467,-762.7243747,6.385373105,
48695555,-2.67587872,0.7348624629,-45.60142778,-765.6014278,6.543254802,
48800000,-2.609227183,0.7405231517,-48.51404719,-768.5140472,6.707816759,
48904444,-2.540202349,0.7464313692,-51.56752359,-771.5675236,6.887410968,
49008888,-2.473082139,0.7522217612,-54.55310072,-774.5531007,7.071733859,
49113333,-2.410597181,0.7576526402,-57.61715101,-777.617151,7.252617242,
49217777,-2.347211621,0.7632018579,-60.68336386,-780.6833639,7.446012214,
49322222,-2.283175388,0.7688493129,-63.7926974,-783.7926974,7.652364504,
49426666,-2.224010922,0.7741042537,-66.9486907,-786.9486907,7.853641702,
49531111,-2.166826847,0.7792174284,-70.11078624,-790.1107862,8.058686042,
49635555,-2.11275846,0.7840830707,-73.29816733,-793.2981673,8.262821615,
49740000,-2.060010841,0.788859133,-76.50322932,-796.5032293,8.472349092,
49844444,-2.012863464,0.7931527362,-79.74665283,-799.7466528,8.668970057,
49948888,-1.964459594,0.7975850782,-83.0050966,-803.0050966,8.880694477,
50053333,-1.920426848,0.8016386677,-86.25757652,-806.2575765,9.082610239,
50157777,-1.879876544,0.8053898885,-89.53420547,-809.5342055,9.276958296,
50262222,-1.843306238,0.8087879797,-92.82506517,-812.8250652,9.459593475,
50366666,-1.807497186,0.8121292279,-96.08875273,-816.0887527,9.64561548,
50471111,-1.771518673,0.8155001896,-99.31902906,-819.3190291,9.840119543,
50575555,-1.740209432,0.8184450537,-102.539222,-822.539222,10.01594884,
50680000,-1.711303367,0.8211733218,-105.7668579,-825.7668579,10.1840136,
50784444,-1.683115195,0.8238425908,-109.0250933,-829.0250933,10.35348215,
50888888,-1.657577732,0.8262683421,-112.254662,-832.254662,10.51200664,
50993333,-1.635005313,0.828418396,-115.5196645,-835.5196645,10.65626124,
51097777,-1.61230265,0.8305864991,-118.7996874,-838.7996874,10.80543457,
51202222,-1.591223153,0.8326046698,-122.0928902,-842.0928902,10.94776459,
51306666,-1.572978353,0.8343554024,-125.273658,-845.273658,11.07404304,
51411111,-1.556770486,0.8359137629,-128.4885097,-848.4885097,11.18871269,
51515555,-1.539594043,0.8375684271,-131.7756415,-851.7756415,11.31287713,
51620000,-1.525774889,0.8389020498,-135.0126817,-855.0126817,11.41480725,
51724444,-1.512034487,0.8402301778,-138.27854,-858.27854,11.51800855,
51828888,-1.499460102,0.8414474427,-141.473942,-861.473942,11.6141138,
51933333,-1.488248966,0.8425342252,-144.7064994,-864.7064994,11.7011727,
52037777,-1.478151491,0.8435142532,-147.9384335,-867.9384335,11.78071672,
52142222,-1.469262464,0.8443779366,-151.1593931,-871.1593931,11.85164813,
52246666,-1.460702243,0.8452105082,-154.3966639,-874.3966639,11.92077373,
52351111,-1.451918463,0.8460656767,-157.6511627,-877.6511627,11.99255394,
52455555,-1.441697246,0.8470618799,-160.9502311,-880.9502311,12.07718441,
52560000,-1.43494715,0.8477204158,-164.1585345,-884.1585345,12.13373694,
52664444,-1.431716256,0.8480358014,-167.3389857,-887.3389857,12.16099462,
52768888,-1.426783055,0.8485175851,-170.5473452,-890.5473452,12.20285263,
52873333,-1.421597264,0.8490243321,-173.7596386,-893.7596386,12.24716776,
52977777,-1.417549544,0.8494200789,-176.989983,-896.989983,12.28198332,
53082222,-1.412395362,0.8499242719,179.7756392,-900.2243608,12.32660534,
53186666,-1.406895936,0.8504625674,176.5463368,-903.4536632,12.37457763,
53291111,-1.401214018,0.8510190838,173.2768316,-906.7231684,12.42453819,
53395555,-1.39826525,0.8513080449,170.0651431,-909.9348569,12.45062683,
53500000,-1.397007826,0.8514312945,166.8885688,-913.1114312,12.4617852,
53604444,-1.394458653,0.8516812129,163.6945964,-916.3054036,12.48446842,
53708888,-1.391531124,0.8519683156,160.4649984,-919.5350016,12.51062111,
53813333,-1.389219181,0.8521951161,157.2233629,-922.7766371,12.5313526,
53917777,-1.386648068,0.852447412,154.0054315,-925.9945685,12.55448947,
54022222,-1.385876653,0.8525231233,150.7611761,-929.2388239,12.56144804,
54126666,-1.382043764,0.8528994058,147.5358048,-932.4641952,12.59613814,
54231111,-1.380138652,0.8530864962,144.2781123,-935.7218877,12.61345246,
54335555,-1.379472084,0.8531519658,141.1063709,-938.8936291,12.61952178,
54440000,-1.378921337,0.8532060634,137.9197884,-942.0802116,12.62454095,
54544444,-1.377170029,0.85337811,134.6957776,-945.3042224,12.64052803,
54648888,-1.376796388,0.8534148205,131.4523445,-948.5476555,12.64394414,
54753333,-1.373983784,0.8536912121,128.2438024,-951.7561976,12.66971888,
54857777,-1.374464417,0.8536439744,125.0539867,-954.9460133,12.66530686,
54962222,-1.37693337,0.8534013618,121.8332448,-958.1667552,12.64269153,
55066666,-1.37765807,0.8533301618,118.6049811,-961.3950189,12.63606877,
55171111,-1.376365706,0.8534571374,115.3885568,-964.6114432,12.64788407,
55275555,-1.378280241,0.85326904,112.1642245,-967.8357755,12.63038857,
55380000,-1.375806831,0.853512053,108.9630868,-971.0369132,12.6530004,
55484444,-1.380545065,0.8530465811,105.6958129,-974.3041871,12.60975482,
55588888,-1.380263351,0.853074249,102.4734849,-977.5265151,12.61231769,
55693333,-1.378778992,0.8532200459,99.23469934,-980.7653007,12.62583884,
55797777,-1.38091757,0.853009998,95.9703835,-984.0296165,12.60636759,
55902222,-1.378469006,0.8532504966,92.69676431,-987.3032357,12.62866622,
56006666,-1.377721809,0.8533239,89.42829894,-990.5717011,12.63548663,
56111111,-1.37619677,0.8534737368,86.15963231,-993.8403677,12.64943019,
56215555,-1.376408052,0.8534529766,82.89229171,-997.1077083,12.64749657,
56320000,-1.376863767,0.8534082004,79.62005447,-1000.379946,12.64332797,
56424444,-1.377117916,0.85338323,76.36248901,-1003.637511,12.64100437,
56528888,-1.378391952,0.853258066,73.12335728,-1006.876643,12.62936923,
56633333,-1.379940889,0.8531059197,69.87649228,-1010.123508,12.61525254,
56737777,-1.379964606,0.8531035903,66.6222853,-1013.377715,12.61503664,
56842222,-1.381888389,0.8529146627,63.39004054,-1016.609959,12.59754845,
56946666,-1.382114618,0.8528924483,60.16348566,-1019.836514,12.59549511,
57051111,-1.384492151,0.8526590234,56.9522857,-1023.047714,12.57395646,
57155555,-1.384766224,0.8526321192,53.63041675,-1026.369583,12.57147833,
57260000,-1.389307123,0.8521864879,50.44879296,-1029.551207,12.53056275,
57364444,-1.39032277,0.852086847,47.21758195,-1032.782418,12.52144795,
57468888,-1.391727889,0.8519490158,43.96729138,-1036.032709,12.50885987,
57573333,-1.393199631,0.8518046733,40.71553051,-1039.284469,12.49570223,
57677777,-1.394191815,0.8517073777,37.46842981,-1042.53157,12.48684762,
57782222,-1.394298489,0.8516969177,34.19912762,-1045.800872,12.48589637,
57886666,-1.394527422,0.85167447,30.95550976,-1049.04449,12.48385541,
57991111,-1.393823105,0.8517435329,27.69276169,-1052.307238,12.49013665,
58095555,-1.393951391,0.8517309532,24.39922072,-1055.600779,12.48899209,
58200000,-1.389230494,0.8521940062,21.05577645,-1058.944224,12.53125099,
58304444,-1.385515674,0.8525585543,17.88620079,-1062.113799,12.56470692,
58408888,-1.378941998,0.8532040339,14.64870541,-1065.351295,12.62435258,
