Frequency,S11_Magnitude,S11_Phase,S11_VSWR,
30000000,-0.8685990644,-134.8494121,20.01643151,
30104444,-0.9327851749,-138.1526552,18.64145354,
30208888,-0.9454986348,-141.7710478,18.39127936,
30313333,-0.9576700231,-145.4131615,18.15800162,
30417777,-0.9694023528,-149.0453011,17.93868916,
30522222,-0.9820786933,-152.7030117,17.70762574,
30626666,-0.994815059,-156.3708488,17.48140492,
30731111,-1.00768829,-160.0584826,17.2585704,
30835555,-1.02013375,-163.7331342,17.04849323,
30940000,-1.032529011,-167.4081715,16.84430281,
31044444,-1.044717285,-171.1090098,16.64825226,
31148888,-1.05497591,-174.7840041,16.48675562,
31253333,-1.066082435,-178.4901424,16.31541918,
31357777,-1.075475421,177.8226713,16.17328231,
31462222,-1.083823122,174.1006149,16.04903323,
31566666,-1.095520616,170.4250128,15.87811488,
31671111,-1.10627619,166.7079245,15.72415326,
31775555,-1.119491109,162.9817403,15.53904297,
31880000,-1.129445093,159.280167,15.40247495,
31984444,-1.138798696,155.565763,15.27632291,
32088888,-1.149882984,151.8548411,15.12949001,
32193333,-1.16280455,148.1455748,14.96185767,
32297777,-1.172476235,144.4129804,14.83880764,
32402222,-1.184161604,140.6963641,14.69282345,
32506666,-1.194737671,136.9485847,14.56316334,
32611111,-1.21411172,133.2294907,14.33151043,
32715555,-1.216603772,129.5558,14.30224971,
32820000,-1.225617758,125.8155803,14.19740614,
32924444,-1.236917424,122.0501584,14.06813931,
33028888,-1.247845008,118.2981265,13.94535954,
33133333,-1.259436949,114.5303473,13.81744803,
33237777,-1.274443157,110.7783802,13.65532358,
33342222,-1.291536329,107.0147472,13.47524982,
33446666,-1.312162334,103.2425062,13.26421583,
33551111,-1.338072312,99.5003943,13.008356,
33655555,-1.372167669,95.77610724,12.68641803,
33760000,-1.40720909,92.15292845,12.37183585,
33864444,-1.438387162,88.55427901,12.10484993,
33968888,-1.4521251,85.294966,11.99085533,
34073333,-1.436120007,81.90561724,12.12387246,
34177777,-1.406821208,78.35591981,12.37523208,
34282222,-1.376166923,74.68740195,12.64970339,
34386666,-1.352117956,70.9628477,12.8737625,
34491111,-1.334214746,67.21065465,13.04581844,
34595555,-1.323391141,63.43897323,13.15209939,
34700000,-1.312834498,59.68272965,13.25745039,
34804444,-1.309635404,55.90041549,13.28971202,
34908888,-1.304638247,52.12133774,13.34042362,
35013333,-1.301022402,48.33678478,13.37736092,
35117777,-1.297451625,44.51498966,13.41404026,
35222222,-1.294323078,40.6937088,13.44634361,
35326666,-1.290997163,36.9698135,13.48085688,
35431111,-1.291295296,33.30972433,13.47775586,
35535555,-1.289727897,29.66707974,13.49407516,
35640000,-1.289627716,26.00123596,13.49511957,
35744444,-1.286153635,22.3174138,13.53143837,
35848888,-1.287031436,18.61480392,13.5222431,
35953333,-1.283915677,14.89875897,13.55493875,
36057777,-1.280216336,11.1993377,13.59396533,
36162222,-1.278494892,7.475472194,13.61220302,
36266666,-1.277273165,3.757208841,13.62517637,
36371111,-1.275294638,0.0461049094,13.64623892,
36475555,-1.272665252,-3.679036189,13.67433175,
36580000,-1.270531431,-7.40691465,13.6972155,
36684444,-1.267895362,-11.12015119,13.72559204,
36788888,-1.266263157,-14.84510362,13.74322161,
36893333,-1.263185152,-18.56830417,13.77659156,
36997777,-1.259579303,-22.31585048,13.81589189,
37102222,-1.259235407,-26.04566255,13.8196518,
37206666,-1.257289208,-29.75562313,13.840969,
37311111,-1.254584793,-33.5162767,13.87070112,
37415555,-1.25233747,-37.26340052,13.89550588,
37520000,-1.255240868,-41.05686164,13.86347649,
37624444,-1.24820475,-44.78063877,13.94135418,
37728888,-1.248480092,-48.33225399,13.93829009,
37833333,-1.247145963,-52.03076905,13.95314933,
37937777,-1.247496023,-55.74887619,13.94924735,
38042222,-1.249020806,-59.49781264,13.93227679,
38146666,-1.248468646,-63.23598464,13.93841743,
38251111,-1.249323707,-67.00233995,13.9289105,
38355555,-1.250323427,-70.79626546,13.9178117,
38460000,-1.251796463,-74.52325472,13.90149054,
38564444,-1.252584596,-78.20531506,13.89277386,
38668888,-1.255241283,-81.85277336,13.86347192,
38773333,-1.256361097,-85.51454045,13.85115812,
38877777,-1.257780971,-89.17225537,13.83557636,
38982222,-1.261466382,-92.82681128,13.79529645,
39086666,-1.264704252,-96.50917797,13.76010202,
39191111,-1.268986147,-100.1854699,13.71383573,
39295555,-1.272808717,-103.8922432,13.67279594,
39400000,-1.276485078,-107.5865728,13.63355818,
39504444,-1.282062825,-111.2967114,13.57445741,
39608888,-1.287119292,-115.0043899,13.52132347,
39713333,-1.292009019,-118.7041922,13.47033793,
39817777,-1.297327019,-122.3877907,13.41532387,
39922222,-1.304222203,-126.0437376,13.34466323,
40026666,-1.310586473,-129.6846089,13.28010438,
40131111,-1.318027669,-133.3249778,13.20541336,
40235555,-1.32755031,-136.9761998,13.11105356,
40340000,-1.334882814,-140.6450289,13.03931502,
40444444,-1.343580136,-144.2918544,12.95524078,
40548888,-1.352149374,-147.9700056,12.87346458,
40653333,-1.361482324,-151.6199782,12.78557373,
40757777,-1.371697047,-155.2918218,12.69075263,
40862222,-1.381092263,-158.952868,12.60477973,
40966666,-1.392776713,-162.5822391,12.49948034,
41071111,-1.40236225,-166.2391655,12.41440919,
41175555,-1.412675801,-169.8969809,12.32416907,
41280000,-1.424227573,-173.5573977,12.22465005,
41384444,-1.435409584,-177.2331277,12.12984565,
41488888,-1.44658795,179.1106518,12.03654039,
41593333,-1.457887483,175.4394146,11.94368129,
41697777,-1.470209848,171.8021862,11.84404739,
41802222,-1.482207246,168.1268556,11.7486365,
41906666,-1.495168225,164.4693616,11.64728731,
42011111,-1.508243266,160.8239648,11.54681545,
42115555,-1.520844997,157.0968071,11.45161959,
42220000,-1.531141903,153.346984,11.37500105,
42324444,-1.546918912,149.7639347,11.25958928,
42428888,-1.56284811,146.1246722,11.14543441,
42533333,-1.579065951,142.4883999,11.03158342,
42637777,-1.594225071,138.8436108,10.92726497,
42742222,-1.609349222,135.1816213,10.82515105,
42846666,-1.627796866,131.5581616,10.70317393,
42951111,-1.64559777,127.9187754,10.58807325,
43055555,-1.664081446,124.2821048,10.47117147,
43160000,-1.683131148,120.6779273,10.35338462,
43264444,-1.704495737,117.0346469,10.22442636,
43368888,-1.725239972,113.4335513,10.10227843,
43473333,-1.748759206,109.8296856,9.967307223,
43577777,-1.774204429,106.2676918,9.825326607,
43682222,-1.796312781,102.6431261,9.705242163,
43786666,-1.821440628,99.00730866,9.572308912,
43891111,-1.84629699,95.33235833,9.44438472,
43995555,-1.874309747,91.69814365,9.30429772,
44100000,-1.906311555,88.09690274,9.149319649,
44204444,-1.93585304,84.49147589,9.01082251,
44308888,-1.969245446,80.89178454,8.859294876,
44413333,-2.005435474,77.33071951,8.700794224,
44517777,-2.042809318,73.76731044,8.543029021,
44622222,-2.084524289,70.21280452,8.373649972,
44726666,-2.127994461,66.67282658,8.204242975,
44831111,-2.173530721,63.15010607,8.034086781,
44935555,-2.222059704,59.6523752,7.860463333,
45040000,-2.274181012,56.14129466,7.68228451,
45144444,-2.327517371,52.64792444,7.508259359,
45248888,-2.385769445,49.15920922,7.327136962,
45353333,-2.445709724,45.68840102,7.149827279,
45457777,-2.509110073,42.2158112,6.97156084,
45562222,-2.575940553,38.77293928,6.793214149,
45666666,-2.645370851,35.23325564,6.617541346,
45771111,-2.721305228,31.69429226,6.435752041,
45875555,-2.80286193,28.63460131,6.251560723,
45980000,-2.88591931,25.36245012,6.074769844,
46084444,-2.972403816,22.12565126,5.901277807,
46188888,-3.060994122,18.92087692,5.733822088,
46293333,-3.152487001,15.76086947,5.57085808,
46397777,-3.246650911,12.67299884,5.4128295,
46502222,-3.340965109,9.632341993,5.263578677,
46606666,-3.434651881,6.658200316,5.123532828,
46711111,-3.524948674,3.768965497,4.995688611,
46815555,-3.612726679,0.9155570566,4.877618005,
46920000,-3.695783254,-1.733032638,4.77113478,
47024444,-3.769970428,-4.309383111,4.680048026,
47128888,-3.83547872,-6.794725089,4.602591548,
47233333,-3.891000486,-9.204485132,4.539017563,
47337777,-3.932214816,-11.54423331,4.493006022,
47442222,-3.958569923,-13.84292541,4.464093947,
47546666,-3.970593545,-16.10706025,4.451033472,
47651111,-3.967744966,-18.36504696,4.454120417,
47755555,-3.945092218,-20.64122304,4.478830167,
47860000,-3.911067971,-22.96916484,4.516491117,
47964444,-3.860523062,-25.33933447,4.573684961,
48068888,-3.796457375,-27.56748038,4.64840305,
48173333,-3.721533719,-29.93162627,4.739100639,
48277777,-3.638495702,-32.49776852,4.844052843,
48382222,-3.545635003,-35.03503965,4.967329428,
48486666,-3.45093258,-37.5543743,5.099981264,
48591111,-3.350744833,-40.21235788,5.248588938,
48695555,-3.248219022,-43.1357319,5.410276285,
48800000,-3.149641431,-45.79023345,5.575782344,
48904444,-3.048499639,-48.67136281,5.756844044,
49008888,-2.950714546,-51.6326586,5.943823043,
49113333,-2.85265399,-54.67145194,6.144329452,
49217777,-2.761563367,-57.73544498,6.343460115,
49322222,-2.671703309,-60.85641282,6.553320924,
49426666,-2.587682657,-63.99479861,6.762836921,
49531111,-2.504701273,-67.17432488,6.983663377,
49635555,-2.427009298,-70.39073895,7.204199102,
49740000,-2.353531738,-73.63788278,7.4262585,
49844444,-2.287415543,-76.89797465,7.638341606,
49948888,-2.221607806,-80.17322768,7.862044924,
50053333,-2.162669517,-83.46873565,8.074018002,
50157777,-2.105783069,-86.75548669,8.289924543,
50262222,-2.053922259,-90.01806457,8.497230688,
50366666,-2.002528716,-93.31367492,8.713312376,
50471111,-1.957283253,-96.59656805,8.912979934,
50575555,-1.91499967,-99.90166963,9.10814245,
50680000,-1.873089079,-103.1469253,9.310314426,
50784444,-1.83875866,-106.3774388,9.482814263,
50888888,-1.804569914,-109.6418464,9.661149788,
50993333,-1.771833752,-112.928887,9.838381782,
51097777,-1.742604164,-116.2161487,10.00227638,
51202222,-1.714232442,-119.4826467,10.16672455,
51306666,-1.691035715,-122.7660943,10.30529109,
51411111,-1.667054456,-126.0338789,10.45261113,
51515555,-1.645131519,-129.3083479,10.59105617,
51620000,-1.624861066,-132.5940305,10.72239979,
51724444,-1.607666543,-135.8464942,10.83641676,
51828888,-1.588937412,-139.1149428,10.96342564,
51933333,-1.573033274,-142.3782656,11.0736585,
52037777,-1.559255487,-145.6131577,11.17097631,
52142222,-1.546865962,-148.8846873,11.25997267,
52246666,-1.533850698,-152.1478813,11.35501644,
52351111,-1.518501644,-155.4746526,11.46920183,
52455555,-1.50890617,-158.70119,11.54176803,
52560000,-1.501562188,-161.9028658,11.59793535,
52664444,-1.492490456,-165.1362865,11.66808166,
52768888,-1.484306492,-168.3726253,11.73210089,
52873333,-1.476906705,-171.6066916,11.79059815,
52977777,-1.468509377,-174.851363,11.85769707,
53082222,-1.461211468,-178.1103033,11.91663892,
53186666,-1.456926778,178.6806979,11.95152016,
53291111,-1.454188359,175.4937654,11.97392128,
53395555,-1.449564745,172.2648321,12.01193643,
53500000,-1.445857432,169.0233969,12.04259383,
53604444,-1.44306684,165.7887218,12.0657746,
53708888,-1.439921841,162.5629493,12.0920073,
53813333,-1.436693919,159.3636191,12.11905137,
53917777,-1.433567598,156.124555,12.14536057,
54022222,-1.429185613,152.8839993,12.18243084,
54126666,-1.425631377,149.6313784,12.21266637,
54231111,-1.424094372,146.3964057,12.22578836,
54335555,-1.42541766,143.2009357,12.21448925,
54440000,-1.426115919,140.0432838,12.20853552,
54544444,-1.422397164,136.7461391,12.24031109,
54648888,-1.423277481,133.5384311,12.23277403,
54753333,-1.424369764,130.3595969,12.22343515,
54857777,-1.425886832,127.1556994,12.2104882,
54962222,-1.427069326,123.9625141,12.2004157,
55066666,-1.429350174,120.7527764,12.18103459,
55171111,-1.43068476,117.5384126,12.1697229,
55275555,-1.433810281,114.3180926,12.14331418,
55380000,-1.434609434,111.0834215,12.13658035,
55484444,-1.435300142,107.7802433,12.13076636,
55588888,-1.443758864,104.6181032,12.06001776,
55693333,-1.452976652,101.4659732,11.98386043,
55797777,-1.456934047,98.25605171,11.95146082,
55902222,-1.458445722,94.95804614,11.93913109,
56006666,-1.460983773,91.69072984,11.91848741,
56111111,-1.463608365,88.4192023,11.89721531,
56215555,-1.468497647,85.19247746,11.85779134,
56320000,-1.475516102,81.99251274,11.80165689,
56424444,-1.485044629,78.80657174,11.72629778,
56528888,-1.496820382,75.63277826,11.63449459,
56633333,-1.505306465,72.39627773,11.56923019,
56737777,-1.512575626,69.11103463,11.51390861,
56842222,-1.522409158,65.90357739,11.43991385,
56946666,-1.538010661,62.75369473,11.32446301,
57051111,-1.554242549,59.61996781,11.20681386,
57155555,-1.565989733,56.47208151,11.12319522,
57260000,-1.581172359,53.32550891,11.01696805,
57364444,-1.593729814,50.15927994,10.93064167,
57468888,-1.614712562,47.04562453,10.78940008,
57573333,-1.625720666,43.93669041,10.71676326,
57677777,-1.638008004,40.86078541,10.63684186,
57782222,-1.65227146,37.78525305,10.54556226,
57886666,-1.660799246,34.74785991,10.49173947,
57991111,-1.667832897,31.74855217,10.44776233,
58095555,-1.666759911,28.76032438,10.45444699,
58200000,-1.659561906,25.7749999,10.49951449,
58304444,-1.644716235,22.84152284,10.59371445,
58408888,-1.617304708,19.88312505,10.77220657,
58513333,-1.58049984,16.86987762,11.0216301,
58617777,-1.528313846,13.80233412,11.39594131,
58722222,-1.469123244,10.76191152,11.85276591,
58826666,-1.403442699,7.657579773,12.40489329,
58931111,-1.337283082,4.440074343,13.01600292,
59035555,-1.269407484,1.120488069,13.70930003,
59140000,-1.20552062,-2.328581377,14.43331277,
59244444,-1.149003883,-5.888519137,15.14103183,
59348888,-1.108937593,-9.470057886,15.68651792,
59453333,-1.067320168,-13.09846563,16.29654622,
59557777,-1.036989337,-16.73158819,16.77202237,
59662222,-1.019410664,-20.39099557,17.06055829,
59766666,-1.007043455,-24.07107311,17.26959676,
59871111,-1.002162805,-27.72904192,17.35351404,
59975555,-1.003685694,-31.37665757,17.32724197,
60080000,-1.012088151,-35.00859994,17.18371046,
60184444,-1.028894352,-38.64635103,16.9036671,
60288888,-1.050785273,-42.30675751,16.55234539,
60393333,-1.06694532,-45.95676494,16.30225729,
60497777,-1.087634619,-49.56788598,15.99293707,
60602222,-1.113470349,-53.17531913,15.62283416,
60706666,-1.145081337,-56.78702396,15.19274765,
60811111,-1.179903481,-60.41235874,14.7456844,
60915555,-1.21285897,-64.02021895,14.34626524,
61020000,-1.24823424,-67.64868535,13.94102595,
61124444,-1.288318825,-71.28229935,13.50877996,
61228888,-1.327874568,-74.85623626,13.10786436,
61333333,-1.366744587,-78.55223099,12.73654789,
61437777,-1.417431644,-82.09260789,12.2830004,
61542222,-1.461922985,-85.74635327,11.91086638,
61646666,-1.515906181,-89.41488914,11.48873927,
61751111,-1.308727313,-94.1287436,13.29889856,
61855555,-1.619482774,-96.80062297,10.75780231,
61960000,-1.678387471,-100.382665,10.38246463,
62064444,-1.745735456,-104.0179028,9.984455389,
62168888,-1.807869747,-107.6947218,9.643642017,
62273333,-1.876180273,-111.3574699,9.295093102,
62377777,-1.951210004,-115.0387615,8.940489037,
62482222,-2.027742197,-118.6936527,8.605928616,
62586666,-2.11074235,-122.3629964,8.270636727,
62691111,-2.200184579,-126.0512232,7.937773393,
62795555,-2.293752457,-129.7252838,7.617481568,
62900000,-2.400108297,-133.3701138,7.283910042,
63004444,-2.505379042,-137.0867857,6.981800053,
63108888,-2.617648102,-140.7928581,6.686559528,
63213333,-2.743173609,-144.4256818,6.385279829,
63317777,-2.872732542,-148.0944185,6.102149623,
63422222,-3.019112112,-151.6560193,5.811751503,
63526666,-3.170016807,-155.2601394,5.540719838,
63631111,-3.332525551,-158.8370368,5.276585887,
63735555,-3.508607166,-162.3175098,5.018331099,
63840000,-3.694499411,-165.755311,4.772743772,
63944444,-3.891341983,-169.1537605,4.538632244,
64048888,-4.098060992,-172.449302,4.317368345,
64153333,-4.317095834,-175.6166776,4.106448618,
64257777,-4.54473058,-178.7003043,3.909210156,
64362222,-4.780535228,178.3507617,3.72512667,
64466666,-5.023726239,175.5669001,3.553810152,
64571111,-5.268439212,172.9837143,3.39780678,
64675555,-5.509589132,170.5706141,3.258025049,
64780000,-5.742220161,168.3430932,3.134660837,
64884444,-5.962364424,166.3022476,3.027090782,
64988888,-6.163585286,164.4988336,2.935740982,
65093333,-6.340953996,162.8870369,2.860220391,
65197777,-6.485504817,161.4750474,2.8018587,
65302222,-6.591724095,160.2046092,2.760678054,
65406666,-6.657611446,159.0277916,2.735825096,
65511111,-6.675424206,157.7799595,2.729194346,
65615555,-6.651141957,156.5483191,2.738242565,
65720000,-6.580479959,155.1896361,2.764971486,
65824444,-6.47402109,153.7117821,2.806395611,
65928888,-6.339531408,152.1146739,2.860808575,
66033333,-6.176499271,150.2658001,2.930089754,
66137777,-5.99482438,148.1929446,3.011923136,
66242222,-5.799181998,145.8916491,3.106014717,
66346666,-5.597530425,143.3816019,3.210142483,
66451111,-5.391926832,140.6507948,3.324615844,
66555555,-5.185638352,137.7155505,3.448895926,
66660000,-4.986079981,134.6437096,3.579208062,
66764444,-4.790501106,131.3853593,3.717755367,
66868888,-4.603272202,127.9524824,3.861707092,
66973333,-4.42488978,124.4269221,4.010464329,
67077777,-4.25337033,120.7742646,4.165528832,
67182222,-4.089978787,116.9877751,4.325591703,
67286666,-3.939466375,113.1299439,4.48501168,
67391111,-3.795085206,109.1476511,4.650031413,
67495555,-3.655917547,105.0791944,4.821632178,
67600000,-3.530228818,100.9125716,4.988417962,
67704444,-3.405389066,96.66220057,5.166437776,
67808888,-3.293759403,92.35434403,5.33719982,
67913333,-3.187649544,87.96653132,5.510742718,
68017777,-3.086258711,83.48431178,5.687845721,
68122222,-2.990535718,78.93447814,5.866188814,
68226666,-2.899842294,74.28797382,6.046134181,
68331111,-2.815125366,69.5660786,6.224795228,
68435555,-2.736379362,64.77924264,6.400873853,
68540000,-2.661049432,59.86290662,6.579149651,
68644444,-2.58920516,54.85021943,6.75891848,
68748888,-2.524008266,49.75875343,6.930979017,
68853333,-2.460652664,44.50600632,7.10697833,
68957777,-2.398509459,39.14932842,7.288704251,
69062222,-2.338741455,33.65979138,7.472654409,
69166666,-2.284001729,28.01109992,7.649627549,
69271111,-2.233144197,22.22984254,7.821870329,
69375555,-2.18549641,16.24912261,7.990556787,
69480000,-2.13592756,10.09111192,8.174074669,
69584444,-2.092157969,3.72566445,8.343388799,
69688888,-2.051726596,-2.886180317,8.506239882,
69793333,-2.011210858,-9.73095041,8.67602999,
69897777,-1.974288173,-16.84554021,8.836859408,
70002222,-1.938843978,-24.28235634,8.997036558,
70106666,-1.909182251,-32.0586503,9.1356724,
70211111,-1.882129588,-40.19700076,9.265939388,
70315555,-1.857420483,-48.74364458,9.3882503,
70420000,-1.839180477,-57.73168637,9.480655536,
70524444,-1.824252933,-67.1992128,9.557659733,
70628888,-1.816663171,-77.15730842,9.597298835,
70733333,-1.814152781,-87.65677191,9.610483124,
70837777,-1.819057514,-98.71569072,9.584758037,
70942222,-1.833189502,-110.342696,9.511408952,
71046666,-1.856064508,-122.5247559,9.395057048,
71151111,-1.882496966,-135.2369498,9.264145173,
71255555,-1.918446586,-148.4369977,9.091909595,
71360000,-1.958860671,-162.0293052,8.90586296,
71464444,-2.000053166,-175.9206745,8.724002315,
71568888,-2.043097668,170.0094245,8.541834358,
71673333,-2.08186824,155.8816605,8.384231279,
71777777,-2.116742202,141.8439298,8.247423291,
71882222,-2.144634563,128.0116009,8.141221531,
71986666,-2.164486536,114.4630372,8.067309675,
72091111,-2.176284422,101.2915696,8.024026465,
72195555,-2.184484879,88.50596619,7.994218087,
72300000,-2.188949442,76.15235403,7.978083946,
72404444,-2.185056021,64.21777115,7.992150384,
72508888,-2.182090263,52.67015275,8.002899152,
72613333,-2.173890199,41.5271521,8.032772019,
72717777,-2.167150191,30.6937402,8.05749605,
72822222,-2.160114856,20.15813331,8.083468849,
72926666,-2.154113753,9.832978178,8.105758277,
73031111,-2.147299099,-0.2327660128,8.131221254,
73135555,-2.144342761,-10.18397237,8.142318213,
