Frequency,S11_Magnitude,S11_Phase,S11_VSWR,
30000000,-0.9790633436,-139.5554046,17.76204639,
30104444,-1.007008357,-143.2426911,17.27019731,
30208888,-1.018849983,-146.9398176,17.06992533,
30313333,-1.032237276,-150.6435187,16.84905221,
30417777,-1.042689534,-154.3525298,16.68055078,
30522222,-1.056158564,-158.0849714,16.46833959,
30626666,-1.067471014,-161.8145173,16.29424912,
30731111,-1.080481324,-165.5644818,16.09854256,
30835555,-1.091408089,-169.3062879,15.93778705,
30940000,-1.102288984,-173.0482469,15.78087756,
31044444,-1.114448551,-176.8170828,15.6091588,
31148888,-1.124641259,179.4352191,15.468081,
31253333,-1.132946512,175.6667047,15.35500703,
31357777,-1.143809655,171.9138911,15.20959006,
31462222,-1.151833311,168.1706687,15.10394693,
31566666,-1.16187747,164.4032815,14.9737604,
31671111,-1.169304101,160.6266664,14.87894111,
31775555,-1.180072515,156.8408636,14.7435787,
31880000,-1.190031729,153.0816722,14.62057207,
31984444,-1.19940088,149.3029612,14.50672101,
32088888,-1.208221621,145.5113544,14.40115032,
32193333,-1.217863486,141.7335062,14.28750426,
32297777,-1.224779448,137.9597935,14.20709149,
32402222,-1.233649584,134.1874251,14.10527921,
32506666,-1.2416382,130.3863005,14.01483218,
32611111,-1.247773323,126.5900151,13.94615796,
32715555,-1.255997495,122.7821948,13.85515399,
32820000,-1.262802472,118.9926119,13.78075174,
32924444,-1.270382989,115.1777812,13.6988103,
33028888,-1.27686978,111.3765016,13.62946533,
33133333,-1.283296426,107.571437,13.5614559,
33237777,-1.289728082,103.7516351,13.49407324,
33342222,-1.29695364,99.92727937,13.41917168,
33446666,-1.304431589,96.09603788,13.34252918,
33551111,-1.314643278,92.26036837,13.23927916,
33655555,-1.325395952,88.39904728,13.13228218,
33760000,-1.337287777,84.53555593,13.01595741,
33864444,-1.353286255,80.65591123,12.8626933,
33968888,-1.377045726,76.74330001,12.64166429,
34073333,-1.407524287,72.81187021,12.36907742,
34177777,-1.447873184,68.87558116,12.02590517,
34282222,-1.506105541,65.01774262,11.56312267,
34386666,-1.583532307,61.41041695,11.00063979,
34491111,-1.660782521,58.06229104,10.49184449,
34595555,-1.700854879,55.010721,10.24617312,
34700000,-1.681212215,51.9555574,10.36512837,
34804444,-1.622247977,48.70810322,10.73957101,
34908888,-1.557539953,45.19687051,11.18321465,
35013333,-1.502574495,41.50884565,11.59016045,
35117777,-1.458110269,37.75841529,11.94186494,
35222222,-1.423593813,33.95345351,12.23006795,
35326666,-1.398524308,30.11123676,12.44833044,
35431111,-1.374735918,26.2281201,12.66281595,
35535555,-1.359089282,22.31347953,12.80799433,
35640000,-1.344424255,18.55424341,12.94713898,
35744444,-1.333028602,14.85686182,13.05738126,
35848888,-1.327023126,11.14588033,13.11624195,
35953333,-1.31872172,7.3974843,13.19848988,
36057777,-1.309089877,3.648277243,13.29522922,
36162222,-1.301395559,-0.1144694681,13.37353946,
36266666,-1.292928292,-3.887289559,13.46079576,
36371111,-1.285948832,-7.643137566,13.53358556,
36475555,-1.283158179,-11.40618984,13.5629117,
36580000,-1.275896512,-15.17072618,13.6398247,
36684444,-1.2699729,-18.94397171,13.70321807,
36788888,-1.265186872,-22.71781485,13.75487158,
36893333,-1.2592581,-26.50527065,13.81940363,
36997777,-1.252518778,-30.27222197,13.89350138,
37102222,-1.248300982,-34.09102334,13.94028313,
37206666,-1.242346596,-37.90456941,14.00686797,
37311111,-1.239263988,-41.65980296,14.041591,
37415555,-1.235660225,-45.45212107,14.08240444,
37520000,-1.234944436,-49.24957695,14.09053931,
37624444,-1.227872008,-53.00880692,14.17142749,
37728888,-1.22483462,-56.68311226,14.20645366,
37833333,-1.222961142,-60.40125228,14.2281449,
37937777,-1.220158836,-64.18909326,14.26071471,
38042222,-1.218198779,-67.92776841,14.28358468,
38146666,-1.217113562,-71.60954696,14.29627873,
38251111,-1.215118104,-75.29278094,14.31967938,
38355555,-1.21353344,-78.9982785,14.33831759,
38460000,-1.214003986,-82.69547174,14.33277812,
38564444,-1.213327481,-86.41718669,14.34074357,
38668888,-1.212837135,-90.11557187,14.34652268,
38773333,-1.213828009,-93.81018887,14.33484929,
38877777,-1.214137014,-97.52381798,14.33121284,
38982222,-1.21722616,-101.2147822,14.29496058,
39086666,-1.219534806,-104.9134379,14.26798791,
39191111,-1.22109096,-108.5968476,14.24986447,
39295555,-1.223580736,-112.3010304,14.22096384,
39400000,-1.227858237,-115.9720812,14.1715859,
39504444,-1.233348807,-119.6660283,14.10870753,
39608888,-1.237182192,-123.3583019,14.06513876,
39713333,-1.241777041,-127.0298977,14.01327053,
39817777,-1.246349693,-130.7436463,13.96203319,
39922222,-1.251911373,-134.4353577,13.90021896,
40026666,-1.258347984,-138.1064619,13.82936377,
40131111,-1.263857073,-141.7943261,13.76929309,
40235555,-1.272462685,-145.5042603,13.67650084,
40340000,-1.278557346,-149.2115786,13.6115405,
40444444,-1.285154675,-152.9153658,13.54191814,
40548888,-1.293394249,-156.6128336,13.45596425,
40653333,-1.301484633,-160.318816,13.37262758,
40757777,-1.310194845,-164.0151818,13.28405889,
40862222,-1.319788515,-167.6937166,13.18786233,
40966666,-1.329060782,-171.3778878,13.09621079,
41071111,-1.338951199,-175.0471376,12.99985101,
41175555,-1.349686554,-178.7336776,12.89686071,
41280000,-1.360551786,177.5830951,12.79428263,
41384444,-1.371412231,173.8961233,12.69337733,
41488888,-1.383301726,170.215242,12.58473154,
41593333,-1.394484739,166.5182422,12.48423588,
41697777,-1.408169918,162.8383522,12.36343108,
41802222,-1.41966017,159.1550643,12.26380441,
41906666,-1.432819105,155.4714938,12.1516765,
42011111,-1.447413005,151.7651341,12.02971094,
42115555,-1.461828135,148.0805227,11.91163557,
42220000,-1.476722427,144.3823484,11.79206242,
42324444,-1.492422582,140.6492779,11.66860972,
42428888,-1.50841934,136.9806812,11.54547437,
42533333,-1.52941111,133.428152,11.38780743,
42637777,-1.548829801,129.7507953,11.24577083,
42742222,-1.567922378,126.0032998,11.10955864,
42846666,-1.588446159,122.2674302,10.96679743,
42951111,-1.61513568,118.7516613,10.78658979,
43055555,-1.638732662,115.0896207,10.63216595,
43160000,-1.664408141,111.416862,10.46912867,
43264444,-1.692827195,107.7349536,10.29445386,
43368888,-1.721495137,104.0582036,10.12411063,
43473333,-1.751738122,100.3576939,9.950471397,
43577777,-1.780932626,96.57588794,9.7884648,
43682222,-1.821590177,93.10682932,9.571528771,
43786666,-1.862793875,89.49262335,9.36137467,
43891111,-1.903590959,85.8286779,9.162291464,
43995555,-1.948484576,82.17011679,8.952889987,
44100000,-1.997139553,78.51346596,8.736618004,
44204444,-2.047201226,74.8738943,8.524869519,
44308888,-2.102525867,71.21952876,8.302642318,
44413333,-2.161723492,67.58157273,8.077515157,
44517777,-2.224619645,63.998968,7.851516015,
44622222,-2.292027004,60.39556541,7.62314997,
44726666,-2.365253618,56.84320028,7.389902587,
44831111,-2.444119011,53.30984183,7.154419714,
44935555,-2.528803371,49.82460749,6.918019854,
45040000,-2.619594931,46.35103273,6.681664674,
45144444,-2.715255542,42.93272752,6.449859456,
45248888,-2.816718274,39.58484152,6.221335889,
45353333,-2.922121883,36.27593131,6.000884273,
45457777,-3.031964938,33.04169125,5.78760508,
45562222,-3.149255091,29.86565786,5.5764516,
45666666,-3.266714192,26.82014861,5.380349369,
45771111,-3.388044568,23.96371018,5.192222504,
45875555,-3.50879662,21.18203165,5.018067371,
45980000,-3.624861852,18.44428266,4.861751154,
46084444,-3.734869725,15.83709208,4.72268661,
46188888,-3.836876645,13.33220534,4.600967934,
46293333,-3.928454958,10.89330608,4.497162821,
46397777,-4.007056642,8.525668357,4.411913546,
46502222,-4.069500834,6.223934717,4.34657622,
46606666,-4.114661138,4.008906041,4.30058147,
46711111,-4.13769399,1.879322366,4.27751677,
46815555,-4.141744554,-0.3228288225,4.273487626,
46920000,-4.12758276,-2.419421598,4.28760969,
47024444,-4.092118109,-4.528057941,4.323411799,
47128888,-4.038754374,-6.689328933,4.378490188,
47233333,-3.969430949,-8.940416459,4.452292809,
47337777,-3.887439861,-11.23497752,4.543039188,
47442222,-3.794672943,-13.63730045,4.650520882,
47546666,-3.693887297,-16.13995009,4.773511312,
47651111,-3.587414461,-18.71178622,4.91106442,
47755555,-3.477119764,-21.39873624,5.062567753,
47860000,-3.366397811,-24.19422129,5.22478054,
47964444,-3.255914042,-27.0566549,5.397783239,
48068888,-3.147333798,-29.92913889,5.579782317,
48173333,-3.04332811,-32.89251858,5.76642883,
48277777,-2.938845095,-35.91046131,5.967374357,
48382222,-2.840789107,-38.87953278,6.169537297,
48486666,-2.747714267,-41.95865976,6.374901547,
48591111,-2.659315623,-45.05666885,6.583372744,
48695555,-2.576010266,-48.23961639,6.793032975,
48800000,-2.497716679,-51.48546349,7.002924755,
48904444,-2.419738874,-54.87236545,7.225566356,
49008888,-2.350791398,-57.92714749,7.434810392,
49113333,-2.283995949,-61.11417405,7.649646685,
49217777,-2.222133016,-64.3482163,7.86020681,
49322222,-2.164258552,-67.5929525,8.068150756,
49426666,-2.109587261,-70.84769691,8.275121003,
49531111,-2.057773365,-74.11897448,8.48147557,
49635555,-2.009253126,-77.39654595,8.684408518,
49740000,-1.963477148,-80.68894682,8.885100376,
49844444,-1.920233962,-83.94251763,9.083515192,
49948888,-1.880958309,-87.23194241,9.271664423,
50053333,-1.843933041,-90.51943013,9.456401915,
50157777,-1.808320568,-93.80422722,9.641255091,
50262222,-1.776024351,-97.08433725,9.81532814,
50366666,-1.747094999,-100.3592942,9.976737835,
50471111,-1.718121538,-103.635986,10.14386029,
50575555,-1.690919237,-106.9646428,10.3059965,
50680000,-1.668773557,-110.2139769,10.44190914,
50784444,-1.643806766,-113.4590972,10.59954076,
50888888,-1.622236103,-116.7190782,10.73964916,
50993333,-1.602325202,-119.9911575,10.87233479,
51097777,-1.584038829,-123.231025,10.99714157,
51202222,-1.566896209,-126.4540721,11.116795,
51306666,-1.551746474,-129.68784,11.22474491,
51411111,-1.535990785,-132.9305636,11.33927755,
51515555,-1.522123965,-136.1081636,11.44204635,
51620000,-1.509640228,-139.3453226,11.53618401,
51724444,-1.497678205,-142.5984745,11.6278636,
51828888,-1.486338033,-145.8131944,11.71614318,
51933333,-1.473506907,-149.0388366,11.81767191,
52037777,-1.464428573,-152.2330928,11.89058327,
52142222,-1.456699544,-155.4214487,11.9533758,
52246666,-1.448626574,-158.5930991,12.01967971,
52351111,-1.442476253,-161.7810277,12.070692,
52455555,-1.435955667,-164.9678567,12.12525369,
52560000,-1.430256596,-168.1725708,12.17334963,
52664444,-1.425129206,-171.3757578,12.21695047,
52768888,-1.417709987,-174.5728396,12.28059951,
52873333,-1.410258647,-177.8339097,12.34519968,
52977777,-1.404308058,178.9456605,12.39728235,
53082222,-1.402216321,175.7861176,12.41569556,
53186666,-1.399189545,172.6211527,12.44243745,
53291111,-1.395247761,169.4250975,12.47743785,
53395555,-1.39017223,166.223956,12.52279812,
53500000,-1.384615823,162.9791465,12.57283811,
53604444,-1.380550425,159.803991,12.60970606,
53708888,-1.377438298,156.6057879,12.63807645,
53813333,-1.374833464,153.3884372,12.66192126,
53917777,-1.371801721,150.1903937,12.68978828,
54022222,-1.370717914,147.0082655,12.69978035,
54126666,-1.367570972,143.856097,12.72888323,
54231111,-1.366391554,140.6738947,12.73982508,
54335555,-1.365143513,137.5048373,12.75142421,
54440000,-1.363725501,134.316692,12.76462883,
54544444,-1.363818868,131.1225907,12.76375854,
54648888,-1.361455739,127.9104353,12.78582237,
54753333,-1.35992551,124.7276245,12.80015066,
54857777,-1.360367077,121.5391542,12.79601273,
54962222,-1.360075639,118.3255907,12.7987435,
55066666,-1.356947016,115.1443919,12.82813261,
55171111,-1.354877568,111.9368435,12.84764696,
55275555,-1.355627794,108.7360575,12.84056563,
55380000,-1.355299817,105.5095379,12.84366041,
55484444,-1.357851512,102.3156423,12.81962217,
55588888,-1.35734297,99.09670258,12.82440566,
55693333,-1.361650386,95.8777406,12.78400211,
55797777,-1.364523432,92.64767466,12.75719506,
55902222,-1.363386017,89.37862888,12.76779421,
56006666,-1.360249718,86.1248297,12.79711225,
56111111,-1.366895469,83.0026269,12.73514778,
56215555,-1.368883936,79.7837358,12.71672465,
56320000,-1.369883541,76.53452206,12.70748356,
56424444,-1.377080681,73.30636792,12.64134474,
56528888,-1.379461049,70.08034633,12.61962231,
56633333,-1.384236565,66.8328866,12.57626832,
56737777,-1.386211666,63.60013782,12.55842509,
56842222,-1.392146582,60.32986071,12.50511384,
56946666,-1.394124642,57.06441351,12.4874467,
57051111,-1.402448961,53.7958002,12.41364496,
57155555,-1.41117427,50.54294576,12.33722475,
57260000,-1.416733102,47.2518158,12.28902993,
57364444,-1.421741681,43.8437227,12.24592925,
57468888,-1.438338609,40.7423512,12.10525668,
57573333,-1.447772005,37.46427154,12.02674173,
57677777,-1.460668978,34.19253647,11.92104394,
57782222,-1.47264031,30.89196989,11.82459296,
57886666,-1.485497428,27.54363553,11.72274081,
57991111,-1.499691961,24.28848873,11.61232709,
58095555,-1.519065012,21.06329423,11.4649699,
58200000,-1.540038211,17.8160293,11.30963137,
58304444,-1.561134022,14.50722099,11.15760608,
58408888,-1.589413252,11.33808587,10.96016164,
58513333,-1.617867225,8.074549966,10.76848274,
58617777,-1.64400828,4.811588359,10.59824925,
58722222,-1.669000031,1.51131619,10.44050091,
58826666,-1.696363301,-1.706401898,10.27313024,
58931111,-1.732361991,-4.845413998,10.06101873,
59035555,-1.767885823,-7.975701765,9.860200755,
59140000,-1.805090561,-11.11313299,9.658383151,
59244444,-1.845752177,-14.23284996,9.447151551,
59348888,-1.886131208,-17.31315167,9.246433916,
59453333,-1.923017835,-20.39526693,9.070471946,
59557777,-1.961120879,-23.44073453,8.895685419,
59662222,-1.996451755,-26.44462886,8.739601504,
59766666,-2.031617756,-29.40945689,8.589660077,
59871111,-2.056936993,-32.33365165,8.484892181,
59975555,-2.075945648,-35.2354856,8.407923987,
60080000,-2.08560931,-38.08070093,8.369335197,
60184444,-2.088872802,-40.8868733,8.356384506,
60288888,-2.077448862,-43.68285611,8.401897686,
60393333,-2.054600172,-46.48182,8.494453,
60497777,-2.017008527,-49.30205017,8.651313475,
60602222,-1.968596442,-52.1521082,8.862190728,
60706666,-1.906124543,-55.07193636,9.150210133,
60811111,-1.835891276,-58.08236989,9.497515021,
60915555,-1.757829612,-61.19857181,9.916222606,
61020000,-1.674864843,-64.40140152,10.40416619,
61124444,-1.587280074,-67.75980897,10.9748094,
61228888,-1.505374972,-71.19187351,11.56870632,
61333333,-1.41982706,-74.80422741,12.26236929,
61437777,-1.353431642,-78.45955621,12.86131715,
61542222,-1.283429403,-82.19835662,13.56005588,
61646666,-1.22427397,-86.08638812,14.21293793,
61751111,-0.9870709296,-88.17619597,17.6182582,
61855555,-1.13569316,-94.05149227,15.31797652,
61960000,-1.112563508,-98.13596963,15.63553341,
62064444,-1.104075935,-102.3355353,15.75540463,
62168888,-1.100626266,-106.5487315,15.80465392,
62273333,-1.114777869,-110.8794862,15.60456032,
62377777,-1.142024622,-115.263039,15.23329478,
62482222,-1.189793651,-119.6983619,14.62348852,
62586666,-1.260092844,-124.2443573,13.81028102,
62691111,-1.350708111,-128.8589426,12.88714581,
62795555,-1.472926148,-133.5223822,11.82230921,
62900000,-1.620412344,-138.3073332,10.75166658,
63004444,-1.82125516,-143.0638613,9.573276602,
63108888,-2.06668591,-147.8476078,8.445240015,
63213333,-2.370966334,-152.6229985,7.372315444,
63317777,-2.745120467,-157.3011515,6.380825785,
63422222,-3.192536805,-161.7525587,5.50249323,
63526666,-3.722609991,-165.8537231,4.737771528,
63631111,-4.331938131,-169.3143071,4.092942865,
63735555,-5.004003692,-171.9371384,3.567066925,
63840000,-5.710400171,-173.393536,3.150920997,
63944444,-6.377421618,-173.4777827,2.845235998,
64048888,-6.916606794,-172.2378927,2.64293983,
64153333,-7.244515242,-169.9709879,2.535345376,
64257777,-7.312475414,-167.4581413,2.514319235,
64362222,-7.152959461,-165.3894032,2.564340007,
64466666,-6.824031938,-164.2691531,2.675290141,
64571111,-6.408833142,-164.1188034,2.832471888,
64675555,-5.971050815,-164.8760864,3.023015076,
64780000,-5.54344351,-166.4521313,3.239405969,
64884444,-5.145925675,-168.6462521,3.474000009,
64988888,-4.786606974,-171.2986163,3.720631932,
65093333,-4.463456829,-174.318745,3.977272348,
65197777,-4.181584351,-177.4611813,4.234282302,
65302222,-3.932723021,179.1543815,4.492444784,
65406666,-3.710179063,175.647149,4.753170441,
65511111,-3.516330567,172.0620007,5.007603114,
65615555,-3.345500478,168.4527418,5.25661612,
65720000,-3.197562118,164.8149633,5.494037307,
65824444,-3.064357835,161.1270686,5.727656617,
65928888,-2.944034769,157.4078973,5.957053441,
66033333,-2.836957284,153.6853653,6.177723742,
66137777,-2.741235238,149.9428059,6.389720794,
66242222,-2.654638481,146.1817083,6.594792734,
66346666,-2.577862112,142.4361003,6.788223933,
66451111,-2.50693698,138.6976861,6.977520813,
66555555,-2.44216943,134.9265442,7.16005643,
66660000,-2.380796935,131.1501099,7.342249801,
66764444,-2.327165675,127.3829193,7.509380588,
66868888,-2.278572771,123.6128075,7.667645541,
66973333,-2.233835177,119.8108289,7.819477289,
67077777,-2.192012001,116.0338373,7.967054602,
67182222,-2.156640905,112.245071,8.096356676,
67286666,-2.121737129,108.4237704,8.22819855,
67391111,-2.08782085,104.6158052,8.360554578,
67495555,-2.056955216,100.785503,8.484817711,
67600000,-2.026997028,96.9406161,8.609063795,
67704444,-2.000037582,93.06606636,8.724069695,
67808888,-1.974270526,89.18244072,8.836937722,
67913333,-1.948874435,85.29000045,8.951113959,
68017777,-1.924824941,81.36103752,9.062025416,
68122222,-1.905222521,77.40878755,9.154507706,
68226666,-1.885641341,73.43818485,9.248817255,
68331111,-1.86788026,69.4458825,9.33607754,
68435555,-1.848778273,65.40236225,9.431804235,
68540000,-1.830455143,61.32909543,9.525512364,
68644444,-1.813634155,57.23585281,9.613211458,
68748888,-1.795561701,53.08227423,9.709273061,
68853333,-1.778255947,48.91965477,9.803096006,
68957777,-1.765364864,44.70530054,9.874184542,
69062222,-1.752052387,40.43547677,9.948698626,
69166666,-1.740846661,36.12001109,10.01230697,
69271111,-1.728202861,31.75779816,10.0850722,
69375555,-1.717528988,27.32432105,10.14733723,
69480000,-1.708868496,22.82689373,10.19843084,
69584444,-1.699258158,18.26700461,10.25573979,
69688888,-1.687279148,13.60815267,10.3280907,
69793333,-1.680607412,8.886298607,10.3688353,
69897777,-1.674748279,4.067273316,10.40488587,
70002222,-1.668335128,-0.8471959238,10.44463641,
70106666,-1.663648496,-5.885197652,10.4738799,
70211111,-1.657618913,-11.02822459,10.51174707,
70315555,-1.654122135,-16.3056259,10.5338345,
70420000,-1.653382407,-21.72756107,10.53851901,
70524444,-1.65493145,-27.3223024,10.52871413,
70628888,-1.657551352,-33.09549248,10.51217294,
70733333,-1.662467265,-39.06973748,10.4812766,
70837777,-1.669881332,-45.27018262,10.43502458,
70942222,-1.678958489,-51.77297427,10.37895541,
71046666,-1.693374805,-58.53217719,10.29114579,
71151111,-1.711654813,-65.63431049,10.18193603,
71255555,-1.731702971,-73.09437303,10.06482231,
71360000,-1.75839866,-81.0045728,9.913035353,
71464444,-1.792739617,-89.41500605,9.724448908,
71568888,-1.832142403,-98.38439177,9.516804737,
71673333,-1.880677634,-108.021502,9.273037385,
71777777,-1.939660778,-118.4108781,8.99327915,
71882222,-2.010919236,-129.6406835,8.677277008,
71986666,-2.092249477,-141.8230262,8.34302739,
72091111,-2.182613344,-155.0217597,8.001001224,
72195555,-2.283637319,-169.3268669,7.650834278,
72300000,-2.38757237,175.2379194,7.321673016,
72404444,-2.488054499,158.7802442,7.029749607,
72508888,-2.577223484,141.4447459,6.789881592,
72613333,-2.642628234,123.5313153,6.624304292,
72717777,-2.678468107,105.3986688,6.537028176,
72822222,-2.685210234,87.45950847,6.520872353,
72926666,-2.663460221,70.03847291,6.573286823,
73031111,-2.622268821,53.45472628,6.674953728,
73135555,-2.566053752,37.83395296,6.819008818,
