Frequency,S11_Magnitude,S11_Phase,S11_VSWR,
30000000,-0.899596241,-135.537168,19.32789869,
30104444,-0.9454574766,-139.2084435,18.3920784,
30208888,-0.9579943886,-142.8563775,18.15186598,
30313333,-0.9706212818,-146.4814177,17.91620806,
30417777,-0.9829768882,-150.1392245,17.69147984,
30522222,-0.9947363787,-153.8104887,17.48278463,
30626666,-1.005847203,-157.4999648,17.29008954,
30731111,-1.019316932,-161.1724334,17.06212351,
30835555,-1.032053927,-164.853559,16.85203849,
30940000,-1.042984643,-168.5470557,16.67584238,
31044444,-1.055080811,-172.2531689,16.48512045,
31148888,-1.063017081,-175.9661003,16.36234917,
31253333,-1.075011131,-179.6456188,16.18024962,
31357777,-1.087035722,176.6588126,16.00172533,
31462222,-1.094679549,172.9561589,15.89028212,
31566666,-1.104994565,169.2561978,15.74234169,
31671111,-1.115451852,165.5443355,15.59515749,
31775555,-1.125158739,161.7953146,15.4609868,
31880000,-1.134237199,158.0995215,15.33758352,
31984444,-1.145060522,154.3909883,15.19302303,
32088888,-1.15704679,150.6652397,15.03609031,
32193333,-1.168089594,146.945325,14.89436471,
32297777,-1.17768695,143.2173111,14.77335225,
32402222,-1.188724427,139.472213,14.6366009,
32506666,-1.19756484,135.7128118,14.52889144,
32611111,-1.210979932,131.9888447,14.36845375,
32715555,-1.219214259,128.2547171,14.27172684,
32820000,-1.229806532,124.5005818,14.14920953,
32924444,-1.239955218,120.7374452,14.03378982,
33028888,-1.251654788,116.955679,13.90305862,
33133333,-1.268350488,113.1723018,13.7206843,
33237777,-1.287717711,109.4124466,13.51506289,
33342222,-1.314025813,105.640176,13.24547666,
33446666,-1.34693549,101.9121325,12.92309646,
33551111,-1.387847255,98.30342438,12.54368756,
33655555,-1.416054439,94.82749998,12.29489358,
33760000,-1.416560361,91.41893619,12.29052188,
33864444,-1.393761001,87.92328578,12.4906908,
33968888,-1.370791959,84.28487504,12.69909719,
34073333,-1.351022573,80.57503153,12.88415828,
34177777,-1.336930095,76.83437924,13.01942597,
34282222,-1.329465925,73.07680087,13.09223537,
34386666,-1.320736314,69.33487074,13.17843467,
34491111,-1.317839881,65.58491421,13.20728788,
34595555,-1.315460695,61.83217307,13.23108371,
34700000,-1.31460409,58.1094941,13.23967232,
34804444,-1.308755418,54.34393462,13.29861405,
34908888,-1.30750792,50.61238949,13.31125444,
35013333,-1.3047736,46.8841689,13.33904492,
35117777,-1.30396026,43.14871642,13.34733389,
35222222,-1.30203818,39.41661994,13.36696358,
35326666,-1.300161668,35.69867833,13.386184,
35431111,-1.299377682,31.97091896,13.39423054,
35535555,-1.29749371,28.24409327,13.41360678,
35640000,-1.296990279,24.52896401,13.41879401,
35744444,-1.296235789,20.80914106,13.42657564,
35848888,-1.292553096,17.08921415,13.4646887,
35953333,-1.288995767,13.35884495,13.50171151,
36057777,-1.287161649,9.652410307,13.52088015,
36162222,-1.286174269,5.916769406,13.53122208,
36266666,-1.282406131,2.201093065,13.57083662,
36371111,-1.281390819,-1.520293897,13.58155054,
36475555,-1.276055102,-5.238722607,13.63813561,
36580000,-1.275193695,-8.969849984,13.64731527,
36684444,-1.271495381,-12.69457263,13.68686828,
36788888,-1.268592196,-16.40898462,13.71807933,
36893333,-1.267657596,-20.13636584,13.72815734,
36997777,-1.264311785,-23.87095695,13.76435837,
37102222,-1.26337659,-27.60283269,13.77451135,
37206666,-1.259727271,-31.33902766,13.81427474,
37311111,-1.259457724,-35.05060302,13.81722091,
37415555,-1.257061314,-38.80985099,13.8434695,
37520000,-1.260214351,-42.51363148,13.80895412,
37624444,-1.253978544,-46.34932005,13.8773838,
37728888,-1.2536879,-50.05270589,13.88058986,
37833333,-1.253118462,-53.63594006,13.8868756,
37937777,-1.251819909,-57.36753294,13.90123107,
38042222,-1.252609876,-61.09069495,13.89249445,
38146666,-1.251923185,-64.78137699,13.90008827,
38251111,-1.25333726,-68.51272004,13.88445972,
38355555,-1.255323658,-72.23643759,13.86256536,
38460000,-1.256826411,-75.95529926,13.84604786,
38564444,-1.259310498,-79.68075235,13.81883064,
38668888,-1.260569513,-83.40164558,13.8050771,
38773333,-1.26378621,-87.12262888,13.77006245,
38877777,-1.266489529,-90.84328716,13.74077384,
38982222,-1.269628026,-94.55834081,13.70692711,
39086666,-1.273045543,-98.2803741,13.67026146,
39191111,-1.276427181,-101.9675921,13.63417435,
39295555,-1.281020257,-105.6476188,13.58546507,
39400000,-1.286964645,-109.304082,13.52294232,
39504444,-1.292277901,-112.9648823,13.4675455,
39608888,-1.298353815,-116.616613,13.4047538,
39713333,-1.305548809,-120.2723478,13.33115417,
39817777,-1.311673817,-123.9434975,13.26913719,
39922222,-1.319271508,-127.5989187,13.19301067,
40026666,-1.327738599,-131.2494324,13.10920148,
40131111,-1.336116758,-134.9229941,13.02732012,
40235555,-1.345816823,-138.601297,12.93379545,
40340000,-1.353369869,-142.380937,12.86190182,
40444444,-1.366076796,-145.9916695,12.7427484,
40548888,-1.375519668,-149.6364698,12.65563092,
40653333,-1.386197654,-153.3071185,12.5585515,
40757777,-1.396457066,-157.0023287,12.46667897,
40862222,-1.407087661,-160.6668763,12.37289887,
40966666,-1.418699307,-164.3661377,12.27207365,
41071111,-1.432483476,-168.0297803,12.15451075,
41175555,-1.444992763,-171.7123521,12.04976683,
41280000,-1.458107886,-175.4037063,11.94188437,
41384444,-1.471136995,-179.0852174,11.83661852,
41488888,-1.484640915,177.2363568,11.729471,
41593333,-1.499812711,173.5502236,11.61139682,
41697777,-1.51453569,169.8604264,11.49908277,
41802222,-1.527953025,166.1821689,11.39861859,
41906666,-1.543224782,162.4976179,11.2864004,
42011111,-1.560841925,158.7990917,11.15968292,
42115555,-1.576657204,155.1359716,11.04834458,
42220000,-1.594861126,151.4445621,10.92293139,
42324444,-1.612182957,147.787664,10.8062322,
42428888,-1.632294532,144.1012305,10.67385429,
42533333,-1.650309766,140.4273016,10.55802234,
42637777,-1.670599475,136.7662325,10.43056638,
42742222,-1.693741494,133.1056513,10.28893185,
42846666,-1.715402288,129.4355348,10.159836,
42951111,-1.739141937,125.7614182,10.02205576,
43055555,-1.762784471,122.0994748,9.888539573,
43160000,-1.789411972,118.4303063,9.742405151,
43264444,-1.816820524,114.7715908,9.596473652,
43368888,-1.845315565,111.1172919,9.449370066,
43473333,-1.876850316,107.4723145,9.291800386,
43577777,-1.908817211,103.804191,9.13740551,
43682222,-1.942540921,100.1681814,8.980055372,
43786666,-1.976969523,96.41135365,8.824976691,
43891111,-2.011752688,92.72572871,8.67371401,
43995555,-2.054678962,89.19145251,8.494130285,
44100000,-2.096793163,85.57623999,8.325122154,
44204444,-2.14337017,81.93875219,8.145975672,
44308888,-2.192838299,78.31717455,7.964084122,
44413333,-2.242773022,74.6965065,7.788656859,
44517777,-2.297256679,71.08199081,7.605995972,
44622222,-2.357069365,67.48097304,7.415248069,
44726666,-2.418717751,63.87719536,7.22857772,
44831111,-2.483901708,60.29232156,7.041343449,
44935555,-2.554703962,56.71858169,6.848868375,
45040000,-2.629176128,53.18402847,6.657681378,
45144444,-2.709687936,49.65573964,6.462898816,
45248888,-2.795256371,46.12521017,6.26827921,
45353333,-2.886152273,42.62421471,6.074288411,
45457777,-2.983677724,39.17481344,5.879409817,
45562222,-3.086035804,35.78575795,5.688248041,
45666666,-3.194522491,32.43762377,5.499148769,
45771111,-3.306176867,29.11775108,5.317627528,
45875555,-3.425454521,25.86565406,5.136937927,
45980000,-3.551146712,22.6686811,4.959829859,
46084444,-3.679929408,19.55197048,4.791083665,
46188888,-3.810519174,16.55864556,4.63178447,
46293333,-3.944011617,13.65617423,4.480016108,
46397777,-4.080031809,10.86191096,4.335757949,
46502222,-4.21211658,8.195311929,4.204747862,
46606666,-4.341771943,5.623878342,4.084046488,
46711111,-4.466377271,3.180097985,3.974782779,
46815555,-4.576894703,0.7208261254,3.882956998,
46920000,-4.677534162,-1.433630913,3.803198109,
47024444,-4.760871495,-3.512132089,3.739763827,
47128888,-4.824746909,-5.499527691,3.692663271,
47233333,-4.865458545,-7.392690719,3.663304849,
47337777,-4.884272474,-9.256102937,3.649907153,
47442222,-4.876073281,-11.06195714,3.655732886,
47546666,-4.845234158,-12.91388384,3.677826023,
47651111,-4.79229395,-14.786195,3.716432619,
47755555,-4.717082905,-16.72911933,3.77280831,
47860000,-4.624335887,-18.74224295,3.844916152,
47964444,-4.515372177,-20.86284981,3.933507183,
48068888,-4.391975023,-23.09093232,4.039262836,
48173333,-4.261259533,-25.42556772,4.15811694,
48277777,-4.12583787,-27.8700299,4.289356518,
48382222,-3.985265806,-30.41187124,4.43520456,
48486666,-3.843150371,-33.03247942,4.593696124,
48591111,-3.701274553,-35.75362375,4.764265526,
48695555,-3.563081896,-38.60901169,4.943670738,
48800000,-3.42989647,-41.5148272,5.130454719,
48904444,-3.300009707,-44.52577565,5.327329516,
49008888,-3.173327841,-47.56619522,5.535065118,
49113333,-3.055215502,-50.6752516,5.744445954,
49217777,-2.940539652,-53.83268267,5.96400028,
49322222,-2.834221398,-57.04495838,6.183582452,
49426666,-2.732777549,-60.28061499,6.409172372,
49531111,-2.639536188,-63.52872918,6.63194587,
49635555,-2.549356468,-66.82542819,6.863029621,
49740000,-2.466276176,-70.12797305,7.090988247,
49844444,-2.388671624,-73.44549777,7.318345692,
49948888,-2.314571474,-76.77773523,7.549757648,
50053333,-2.246178677,-80.10190002,7.776978008,
50157777,-2.18334254,-83.46164002,7.998356956,
50262222,-2.121837046,-86.77542886,8.22781491,
50366666,-2.066558173,-90.1047268,8.445757136,
50471111,-2.016836833,-93.42577482,8.652043387,
50575555,-1.968021309,-96.76550451,8.864758572,
50680000,-1.923636983,-100.0820917,9.067576215,
50784444,-1.88184473,-103.402795,9.267331074,
50888888,-1.844715205,-106.7276413,9.452422344,
50993333,-1.80736916,-110.0432926,9.646293826,
51097777,-1.776303168,-113.3596487,9.813798163,
51202222,-1.745553436,-116.6717466,9.985489555,
51306666,-1.71825046,-119.9893537,10.14310413,
51411111,-1.692449839,-123.2907294,10.29673469,
51515555,-1.666827986,-126.6100415,10.45402263,
51620000,-1.644088007,-129.9469507,10.59773837,
51724444,-1.621716429,-133.2728201,10.74307072,
51828888,-1.600517156,-136.5925934,10.88454753,
51933333,-1.582425504,-139.8878653,11.00829157,
52037777,-1.568212187,-143.1540564,11.10751668,
52142222,-1.555493654,-146.3787347,11.19784801,
52246666,-1.543874993,-149.61788,11.28167199,
52351111,-1.531649789,-152.896889,11.37124863,
52455555,-1.519795205,-156.1990974,11.45948949,
52560000,-1.509303263,-159.4639733,11.53874664,
52664444,-1.498887455,-162.7276841,11.61852899,
52768888,-1.490727105,-166.0365584,11.68181596,
52873333,-1.482318795,-169.3070516,11.74775665,
52977777,-1.475750966,-172.5848276,11.79978767,
53082222,-1.470260664,-175.8655681,11.84363999,
53186666,-1.465042169,-179.1063816,11.88562672,
53291111,-1.464082427,177.648499,11.89338123,
53395555,-1.459926241,174.4002048,11.92708029,
53500000,-1.458650405,171.1451009,11.93746359,
53604444,-1.457997598,167.8858698,11.94278346,
53708888,-1.459035415,164.6165778,11.93432829,
53813333,-1.459651934,161.350046,11.92931118,
53917777,-1.461193928,158.0828878,11.9167813,
54022222,-1.46149995,154.7887458,11.91429779,
54126666,-1.461011793,151.4360253,11.91825991,
54231111,-1.470202444,148.2338667,11.84410676,
54335555,-1.475983341,144.995056,11.79793885,
54440000,-1.480028699,141.6948394,11.76584647,
54544444,-1.486617412,138.3830792,11.71395208,
54648888,-1.49449319,135.0795552,11.65252228,
54753333,-1.50208103,131.7638115,11.59394914,
54857777,-1.513791614,128.4665367,11.50470639,
54962222,-1.526243969,125.1581982,11.41131697,
55066666,-1.537323545,121.7994822,11.3294982,
55171111,-1.556146986,118.4583353,11.19317175,
55275555,-1.575162239,115.2027391,11.05877307,
55380000,-1.595652217,111.9491368,10.91754635,
55484444,-1.624558565,108.643358,10.72438476,
55588888,-1.652915853,105.334242,10.54147574,
55693333,-1.683005221,102.0280854,10.35415447,
55797777,-1.719702455,98.69662219,10.13459564,
55902222,-1.755455423,95.35939396,9.929542882,
56006666,-1.79593321,91.98995162,9.707278822,
56111111,-1.840125761,88.63073633,9.475821478,
56215555,-1.890968762,85.30986476,9.222964425,
56320000,-1.94996259,82.05208053,8.946160565,
56424444,-2.019268984,78.78579477,8.641715365,
56528888,-2.087401697,75.42045594,8.362217334,
56633333,-2.162273444,72.1011509,8.075481785,
56737777,-2.251286591,68.89907184,7.759528291,
56842222,-2.348707747,65.82490616,7.441326364,
56946666,-2.45566263,62.74791126,7.121228895,
57051111,-2.568354506,59.73668212,6.812988291,
57155555,-2.683735468,56.8028448,6.524399271,
57260000,-2.802571478,53.99492983,6.25219751,
57364444,-2.923602508,51.30053044,5.997901787,
57468888,-3.042310379,48.75603891,5.768318945,
57573333,-3.15364255,46.31962444,5.568860966,
57677777,-3.251019437,44.10642171,5.405722821,
57782222,-3.332494936,42.01844014,5.276633192,
57886666,-3.389020348,40.0433296,5.190764792,
57991111,-3.417249172,38.12106126,5.148958868,
58095555,-3.415505164,36.2285909,5.151521401,
58200000,-3.384449172,34.33138192,5.197600993,
58304444,-3.323635229,32.36514198,5.290360144,
58408888,-3.236685815,30.29244357,5.429113255,
58513333,-3.133257998,28.09634283,5.604309801,
58617777,-3.015005021,25.75587775,5.819511279,
58722222,-2.888301929,23.26180649,6.069849707,
58826666,-2.766650614,20.62194235,6.331990315,
58931111,-2.638628344,17.89454879,6.634192912,
59035555,-2.511694934,15.0343175,6.964485069,
59140000,-2.393595191,12.05051959,7.303480311,
59244444,-2.280566795,8.959519929,7.661017613,
59348888,-2.176296998,5.787126162,8.023980578,
59453333,-2.081281565,2.656647669,8.386572168,
59557777,-1.991312549,-0.5697598572,8.76195965,
59662222,-1.905646409,-3.889691675,9.152487634,
59766666,-1.830829592,-7.117525605,9.523578515,
59871111,-1.760474592,-10.38945374,9.901425521,
59975555,-1.695223297,-13.72563759,10.27999501,
60080000,-1.638624665,-17.06359235,10.63286254,
60184444,-1.587567024,-20.38918011,10.97283672,
60288888,-1.541202833,-23.74011086,11.30112979,
60393333,-1.495456702,-27.09762434,11.64505158,
60497777,-1.455462952,-30.47002869,11.96348421,
60602222,-1.418525783,-33.80820123,12.27356819,
60706666,-1.384213659,-37.19048741,12.57647555,
60811111,-1.355396564,-40.54723581,12.84274735,
60915555,-1.328918744,-43.90718347,13.0976051,
61020000,-1.305313257,-47.25135442,13.33355083,
61124444,-1.285282629,-50.59611708,13.5405749,
61228888,-1.264109794,-53.96968384,13.76655002,
61333333,-1.246815084,-57.33617004,13.95683951,
61437777,-1.235472139,-60.70688633,14.0845411,
61542222,-1.217592426,-64.01464577,14.29067454,
61646666,-1.206025779,-67.37827666,14.42728657,
61751111,-0.8357019957,-71.00003193,20.80308328,
61855555,-1.184731968,-74.0783851,14.68577178,
61960000,-1.17368892,-77.40031624,14.8235223,
62064444,-1.164508201,-80.733608,14.94003408,
62168888,-1.156381155,-84.08290296,15.04471985,
62273333,-1.148304765,-87.4225231,15.15022325,
62377777,-1.141885182,-90.76153231,15.23514963,
62482222,-1.135431334,-94.07911411,15.32149874,
62586666,-1.131076865,-97.40066159,15.38031678,
62691111,-1.125629174,-100.7374344,15.45454323,
62795555,-1.1234446,-104.0469163,15.4845112,
62900000,-1.117878336,-107.4313986,15.56139938,
63004444,-1.120958363,-110.6797927,15.51875972,
63108888,-1.120224263,-114.0148415,15.52890123,
63213333,-1.119473593,-117.383295,15.53928542,
63317777,-1.121502587,-120.6869433,15.5112499,
63422222,-1.125485196,-124.0067358,15.45651473,
63526666,-1.131032949,-127.3227165,15.38091229,
63631111,-1.138981722,-130.6417455,15.27387515,
63735555,-1.147938789,-133.9814003,15.15503928,
63840000,-1.159344666,-137.2882336,15.00637612,
63944444,-1.174208935,-140.5964558,14.81697743,
64048888,-1.189594731,-143.9018418,14.62592617,
64153333,-1.206146995,-147.2154157,14.4258413,
64257777,-1.224822698,-150.5219907,14.20659148,
64362222,-1.245638225,-153.8349816,13.96998056,
64466666,-1.269577152,-157.1371409,13.70747442,
64571111,-1.293841193,-160.4279071,13.45133316,
64675555,-1.321028093,-163.6955504,13.1755351,
64780000,-1.349848788,-166.9682036,12.8953169,
64884444,-1.379958508,-170.2045828,12.61509215,
64988888,-1.408513231,-173.4296654,12.36043077,
65093333,-1.437505504,-176.6357032,12.11224032,
65197777,-1.4675434,-179.8172618,11.86546508,
65302222,-1.494629957,177.0312002,11.65146125,
65406666,-1.517904468,173.8908732,11.47369116,
65511111,-1.541248537,170.7795052,11.30079642,
65615555,-1.558758649,167.660392,11.17451789,
65720000,-1.572510864,164.5604359,11.0773173,
65824444,-1.584534403,161.474628,10.99372114,
65928888,-1.590540439,158.3742928,10.95243757,
66033333,-1.593228712,155.26219,10.93406036,
66137777,-1.591803245,152.1458667,10.9437972,
66242222,-1.58760468,149.0151516,10.9725779,
66346666,-1.581037071,145.8794362,11.01790557,
66451111,-1.572887148,142.6865096,11.07468168,
66555555,-1.562639621,139.4864983,11.14691345,
66660000,-1.550061151,136.2775002,11.23688451,
66764444,-1.538936957,133.0544106,11.31768224,
66868888,-1.525414026,129.8094726,11.41749378,
66973333,-1.512258455,126.5238936,11.5163113,
67077777,-1.501191098,123.2354392,11.6007881,
67182222,-1.488052604,119.9272614,11.70270925,
67286666,-1.474968783,116.6033107,11.80601516,
67391111,-1.462544604,113.2697296,11.90582778,
67495555,-1.449011218,109.9090222,12.0165038,
67600000,-1.436083478,106.5277884,12.12417945,
67704444,-1.423673232,103.1224882,12.22938875,
67808888,-1.412984177,99.72179957,12.32149121,
67913333,-1.400653993,96.30068874,12.42948443,
68017777,-1.388800218,92.85962063,12.5351169,
68122222,-1.376209521,89.39676894,12.64931348,
68226666,-1.362700814,85.91228111,12.77418792,
68331111,-1.352132494,82.42050609,12.87362464,
68435555,-1.342073295,78.90840194,12.96972874,
68540000,-1.333381443,75.40967571,13.05393952,
68644444,-1.325076289,71.86212659,13.13543796,
68748888,-1.314337764,68.31354539,13.24234487,
68853333,-1.305853688,64.72517423,13.32805343,
68957777,-1.293382193,61.12999611,13.45608921,
69062222,-1.282961951,57.5308166,13.56497861,
69166666,-1.274389958,53.87895264,13.65589157,
69271111,-1.267493813,50.2216226,13.72992499,
69375555,-1.258685098,46.54761184,13.82567278,
69480000,-1.24876408,42.83882338,13.9351312,
69584444,-1.240455246,39.08201725,14.02815197,
69688888,-1.230745394,35.32344487,14.13845194,
69793333,-1.224404815,31.52630184,14.2114241,
69897777,-1.216773936,27.71101065,14.30025608,
70002222,-1.211788892,23.84195663,14.35889274,
70106666,-1.2035846,19.94907404,14.4564551,
70211111,-1.197555412,16.02489696,14.52900546,
70315555,-1.188073831,12.05430379,14.64459103,
70420000,-1.185870467,8.042599698,14.6717163,
70524444,-1.181520681,3.987457369,14.72556331,
70628888,-1.179175333,-0.1139107266,14.75476201,
70733333,-1.175567047,-4.299462741,14.79991168,
70837777,-1.174691607,-8.52727128,14.81090775,
70942222,-1.177712538,-12.81846617,14.77303225,
71046666,-1.182035474,-17.18808194,14.71916987,
71151111,-1.192683598,-21.65503265,14.58816558,
71255555,-1.205908944,-26.22510775,14.42867989,
71360000,-1.231115404,-30.91571056,14.13421683,
71464444,-1.266103223,-35.69786458,13.74495152,
71568888,-1.320632652,-40.63028253,13.17946513,
71673333,-1.397412822,-45.72813872,12.45818906,
71777777,-1.513234609,-50.98297141,11.50891979,
71882222,-1.685940646,-56.39507662,10.33623905,
71986666,-1.937517872,-61.81610819,9.003143625,
72091111,-2.292059065,-67.02807169,7.623044565,
72195555,-2.753942888,-71.58119426,6.360721334,
72300000,-3.267593031,-74.84356342,5.378935855,
72404444,-3.679175394,-76.47252538,4.792036787,
72508888,-3.833936372,-77.23163709,4.604384296,
72613333,-3.722809715,-78.35323584,4.737524972,
72717777,-3.46987305,-80.62733039,5.072863839,
72822222,-3.190545888,-84.02528393,5.505850728,
72926666,-2.945584327,-88.2494725,5.953978891,
73031111,-2.752283801,-93.03498434,6.364492124,
73135555,-2.619817898,-98.19562856,6.681104542,
