Frequency,S11_Magnitude,S11_Magnitude (linear),S11_Phase,S11_Unwrapped Phase,S11_VSWR,
30000000,-0.9240673667,0.8990764698,-132.5329102,-132.5329102,18.81698417,
30104444,-0.9314174568,0.8983159838,-136.1032582,-136.1032582,18.66877464,
30208888,-0.9375249884,0.8976845499,-139.8756883,-139.8756883,18.54738994,
30313333,-0.9487502491,0.8965251713,-143.6406027,-143.6406027,18.32837218,
30417777,-0.960901274,0.8952718646,-147.4235467,-147.4235467,18.09706492,
30522222,-0.9761429282,0.8937022547,-151.2241367,-151.2241367,17.81507452,
30626666,-0.9949675083,0.891767467,-155.0872946,-155.0872946,17.47873226,
30731111,-1.018862963,0.8893175274,-158.9884083,-158.9884083,17.06970836,
30835555,-1.054842006,0.8856413794,-162.9292276,-162.9292276,16.48884334,
30940000,-1.105320266,0.8805093797,-166.9379743,-166.9379743,15.73771544,
31044444,-1.183981861,0.872571265,-170.997185,-170.997185,14.69504711,
31148888,-1.299626499,0.8610307765,-174.9691856,-174.9691856,13.39167572,
31253333,-1.458896727,0.8453862184,-178.6295057,-178.6295057,11.9354575,
31357777,-1.621431873,0.8297139775,178.2844911,-181.7155089,10.74494518,
31462222,-1.712399074,0.8210697391,175.7194538,-184.2805462,10.17753917,
31566666,-1.697642651,0.8224658368,173.1663513,-186.8336487,10.26543739,
31671111,-1.629502986,0.8289433478,170.2197614,-189.7802386,10.69203287,
31775555,-1.554217331,0.8361595098,166.8866118,-193.1133882,11.20699473,
31880000,-1.490906839,0.8422764501,163.3342102,-196.6657898,11.68041457,
31984444,-1.442624039,0.8469715023,159.6686545,-200.3313455,12.06946111,
32088888,-1.407815889,0.8503724968,155.9293102,-204.0706898,12.36652659,
32193333,-1.382899727,0.8528153597,152.1712839,-207.8287161,12.58837441,
32297777,-1.367574694,0.8543213608,148.3756927,-211.6243073,12.72884873,
32402222,-1.355098499,0.8555493685,144.588347,-215.411653,12.84556079,
32506666,-1.347497418,0.8562983932,140.7852795,-219.2147205,12.91772886,
32611111,-1.342633981,0.8567779894,136.9914207,-223.0085793,12.96433406,
32715555,-1.33933438,0.8571035246,133.1972389,-226.8027611,12.99614647,
32820000,-1.335666124,0.857465576,129.424091,-230.575909,13.03169805,
32924444,-1.336454002,0.8573878007,125.6262063,-234.3737937,13.0240457,
33028888,-1.334959422,0.8575353441,121.848109,-238.151891,13.03856969,
33133333,-1.33550214,0.8574817646,118.0501412,-241.9498588,13.03329191,
33237777,-1.337344723,0.8572998818,114.2742457,-245.7257543,13.01540535,
33342222,-1.338993614,0.8571371512,110.4866247,-249.5133753,12.99944084,
33446666,-1.338811036,0.8571551685,106.703212,-253.296788,13.00120661,
33551111,-1.340783861,0.856960505,102.9113812,-257.0886188,12.98215228,
33655555,-1.34219754,0.8568210412,99.12644264,-260.8735574,12.96853292,
33760000,-1.342925465,0.8567492378,95.323172,-264.676828,12.9615313,
33864444,-1.339945349,0.8570432376,91.48076099,-268.519239,12.99024409,
33968888,-1.343041449,0.8567377976,87.6573289,-272.3426711,12.9604164,
34073333,-1.345536399,0.8564917421,83.92225263,-276.0777474,12.93648023,
34177777,-1.346762306,0.8563708673,80.15156797,-279.848432,12.92475163,
34282222,-1.346127592,0.8564334482,76.37881663,-283.6211834,12.93082145,
34386666,-1.347956567,0.8562531292,72.60317059,-287.3968294,12.91334635,
34491111,-1.348669123,0.8561828885,68.82775686,-291.1722431,12.90655103,
34595555,-1.349786667,0.8560727374,65.0570757,-294.9429243,12.895908,
34700000,-1.343762167,0.8566667121,61.27334569,-298.7266543,12.9534928,
34804444,-1.348785602,0.856171407,57.49455458,-302.5054454,12.90544091,
34908888,-1.346784896,0.85636864,53.70188657,-306.2981134,12.9245357,
35013333,-1.346203787,0.8564259354,49.93565069,-310.0643493,12.93009249,
35117777,-1.348738446,0.8561760552,46.1771974,-313.8228026,12.90589031,
35222222,-1.347813778,0.8562672054,42.37265163,-317.6273484,12.91470893,
35326666,-1.348068216,0.8562421229,38.57578984,-321.4242102,12.91228113,
35431111,-1.344844729,0.8565599485,34.71166906,-325.2883309,12.9431071,
35535555,-1.33861264,0.8571747472,30.81190824,-329.1880918,13.00312592,
35640000,-1.3369592,0.8573379339,27.00061767,-332.9993823,13.01914366,
35744444,-1.335928436,0.8574396812,23.24907961,-336.7509204,13.02914932,
35848888,-1.335677228,0.8574644798,19.50229281,-340.4977072,13.03159014,
35953333,-1.335198315,0.857511759,15.74051891,-344.2594811,13.03624599,
36057777,-1.331918267,0.857835642,11.95963122,-348.0403688,13.06822377,
36162222,-1.328456084,0.8581776421,8.191495906,-351.8085041,13.10214884,
36266666,-1.327801398,0.8582423285,4.39847675,-355.6015233,13.10858388,
36371111,-1.32545,0.8584746987,0.6106337241,-359.3893663,13.13174875,
36475555,-1.32200702,0.858815055,-3.19188513,-363.1918851,13.16581633,
36580000,-1.318522738,0.8591596316,-6.996521849,-366.9965218,13.20047407,
36684444,-1.317371699,0.8592734935,-10.79588452,-370.7958845,13.21196368,
36788888,-1.316949774,0.8593152344,-14.60206365,-374.6020636,13.21618035,
36893333,-1.313710901,0.8596357235,-18.43286109,-378.4328611,13.24863968,
36997777,-1.3115367,0.8598509293,-22.25365183,-382.2536518,13.27051917,
37102222,-1.309317907,0.8600706046,-26.08245926,-386.0824593,13.29292247,
37206666,-1.309235617,0.8600787529,-29.92465081,-389.9246508,13.29375482,
37311111,-1.306030971,0.8603961363,-33.73775756,-393.7377576,13.32625105,
37415555,-1.305017172,0.8604965658,-37.5640902,-397.5640902,13.33656462,
37520000,-1.300633844,0.8609309243,-41.55283735,-401.5528373,13.38134244,
37624444,-1.30343874,0.8606529526,-45.42479969,-405.4247997,13.35265431,
37728888,-1.302652366,0.860730875,-49.15543604,-409.155436,13.36068476,
37833333,-1.303898403,0.8606074075,-52.95006867,-412.9500687,13.34796472,
37937777,-1.303370248,0.8606597392,-56.7795715,-416.7795715,13.35335336,
38042222,-1.30457967,0.8605399095,-60.62504707,-420.6250471,13.34102038,
38146666,-1.30583555,0.8604154943,-64.47435146,-424.4743515,13.32823786,
38251111,-1.308739713,0.8601278589,-68.33989999,-428.3399,13.29877303,
38355555,-1.311489909,0.8598555614,-72.17752587,-432.1775259,13.27099084,
38460000,-1.314922076,0.8595158628,-76.00256203,-436.002562,13.23648278,
38564444,-1.315508824,0.8594578029,-79.82244631,-439.8224463,13.23060149,
38668888,-1.317366311,0.8592740265,-83.63144238,-443.6314424,13.21201751,
38773333,-1.322046833,0.8588111185,-87.43371398,-447.433714,13.16542138,
38877777,-1.32589937,0.8584302861,-91.26596032,-451.2659603,13.1273154,
38982222,-1.333552571,0.85767425,-95.10315866,-455.1031587,13.05227094,
39086666,-1.33814997,0.8572204074,-98.93258383,-458.9325838,13.00760405,
39191111,-1.345802939,0.8564654597,-102.769338,-462.769338,12.93392835,
39295555,-1.352633028,0.8557922488,-106.5885267,-466.5885267,12.86888002,
39400000,-1.361290522,0.8549396792,-110.4224261,-470.4224261,12.78736783,
39504444,-1.36957326,0.8541248098,-114.2805881,-474.2805881,12.71035059,
39608888,-1.380895941,0.8530121221,-118.1317443,-478.1317443,12.60656422,
39713333,-1.39253938,0.8518694251,-121.988018,-481.988018,12.50160155,
39817777,-1.401771662,0.8509644492,-125.8562682,-485.8562682,12.41961692,
39922222,-1.413841444,0.849782783,-129.7346438,-489.7346438,12.31405307,
40026666,-1.426574976,0.8485379124,-133.6093453,-493.6093453,12.20462454,
40131111,-1.441408285,0.8470900602,-137.4975256,-497.4975256,12.07959445,
40235555,-1.453508385,0.8459108214,-141.4143744,-501.4143744,11.9794968,
40340000,-1.468144022,0.8444866704,-145.3525705,-505.3525705,11.86063391,
40444444,-1.483682675,0.8429772734,-149.2237582,-509.2237582,11.73700975,
40548888,-1.501929294,0.8412082732,-153.1178383,-513.1178383,11.59511463,
40653333,-1.519840984,0.839475355,-157.0606049,-517.0606049,11.45914607,
40757777,-1.537860064,0.837735649,-161.0286672,-521.0286672,11.3255662,
40862222,-1.557227257,0.8358698052,-164.9458841,-524.9458841,11.18544828,
40966666,-1.577237705,0.8339463549,-168.8368536,-528.8368536,11.0443005,
41071111,-1.601448228,0.8316250999,-172.7143883,-532.7143883,10.878255,
41175555,-1.624491944,0.8294217177,-176.6205838,-536.6205838,10.72482202,
41280000,-1.649279188,0.8270581404,179.462544,-540.537456,10.56458017,
41384444,-1.674414705,0.8246682316,175.5415416,-544.4584584,10.40694592,
41488888,-1.7005319,0.8221922996,171.599602,-548.400398,10.24810678,
41593333,-1.728892451,0.8195121136,167.6497786,-552.3502214,10.08107608,
41697777,-1.757890945,0.816780673,163.7087314,-556.2912686,9.915878978,
41802222,-1.788950887,0.8138651564,159.7789624,-560.2210376,9.744898489,
41906666,-1.821179485,0.8108509423,155.8128507,-564.1871493,9.573671499,
42011111,-1.855563174,0.8076474781,151.8493336,-568.1506664,9.397576178,
42115555,-1.890218018,0.8044315569,147.8649903,-572.1350097,9.22659877,
42220000,-1.926823271,0.801048546,143.8686039,-576.1313961,9.052703609,
42324444,-1.967052273,0.79734704,139.8470844,-580.1529156,8.869088515,
42428888,-2.007568627,0.7936363821,135.8268492,-584.1731508,8.691630823,
42533333,-2.056488213,0.7891791256,131.8936141,-588.1063859,8.486726616,
42637777,-2.1034113,0.7849273014,127.9673916,-592.0326084,8.29918122,
42742222,-2.150602075,0.7806743247,123.9675133,-596.0324867,8.118859418,
42846666,-2.200963533,0.7761610117,119.9395474,-600.0604526,7.934993921,
42951111,-2.256187708,0.7712418978,115.9151177,-604.0848823,7.742859731,
43055555,-2.313564439,0.766164064,111.8933546,-608.1066454,7.5530053,
43160000,-2.3735874,0.7608878162,107.8573189,-612.1426811,7.364274745,
43264444,-2.440949453,0.7550096932,103.8328838,-616.1671162,7.16358829,
43368888,-2.509871689,0.7490424235,99.81089539,-620.1891046,6.969474476,
43473333,-2.585154918,0.7425783004,95.84274065,-624.1572593,6.769352789,
43577777,-2.662530227,0.7359926693,91.74142132,-628.2585787,6.57554722,
43682222,-2.746940615,0.7288748571,87.59673626,-632.4032637,6.376667389,
43786666,-2.832234244,0.7217524849,83.40803306,-636.5919669,6.187844964,
43891111,-2.929050927,0.7137521897,79.44025893,-640.5597411,5.986953011,
43995555,-3.034047294,0.7051761822,75.51477061,-644.4852294,5.783712439,
44100000,-3.141685978,0.6964913083,71.54291779,-648.4570822,5.589597118,
44204444,-3.258538697,0.6871840412,67.56129836,-652.4387016,5.3935357,
44308888,-3.381020113,0.6775619268,63.57959538,-656.4204046,5.202741445,
44413333,-3.513121289,0.6673350499,59.58855742,-660.4114426,5.01205507,
44517777,-3.653994392,0.6565990959,55.61593642,-664.3840636,4.824096489,
44622222,-3.803695734,0.64537957,51.63592966,-668.3640703,4.639832989,
44726666,-3.963271734,0.6336309951,47.67971335,-672.3202867,4.458977078,
44831111,-4.133630602,0.621324487,43.7640157,-676.2359843,4.281566754,
44935555,-4.315000571,0.6084851327,39.8578428,-680.1421572,4.108362842,
45040000,-4.506189673,0.5952378185,35.9986846,-684.0013154,3.941173092,
45144444,-4.711222822,0.5813515824,32.1729994,-687.8270006,3.777278298,
45248888,-4.928410934,0.5669952927,28.36666263,-691.6333374,3.618887431,
45353333,-5.159348554,0.5521188469,24.71916761,-695.2808324,3.465470329,
45457777,-5.401315938,0.5369504406,21.09921458,-698.9007854,3.319192102,
45562222,-5.659304495,0.5212364464,17.5792319,-702.4207681,3.177427427,
45666666,-5.928824798,0.5053110089,14.10003409,-705.8999659,3.042944226,
45771111,-6.211326736,0.4891405451,10.83555088,-709.1644491,2.914971096,
45875555,-6.509023312,0.4726599823,7.851845157,-712.1481548,2.792619435,
45980000,-6.816657529,0.4562124401,5.063561736,-714.9364383,2.677906866,
46084444,-7.131948337,0.4399492515,2.431791752,-717.5682082,2.57110495,
46188888,-7.454142494,0.4239287546,-0.01309105152,-720.0130911,2.471792797,
46293333,-7.779159293,0.4083589095,-2.259738292,-722.2597383,2.380427817,
46397777,-8.101865255,0.3934655715,-4.29430616,-724.2943062,2.297422052,
46502222,-8.419188691,0.3793504167,-6.095789576,-726.0957896,2.222430263,
46606666,-8.722575436,0.3663289391,-7.651785835,-727.6517858,2.156211674,
46711111,-9.003224867,0.3546816798,-8.923884929,-728.9238849,2.099245655,
46815555,-9.257418227,0.3444522997,-9.782108191,-729.7821082,2.050884015,
46920000,-9.470398493,0.3361089486,-10.26440008,-730.2644001,2.012542488,
47024444,-9.639902306,0.3296134195,-10.61112015,-730.6111201,1.983353274,
47128888,-9.757355161,0.325186301,-10.8713273,-730.8713273,1.963780971,
47233333,-9.818455406,0.3229068289,-11.04033093,-731.0403309,1.953803236,
47337777,-9.824342612,0.3226880402,-11.22430592,-731.2243059,1.952849084,
47442222,-9.776424313,0.3244731645,-11.43968358,-731.4396836,1.960652183,
47546666,-9.673597991,0.3283372077,-11.76938472,-731.7693847,1.97768467,
47651111,-9.526865241,0.333931,-12.30632744,-732.3063274,2.002691913,
47755555,-9.343242516,0.3410655652,-13.06288213,-733.0628821,2.035203344,
47860000,-9.131086265,0.3494987982,-14.10009823,-734.1000982,2.074552352,
47964444,-8.890453769,0.3593166248,-15.48300235,-735.4830024,2.121666766,
48068888,-8.638757784,0.3698810747,-17.09197405,-737.091974,2.174004017,
48173333,-8.377833951,0.3811608637,-18.6369197,-738.6369197,2.231857655,
48277777,-8.113252824,0.3929500594,-20.20942435,-740.2094243,2.294621853,
48382222,-7.84883526,0.4050962632,-22.13623059,-742.1362306,2.361888447,
48486666,-7.587444431,0.4174724094,-24.30986396,-744.309864,2.433313773,
48591111,-7.335848929,0.4297417555,-26.72262159,-746.7226216,2.507182963,
48695555,-7.085668997,0.4422996036,-29.58394627,-749.5839463,2.586154883,
48800000,-6.847479143,0.4545964531,-31.91504761,-751.9150476,2.667009522,
48904444,-6.618247369,0.4667535519,-34.63741537,-754.6374154,2.750611011,
49008888,-6.396536119,0.4788210052,-37.49898246,-757.4989825,2.837453198,
49113333,-6.191071458,0.4902825397,-40.45089909,-760.4508991,2.923742378,
49217777,-5.989081479,0.5018176428,-43.45788979,-763.4578898,3.014594196,
49322222,-5.798129035,0.5129718677,-46.53906626,-766.5390663,3.10653896,
49426666,-5.617354965,0.5237599081,-49.68611306,-769.6861131,3.199562435,
49531111,-5.443786736,0.5343313593,-52.87222246,-772.8722225,3.294899474,
49635555,-5.280566939,0.5444671136,-56.0997223,-776.0997223,3.390462379,
49740000,-5.124418745,0.5543436317,-59.36702825,-779.3670282,3.487762641,
49844444,-4.976901408,0.563838763,-62.6915442,-782.6915442,3.585460216,
49948888,-4.836704253,0.5730134121,-66.03616826,-786.0361683,3.683987874,
50053333,-4.70426389,0.5818175343,-69.37835044,-789.3783504,3.78260129,
50157777,-4.580812885,0.5901458477,-72.75445562,-792.7544556,3.879784648,
50262222,-4.462608678,0.598231898,-76.14233539,-796.1423354,3.977995989,
50366666,-4.351493309,0.6059340172,-79.55065751,-799.5506575,4.075292178,
50471111,-4.241962445,0.6136233506,-82.98055391,-802.9805539,4.176296246,
50575555,-4.140507586,0.6208327529,-86.4183746,-806.4183746,4.274717201,
50680000,-4.047083717,0.627546359,-89.82416993,-809.8241699,4.369795808,
50784444,-3.954465893,0.6342737022,-93.1719014,-813.1719014,4.468570381,
50888888,-3.87106778,0.6403930515,-96.48788831,-816.4878883,4.561627795,
50993333,-3.79066338,0.6463486276,-99.86534516,-819.8653452,4.655286975,
51097777,-3.712994367,0.6521541791,-103.3065725,-823.3065725,4.749673792,
51202222,-3.638656715,0.6577595529,-106.7562584,-826.7562584,4.843844633,
51306666,-3.569325206,0.6630308556,-110.1203923,-830.1203923,4.935261531,
51411111,-3.506065716,0.6678773483,-113.4474589,-833.4474589,5.021871709,
51515555,-3.444637258,0.6726174606,-116.8791383,-836.8791383,5.109061296,
51620000,-3.385671993,0.6771991438,-120.2969497,-840.2969497,5.195770431,
51724444,-3.329627554,0.6815828,-123.6829093,-843.6829093,5.281067731,
51828888,-3.275702736,0.6858274493,-127.0122818,-847.0122818,5.365928518,
51933333,-3.224445839,0.6898865977,-130.3721054,-850.3721054,5.449253677,
52037777,-3.178510119,0.6935447588,-133.7183452,-853.7183452,5.526238521,
52142222,-3.134185354,0.697093017,-137.066588,-857.066588,5.602687004,
52246666,-3.093249809,0.7003860857,-140.4156429,-860.4156429,5.675257405,
52351111,-3.053070948,0.7036334101,-143.7752867,-863.7752867,5.748399005,
52455555,-3.014883548,0.7067337355,-147.1605468,-867.1605468,5.819741109,
52560000,-2.976861858,0.709834179,-150.5582753,-870.5582753,5.892610553,
52664444,-2.944350321,0.7124960876,-153.8821784,-873.8821784,5.956427074,
52768888,-2.911187771,0.7152215828,-157.2339668,-877.2339668,6.02300413,
52873333,-2.878116514,0.7179499577,-160.5865837,-880.5865837,6.09094026,
52977777,-2.847460346,0.7204883829,-163.9959314,-883.9959314,6.15533766,
53082222,-2.819007749,0.7228523754,-167.3787614,-887.3787614,6.216370709,
53186666,-2.791389161,0.7251544927,-170.7451978,-890.7451978,6.276815326,
53291111,-2.764406022,0.7274107231,-174.1258111,-894.1258111,6.337045767,
53395555,-2.740232004,0.7294380264,-177.4824854,-897.4824854,6.392021773,
53500000,-2.715958056,0.7314793953,179.1496727,-900.8503273,6.448217995,
53604444,-2.693600405,0.733364663,175.7985562,-904.2014438,6.500881251,
53708888,-2.673826942,0.7350360724,172.4532543,-907.5467457,6.548197288,
53813333,-2.655333037,0.7366027707,169.0793947,-910.9206053,6.5930943,
53917777,-2.632356583,0.7385538575,165.6126791,-914.3873209,6.649759071,
54022222,-2.615866396,0.739957336,162.2686218,-917.7313782,6.691045651,
54126666,-2.596529091,0.7416065304,158.8838735,-921.1161265,6.740133693,
54231111,-2.579224329,0.7430854943,155.4915368,-924.5084632,6.784690842,
54335555,-2.562681658,0.7445020829,152.1004421,-927.8995579,6.827852463,
54440000,-2.547986928,0.7457626926,148.736924,-931.263076,6.86666607,
54544444,-2.53459102,0.7469137406,145.3636206,-934.6363794,6.902444031,
54648888,-2.522042727,0.7479935685,141.994097,-938.005903,6.936305387,
54753333,-2.508186772,0.7491877393,138.63648,-941.36352,6.974091834,
54857777,-2.497277927,0.7501292557,135.2520482,-944.7479518,7.004138321,
54962222,-2.486723524,0.7510413071,131.8404295,-948.1595705,7.033461202,
55066666,-2.475895838,0.7519781266,128.4305214,-951.5694786,7.063804908,
55171111,-2.465651436,0.7528655557,125.0312526,-954.9687474,7.092761029,
55275555,-2.457660948,0.7535584646,121.6067445,-958.3932555,7.115515094,
55380000,-2.442238246,0.7548976748,118.1898667,-961.8101333,7.15985731,
55484444,-2.436116577,0.7554299015,114.6587038,-965.3412962,7.177614568,
55588888,-2.427404484,0.7561879906,111.2197526,-968.7802474,7.20304137,
55693333,-2.414653852,0.7572988676,107.6898611,-972.3101389,7.240587838,
55797777,-2.407177029,0.7579510319,104.2138508,-975.7861492,7.262790853,
55902222,-2.405135982,0.7581291594,100.8312128,-979.1687872,7.268876045,
56006666,-2.403773563,0.7582480845,97.40378453,-982.5962155,7.272943756,
56111111,-2.396856594,0.7588521525,93.90653087,-986.0934691,7.293667227,
56215555,-2.39103249,0.7593611522,90.34262282,-989.6573772,7.311210007,
56320000,-2.386241285,0.7597801373,86.76450232,-993.2354977,7.3257062,
56424444,-2.380269554,0.7603026817,83.20722733,-996.7927727,7.343856386,
56528888,-2.378816796,0.7604298567,79.66941231,-1000.330588,7.348285695,
56633333,-2.375920861,0.7606834315,76.10155728,-1003.898443,7.35713136,
56737777,-2.373064839,0.7609335942,72.50303251,-1007.496967,7.365876391,
56842222,-2.371529326,0.7610681258,68.87032239,-1011.129678,7.370586834,
56946666,-2.367816784,0.7613934928,65.20475592,-1014.795244,7.382001075,
57051111,-2.366038061,0.7615494292,61.51853127,-1018.481469,7.387482543,
57155555,-2.372040032,0.7610233785,57.89932485,-1022.100675,7.369019476,
57260000,-2.373030945,0.7609365636,54.14292512,-1025.857075,7.365980301,
57364444,-2.375136786,0.7607521015,50.37756661,-1029.622433,7.359530061,
57468888,-2.379804356,0.760343403,46.60782899,-1033.392171,7.345274133,
57573333,-2.385036749,0.7598855089,42.81423916,-1037.185761,7.329359843,
57677777,-2.391977923,0.7592785025,38.97982638,-1041.020174,7.308356423,
57782222,-2.39981757,0.7585935076,35.08329234,-1044.916708,7.284781325,
57886666,-2.410089318,0.7576969413,31.114969,-1048.885031,7.254126097,
57991111,-2.422369293,0.7566264781,27.0518724,-1052.948128,7.21782084,
58095555,-2.43524888,0.7555053708,22.98782899,-1057.012171,7.180138787,
58200000,-2.450656132,0.754166424,18.80838454,-1061.191615,7.135585189,
58304444,-2.47100166,0.7524019579,14.52422933,-1065.475771,7.077608299,
58408888,-2.494297289,0.7503867132,10.05072415,-1069.949276,7.012393993,
