Frequency,S11_Magnitude,S11_Magnitude (linear),S11_Phase,S11_Unwrapped Phase,S11_VSWR,
30000000,-1.038067881,0.887353376,-142.4845479,-142.4845479,16.75463772,
30104444,-1.0607536,0.8850388192,-146.0794904,-146.0794904,16.39717692,
30208888,-1.068991821,0.8841997932,-149.8982871,-149.8982871,16.27112632,
30313333,-1.079998329,0.8830800703,-153.6982207,-153.6982207,16.10572359,
30417777,-1.092255885,0.8818347437,-157.4958744,-157.4958744,15.92544884,
30522222,-1.104902356,0.8805517453,-161.2896883,-161.2896883,15.74365193,
30626666,-1.11854094,0.8791701879,-165.1116519,-165.1116519,15.55220648,
30731111,-1.132771876,0.8777309374,-168.9350663,-168.9350663,15.35736757,
30835555,-1.146358177,0.8763590808,-172.7631783,-172.7631783,15.17587456,
30940000,-1.160031287,0.8749806235,-176.6088079,-176.6088079,14.99752019,
31044444,-1.176850178,0.8732879972,179.5261389,-180.4738611,14.78382438,
31148888,-1.192642671,0.8717016468,175.6666443,-184.3333557,14.58866462,
31253333,-1.208698916,0.8700917568,171.7952202,-188.2047798,14.39548185,
31357777,-1.2248483,0.8684755273,167.9167506,-192.0832494,14.20629552,
31462222,-1.241333502,0.8668287856,163.9958809,-196.0041191,14.01826058,
31566666,-1.258844857,0.8650829592,160.1100569,-199.8899431,13.8239243,
31671111,-1.280102174,0.8629683965,156.1845484,-203.8154516,13.59517329,
31775555,-1.301703324,0.8608249257,152.2286215,-207.7713785,13.37038931,
31880000,-1.323969943,0.8586209934,148.2902617,-211.7097383,13.14637186,
31984444,-1.351632305,0.8558908524,144.3327728,-215.6672272,12.87836951,
32088888,-1.382008528,0.8529028657,140.3468586,-219.6531414,12.59645794,
32193333,-1.416898299,0.8494837686,136.3510915,-223.6489085,12.28760348,
32297777,-1.456678893,0.8456021049,132.3164551,-227.6835449,11.95354446,
32402222,-1.503819707,0.841025211,128.2816707,-231.7183293,11.58061113,
32506666,-1.559843693,0.8356180555,124.229246,-235.770754,11.16678636,
32611111,-1.630344366,0.828863054,120.1767743,-239.8232257,10.68654722,
32715555,-1.71593427,0.820735628,116.1394034,-243.8605966,10.15670659,
32820000,-1.817749166,0.811171235,112.1533216,-247.8466784,9.591606634,
32924444,-1.944644264,0.7994067054,108.2796014,-251.7203986,8.970423011,
33028888,-2.089429186,0.786191856,104.6185892,-255.3814108,8.354180633,
33133333,-2.24703339,0.772055161,101.2594466,-258.7405534,7.774052569,
33237777,-2.394399965,0.7590668088,98.30392782,-261.6960722,7.301056363,
33342222,-2.497092519,0.750145268,95.71264816,-264.2873518,7.00465128,
33446666,-2.528978778,0.7473965023,93.32083502,-266.679165,6.91754674,
33551111,-2.48776785,0.7509510131,90.89007236,-269.1099276,7.030548626,
33655555,-2.39148599,0.7593215061,88.18636588,-271.8136341,7.309840933,
33760000,-2.267492419,0.770238777,85.13620552,-274.8637945,7.704689043,
33864444,-2.140493072,0.7815834352,81.80449053,-278.1955095,8.156814646,
33968888,-2.026924379,0.7918698013,78.19805729,-281.8019427,8.609369582,
34073333,-1.930266988,0.8007310152,74.46222962,-285.5377704,9.036684846,
34177777,-1.847017754,0.8084424551,70.60734468,-289.3926553,9.44072684,
34282222,-1.773257665,0.8153369356,66.6452404,-293.3547596,9.830536179,
34386666,-1.716756217,0.8206579654,62.691216,-297.308784,10.15187527,
34491111,-1.670144754,0.8250737352,58.78311728,-301.2168827,10.43338882,
34595555,-1.632700701,0.8286382279,54.87663921,-305.1233608,10.67121451,
34700000,-1.59370598,0.8323667071,50.95176563,-309.0482344,10.93080423,
34804444,-1.56864692,0.8347715781,47.02546258,-312.9745374,11.10445501,
34908888,-1.542510774,0.8372872179,43.09198894,-316.9080111,11.29159734,
35013333,-1.521164464,0.8393474528,39.18226802,-320.817732,11.44922682,
35117777,-1.502001713,0.8412012596,35.2673187,-324.7326813,11.59455834,
35222222,-1.483878015,0.8429583156,31.28185769,-328.7181423,11.73547216,
35326666,-1.466514193,0.8446451455,27.45076771,-332.5492323,11.87375284,
35431111,-1.454383089,0.8458256391,23.72992354,-336.2700765,11.97232554,
35535555,-1.443887714,0.8468482888,19.93085059,-340.0691494,12.05894648,
35640000,-1.432444837,0.8479646704,16.08675713,-343.9132429,12.15483713,
35744444,-1.42243976,0.8489419842,12.25976355,-347.7402364,12.23994618,
35848888,-1.4111128,0.8500497814,8.434025035,-351.565975,12.33775982,
35953333,-1.398389831,0.8512958348,4.603264287,-355.3967357,12.44952239,
36057777,-1.390929383,0.8520273403,0.7748335773,-359.2251664,12.51601035,
36162222,-1.381550046,0.8529478871,-3.04296137,-363.0429614,12.60062063,
36266666,-1.373203693,0.8537678867,-6.854347219,-366.8543472,12.67688638,
36371111,-1.366152366,0.8544612688,-10.67372084,-370.6737208,12.74204642,
36475555,-1.356634135,0.8553981236,-14.47802564,-374.4780256,12.83107916,
36580000,-1.346007533,0.8564452861,-18.28296363,-378.2829636,12.93197023,
36684444,-1.339651833,0.8570721996,-22.06762463,-382.0676246,12.99307899,
36788888,-1.332465031,0.8577816442,-25.8695225,-385.8695225,13.06288231,
36893333,-1.324503965,0.8585682057,-29.67978517,-389.6797852,13.1410919,
36997777,-1.316082753,0.8594010151,-33.47688946,-393.4768895,13.22485377,
37102222,-1.309033816,0.8600987355,-37.26145813,-397.2614581,13.29579645,
37206666,-1.305568637,0.8604419348,-41.03634302,-401.036343,13.33095248,
37311111,-1.298507509,0.8611417089,-44.79140824,-404.7914082,13.40317308,
37415555,-1.293151682,0.8616728633,-48.56453903,-408.564539,13.458479,
37520000,-1.284990009,0.8624829124,-52.46849022,-412.4684902,13.54364715,
37624444,-1.281215209,0.8628578203,-56.24371159,-416.2437116,13.58340537,
37728888,-1.276298472,0.863346388,-60.09838703,-420.098387,13.63554436,
37833333,-1.272739398,0.8637002197,-63.92025617,-423.9202562,13.67353796,
37937777,-1.267314062,0.8642398683,-67.64013356,-427.6401336,13.73186549,
38042222,-1.265075627,0.8644626197,-71.382937,-431.382937,13.75607685,
38146666,-1.260285795,0.8649394589,-75.15910385,-435.1591038,13.80817405,
38251111,-1.25789697,0.8651773704,-78.92091124,-438.9209112,13.83430494,
38355555,-1.256034997,0.8653628563,-82.62653508,-442.6265351,13.85474175,
38460000,-1.254667505,0.8654991082,-86.32576206,-446.3257621,13.86978989,
38564444,-1.249753351,0.8659889141,-90.04400679,-450.0440068,13.92413845,
38668888,-1.246439964,0.866319324,-93.75651263,-453.7565126,13.96102548,
38773333,-1.245559897,0.8664071052,-97.46114718,-457.4611472,13.97085607,
38877777,-1.243464772,0.8666161165,-101.1906339,-461.1906339,13.99431527,
38982222,-1.245569439,0.8664061534,-104.9170045,-464.9170045,13.97074941,
39086666,-1.243013244,0.866661168,-108.6266837,-468.6266837,13.99938143,
39191111,-1.244022178,0.8665605043,-112.3235414,-472.3235414,13.98806624,
39295555,-1.244597527,0.8665031057,-116.0054183,-476.0054183,13.98162194,
39400000,-1.245350077,0.8664280347,-119.6929923,-479.6929923,13.97320186,
39504444,-1.24639687,0.8663236221,-123.4011878,-483.4011878,13.96150652,
39608888,-1.250143934,0.8659499736,-127.0756114,-487.0756114,13.91980311,
39713333,-1.252700248,0.8656951563,-130.7609937,-490.7609937,13.89149569,
39817777,-1.254149368,0.8655507392,-134.4560024,-494.4560024,13.87550016,
39922222,-1.255866665,0.8653796271,-138.1527741,-498.1527741,13.85659233,
40026666,-1.259001064,0.8650674016,-141.8381692,-501.8381692,13.82221512,
40131111,-1.263056258,0.8646636206,-145.5260243,-505.5260243,13.77799251,
40235555,-1.266032496,0.8643673926,-149.213663,-509.213663,13.74571667,
40340000,-1.269639734,0.8640084965,-152.9274245,-512.9274245,13.70680115,
40444444,-1.272839056,0.8636903101,-156.6410635,-516.6410635,13.67247121,
40548888,-1.277881978,0.8631890075,-160.3419999,-520.3419999,13.61870836,
40653333,-1.281867741,0.862793,-164.0681354,-524.0681354,13.57651577,
40757777,-1.285668653,0.8624155277,-167.7763376,-527.7763376,13.53652412,
40862222,-1.292287073,0.86175864,-171.3735493,-531.3735493,13.46745026,
40966666,-1.29846336,0.861146086,-174.9661052,-534.9661052,13.40362711,
41071111,-1.30510634,0.8604877321,-178.587189,-538.587189,13.33565686,
41175555,-1.309983126,0.8600047376,177.7604239,-542.2395761,13.28619773,
41280000,-1.315389262,0.8594696334,174.0979369,-545.9020631,13.23179949,
41384444,-1.320390893,0.858974864,170.429572,-549.570428,13.18186897,
41488888,-1.325695349,0.8584504499,166.7697659,-553.2302341,13.12932785,
41593333,-1.332212536,0.8578065798,163.1047537,-556.8952463,13.06534843,
41697777,-1.337325631,0.8573017662,159.458539,-560.541461,13.01559043,
41802222,-1.343036424,0.8567382933,155.8268069,-564.1731931,12.9604647,
41906666,-1.348907005,0.8561594404,152.1823475,-567.8176525,12.90428406,
42011111,-1.35549299,0.8555105125,148.5498351,-571.4501649,12.84183746,
42115555,-1.360090933,0.8550577612,144.9181126,-575.0818874,12.79860016,
42220000,-1.365211912,0.8545537895,141.2650135,-578.7349865,12.75078796,
42324444,-1.371224661,0.8539624351,137.5751691,-582.4248309,12.69510647,
42428888,-1.376355078,0.8534581816,133.918642,-586.081358,12.64798132,
42533333,-1.384400838,0.8526679874,130.2892662,-589.7107338,12.57478232,
42637777,-1.389511005,0.852166485,126.6484921,-593.3515079,12.52873196,
42742222,-1.397101221,0.8514221395,123.0328382,-596.9671618,12.46095571,
42846666,-1.403485124,0.8507965963,119.4312921,-600.5687079,12.40451994,
42951111,-1.411433977,0.8500183497,115.8418406,-604.1581594,12.33496462,
43055555,-1.419254738,0.8492533391,112.2588407,-607.7411593,12.26729221,
43160000,-1.425775127,0.8486160544,108.6783134,-611.3216866,12.21144057,
43264444,-1.435581212,0.8476585353,105.1098362,-614.8901638,12.12840206,
43368888,-1.443485153,0.8468875383,101.5363422,-618.4636578,12.06229406,
43473333,-1.452273524,0.8460310919,97.99007565,-622.0099243,11.98963554,
43577777,-1.461171623,0.8451648348,94.41809599,-625.581904,11.91696236,
43682222,-1.474450785,0.8438737171,90.88273358,-629.1172664,11.81014293,
43786666,-1.484233538,0.8429238131,87.40103075,-632.5989693,11.73267476,
43891111,-1.494052852,0.8419714344,83.8314568,-636.1685432,11.65593972,
43995555,-1.503821696,0.8410250184,80.2149664,-639.7850336,11.58059589,
44100000,-1.51645717,0.8398024581,76.73326222,-643.2667378,11.48458607,
44204444,-1.531386079,0.8383602839,73.25069828,-646.7493017,11.37319669,
44308888,-1.542607635,0.8372778809,69.72658398,-650.273416,11.29089205,
44413333,-1.55477688,0.8361056458,66.19362487,-653.8063751,11.20298289,
44517777,-1.568700338,0.8347664443,62.66707743,-657.3329226,11.10407893,
44622222,-1.583024502,0.8333909402,59.11864653,-660.8813535,11.00414913,
44726666,-1.597811307,0.8319733875,55.57573496,-664.424265,10.90287639,
44831111,-1.614088997,0.8304156976,52.04453744,-667.9554626,10.7935444,
44935555,-1.630942901,0.82880594,48.4968042,-671.5031958,10.68264834,
45040000,-1.649428087,0.8270439626,44.96925527,-675.0307447,10.56363218,
45144444,-1.668401327,0.8252393602,41.43083436,-678.5691656,10.44422452,
45248888,-1.689033347,0.8232814548,37.90834538,-682.0916546,10.31743133,
45353333,-1.712194692,0.8210890593,34.39290561,-685.6070944,10.17874621,
45457777,-1.735009626,0.8189351624,30.88797347,-689.1120265,10.04576695,
45562222,-1.762409263,0.8163559019,27.38256668,-692.6174333,9.890630413,
45666666,-1.789589703,0.8138053018,23.90534499,-696.094655,9.741444409,
45771111,-1.816414082,0.8112959275,20.30715643,-699.6928436,9.598605389,
45875555,-1.851055292,0.8080667471,16.86755729,-703.1324427,9.42028919,
45980000,-1.887835975,0.8046521967,13.42868991,-706.5713101,9.238149427,
46084444,-1.925588598,0.8011624207,9.977358946,-710.0226411,9.058460816,
46188888,-1.968259909,0.7972361892,6.561797115,-713.4382029,8.863693091,
46293333,-2.012588406,0.7931778536,3.163808729,-716.8361913,8.670144299,
46397777,-2.061012247,0.7887681898,-0.2245531802,-720.2245532,8.468270894,
46502222,-2.114259253,0.7839476044,-3.567092828,-723.5670928,8.257013765,
46606666,-2.170133598,0.7789208338,-6.86109416,-726.8610942,8.046533124,
46711111,-2.228041893,0.7737450886,-10.08596758,-730.0859676,7.839587119,
46815555,-2.292935563,0.7679858563,-13.30015855,-733.3001585,7.620164133,
46920000,-2.358361375,0.7622227926,-16.58363684,-736.5836368,7.411235131,
47024444,-2.428854196,0.7560617901,-19.78526908,-739.7852691,7.198797559,
47128888,-2.501593232,0.7497566706,-22.90658854,-742.9065885,6.992221032,
47233333,-2.577377921,0.7432434729,-25.94871154,-745.9487115,6.789480651,
47337777,-2.656779431,0.7364801202,-28.9143649,-748.9143649,6.589560233,
47442222,-2.734871891,0.7298883058,-31.80951678,-751.8095168,6.404344361,
47546666,-2.81183309,0.7234497077,-34.64106441,-754.6410644,6.231957643,
47651111,-2.88498341,0.7173825848,-37.39647663,-757.3964766,6.076704733,
47755555,-2.953313119,0.7117612562,-40.06457445,-760.0645745,5.938692466,
47860000,-3.014094956,0.7067979028,-42.66898742,-762.6689874,5.821233611,
47964444,-3.061586968,0.7029438757,-45.27767911,-765.2776791,5.732734445,
48068888,-3.098458387,0.6999662183,-47.87294337,-767.8729434,5.665916048,
48173333,-3.116095104,0.6985463774,-50.18977197,-770.189772,5.634519708,
48277777,-3.118510826,0.6983521246,-52.5750297,-772.5750297,5.630247261,
48382222,-3.102488753,0.6996415002,-54.9435301,-774.9435301,5.658709512,
48486666,-3.066957395,0.7025093847,-57.2795451,-777.2795451,5.72290115,
48591111,-3.016039677,0.7066396725,-59.64634622,-779.6463462,5.81755443,
48695555,-2.949077846,0.7121083983,-62.03946678,-782.0394668,5.9470592,
48800000,-2.868082656,0.7187798061,-64.51169281,-784.5116928,6.111864806,
48904444,-2.776917717,0.7263636698,-67.13437539,-787.1343754,6.308970992,
49008888,-2.677182,0.7347522083,-69.81679821,-789.8167982,6.540119324,
49113333,-2.578930884,0.7431105992,-72.6138214,-792.6138214,6.785451613,
49217777,-2.478051128,0.7517915562,-75.47618606,-795.4761861,7.057743604,
49322222,-2.375047014,0.7607599642,-78.43377727,-798.4337773,7.359804801,
49426666,-2.277079276,0.7693891121,-81.4745439,-801.4745439,7.672617406,
49531111,-2.185191019,0.7775717056,-84.5752283,-804.5752283,7.991661811,
49635555,-2.099237582,0.7853045629,-87.74179764,-807.7417976,8.315521687,
49740000,-2.015828848,0.7928819982,-90.96548947,-810.9654895,8.656331088,
49844444,-1.940880648,0.7997531652,-94.24229019,-814.2422902,8.987673475,
49948888,-1.869397975,0.806362089,-97.55186006,-817.5518601,9.32855596,
50053333,-1.804639469,0.8123964679,-100.8771631,-820.8771631,9.660780092,
50157777,-1.746212926,0.8178795582,-104.226752,-824.226752,9.981743621,
50262222,-1.694404981,0.8227724685,-107.6012937,-827.6012937,10.28492838,
50366666,-1.645964706,0.8273738009,-110.9942833,-830.9942833,10.58572691,
50471111,-1.601765676,0.8315947066,-114.4427428,-834.4427428,10.87611125,
50575555,-1.563974974,0.8352207039,-117.8049134,-837.8049134,11.13744716,
50680000,-1.530700002,0.8384265065,-121.1780855,-841.1780855,11.37826797,
50784444,-1.499320002,0.8414610151,-124.5992172,-844.5992172,11.61519368,
50888888,-1.473049146,0.8440099037,-127.95602,-847.95602,11.82132678,
50993333,-1.450863483,0.8461684452,-131.305812,-851.305812,12.00123374,
51097777,-1.429100997,0.8482911774,-134.6619522,-854.6619522,12.18314891,
51202222,-1.411343022,0.8500272509,-138.0228243,-858.0228243,12.33575608,
51306666,-1.397007111,0.8514313645,-141.396443,-861.396443,12.46179154,
51411111,-1.383882182,0.8527189038,-144.7784804,-864.7784804,12.57947524,
51515555,-1.370581394,0.8540256809,-148.1681785,-868.1681785,12.7010401,
51620000,-1.362138419,0.854856226,-151.524744,-871.524744,12.77944052,
51724444,-1.355699686,0.8554901543,-154.8540675,-874.8540675,12.83988746,
51828888,-1.349772048,0.8560741782,-158.1870172,-878.1870172,12.89604711,
51933333,-1.345760278,0.8564696662,-161.5496171,-881.5496171,12.93433672,
52037777,-1.342604835,0.8567808644,-164.9026655,-884.9026655,12.96461438,
52142222,-1.34320666,0.8567215021,-168.2143119,-888.2143119,12.95882864,
52246666,-1.343530488,0.8566895623,-171.5499708,-891.5499708,12.95571762,
52351111,-1.343506507,0.8566919276,-174.8966861,-894.8966861,12.95594795,
52455555,-1.343017652,0.8567401449,-178.2748323,-898.2748323,12.96064514,
52560000,-1.344419243,0.8566019089,178.3819721,-901.6180279,12.94718706,
52664444,-1.350663304,0.8559863413,175.0804348,-904.9195652,12.88757162,
52768888,-1.355823466,0.8554779631,171.7726668,-908.2273332,12.83871998,
52873333,-1.359689173,0.8550973122,168.4430687,-911.5569313,12.80236647,
52977777,-1.367007365,0.8543771636,165.1142534,-914.8857466,12.73410964,
53082222,-1.37349394,0.8537393576,161.7826016,-918.2173984,12.67421863,
53186666,-1.37980968,0.8531188069,158.4650954,-921.5349046,12.61644713,
53291111,-1.387946578,0.8523199836,155.1407014,-924.8592986,12.54279373,
53395555,-1.397481462,0.8513848678,151.8406798,-928.1593202,12.45757979,
53500000,-1.406976444,0.8504546847,148.5073768,-931.4926232,12.37387264,
53604444,-1.417076513,0.8494663393,145.2154954,-934.7845046,12.286065,
53708888,-1.427101202,0.848486506,141.9054028,-938.0945972,12.20014441,
53813333,-1.438841618,0.847340411,138.5924384,-941.4075616,12.10104405,
53917777,-1.45145048,0.8461112626,135.297921,-944.702079,11.99640269,
54022222,-1.466344178,0.8446616785,132.0016277,-947.9983723,11.87512303,
54126666,-1.477634351,0.8435644758,128.7015405,-951.2984595,11.78481988,
54231111,-1.491574757,0.8422116842,125.374156,-954.625844,11.67520975,
54335555,-1.504746251,0.8409355017,122.0293863,-957.9706137,11.57351591,
54440000,-1.519629862,0.8394957598,118.6971128,-961.3028872,11.46073,
54544444,-1.533207271,0.8381845213,115.3666915,-964.6333085,11.35975702,
54648888,-1.550233389,0.8365431176,112.076379,-967.923621,11.23564264,
54753333,-1.565419356,0.835081826,108.8058681,-971.1941319,11.1272262,
54857777,-1.583183889,0.8333756475,105.5572534,-974.4427466,11.00304739,
54962222,-1.60302782,0.8314738765,102.2821687,-977.7178313,10.8675963,
55066666,-1.623436857,0.8295224748,99.00347512,-980.9965249,10.73175172,
55171111,-1.640584273,0.8278864725,95.71487476,-984.2851252,10.62023711,
55275555,-1.660783002,0.8259634886,92.40146177,-987.5985382,10.49184147,
55380000,-1.671351157,0.8249591467,89.13729469,-990.8627053,10.42590408,
55484444,-1.700670324,0.8221791967,85.83042994,-994.1695701,10.24727795,
55588888,-1.715619632,0.8207653589,82.50989793,-997.4901021,10.15855723,
55693333,-1.737709448,0.8186806535,79.32044305,-1000.679557,10.03026257,
55797777,-1.761923025,0.816401603,76.08232099,-1003.917679,9.893341295,
55902222,-1.781970379,0.8145194907,72.80280286,-1007.197197,9.782804122,
56006666,-1.796380825,0.8131692712,69.50891922,-1010.491081,9.704877151,
56111111,-1.818416621,0.8111089041,66.30609324,-1013.693907,9.588111578,
56215555,-1.836761546,0.8093976194,63.05373589,-1016.946264,9.493048375,
56320000,-1.855942867,0.8076121736,59.86047296,-1020.139527,9.395668152,
56424444,-1.880492965,0.8053327335,56.77964813,-1023.220352,9.273940944,
56528888,-1.899811561,0.8035435547,53.65007684,-1026.349923,9.180373553,
56633333,-1.914696437,0.8021677137,50.43544328,-1029.564557,9.109573302,
56737777,-1.925620635,0.8011594657,47.23621513,-1032.763785,9.058311336,
56842222,-1.938200764,0.7999999536,44.07376387,-1035.926236,8.999997679,
56946666,-1.947686333,0.7991267773,40.90237032,-1039.09763,8.956528668,
57051111,-1.957133029,0.7982581266,37.74827937,-1042.251721,8.913658313,
57155555,-1.964735016,0.7975597879,34.59916532,-1045.400835,8.879460108,
57260000,-1.96733887,0.7973207315,31.43142235,-1048.568578,8.86780747,
57364444,-1.965524809,0.7974872705,28.2216954,-1051.778305,8.875922392,
57468888,-1.961406049,0.7978655204,24.98820148,-1055.011799,8.894402993,
57573333,-1.960124711,0.7979832298,21.90066757,-1058.099332,8.900168179,
57677777,-1.952712085,0.7986645275,18.7547316,-1061.245268,8.933669288,
57782222,-1.940219647,0.7998140293,15.56861239,-1064.431388,8.990710101,
57886666,-1.925685844,0.8011534511,12.36396067,-1067.636039,9.058007095,
57991111,-1.903981063,0.803157921,9.0705926,-1070.929407,9.160429162,
58095555,-1.881649798,0.8052254821,5.932652795,-1074.067347,9.268283664,
58200000,-1.859132972,0.8073156127,2.744406376,-1077.255594,9.379668159,
58304444,-1.837391534,0.8093389159,-0.4628243214,-1080.462824,9.489817622,
58408888,-1.809173978,0.8119724633,-3.738027414,-1083.738027,9.636739889,
