Frequency,S11_Magnitude,S11_Phase,S11_VSWR,
30000000,-0.8878912277,-133.2076599,19.58224515,
30104444,-0.9226685017,-136.8862299,18.84545904,
30208888,-0.9361737959,-140.5031399,18.57410777,
30313333,-0.9482580774,-144.1385634,18.33786622,
30417777,-0.9595333909,-147.7813704,18.12281106,
30522222,-0.9721072007,-151.4365307,17.88887912,
30626666,-0.984956143,-155.1059399,17.65600492,
30731111,-0.9963951208,-158.7680904,17.45374385,
30835555,-1.00929872,-162.451362,17.23109448,
30940000,-1.019828679,-166.1266949,17.05358141,
31044444,-1.032194096,-169.8112301,16.84975542,
31148888,-1.04466296,-173.4780242,16.64911592,
31253333,-1.054030328,-177.1830668,16.50150977,
31357777,-1.06464458,179.1518264,16.33739877,
31462222,-1.073208771,175.4705969,16.20735375,
31566666,-1.084271234,171.7641885,16.04241759,
31671111,-1.092694051,168.0538314,15.9190796,
31775555,-1.104861832,164.350515,15.74422782,
31880000,-1.115595373,160.6510807,15.59315669,
31984444,-1.124636338,156.932871,15.46814849,
32088888,-1.137706144,153.2218741,15.29095102,
32193333,-1.147999483,149.5338954,15.15424037,
32297777,-1.157619082,145.8036691,15.02867887,
32402222,-1.167089727,142.0942666,14.90708661,
32506666,-1.175174064,138.3723987,14.80484577,
32611111,-1.185225081,134.6572338,14.67968067,
32715555,-1.195852039,130.9547311,14.54963522,
32820000,-1.20544495,127.2136497,14.43421591,
32924444,-1.213390655,123.4865484,14.33999936,
33028888,-1.223426908,119.7537499,14.22274602,
33133333,-1.231134975,115.9985599,14.13399289,
33237777,-1.240748695,112.2695536,14.02484543,
33342222,-1.249829086,108.5198767,13.9232976,
33446666,-1.258699117,104.7749441,13.82551933,
33551111,-1.268096366,101.0173138,13.72342413,
33655555,-1.277067443,97.26415804,13.62736336,
33760000,-1.289642735,93.48496587,13.49496298,
33864444,-1.303115997,89.72061398,13.35594898,
33968888,-1.321605455,85.93789703,13.16980132,
34073333,-1.343475847,82.14316419,12.95624245,
34177777,-1.371300544,78.427996,12.69440688,
34282222,-1.409808132,74.77885057,12.34912741,
34386666,-1.443965647,71.23824469,12.05829863,
34491111,-1.463017249,67.82497924,11.90199958,
34595555,-1.459405459,64.4607454,11.93131644,
34700000,-1.431173203,61.0001426,12.16558823,
34804444,-1.395162028,57.42648221,12.4782013,
34908888,-1.3628475,53.71425155,12.77281863,
35013333,-1.342862842,49.98388974,12.96213335,
35117777,-1.327734254,46.21847806,13.10924421,
35222222,-1.313475895,42.4381323,13.2510011,
35326666,-1.303407169,38.66628411,13.35297653,
35431111,-1.295985912,34.86715784,13.42915481,
35535555,-1.291903782,31.17233827,13.47143118,
35640000,-1.289925606,27.46429848,13.49201449,
35744444,-1.28797177,23.7436153,13.51240671,
35848888,-1.284812191,20.00409491,13.54551478,
35953333,-1.280768308,16.27687512,13.58812791,
36057777,-1.277761242,12.537464,13.61999057,
36162222,-1.273168293,8.805802792,13.66894817,
36266666,-1.268240391,5.085883387,13.72187119,
36371111,-1.265406039,1.349354853,13.75249766,
36475555,-1.262973126,-2.394946822,13.77889622,
36580000,-1.25966451,-6.113761809,13.81496061,
36684444,-1.256456041,-9.856470101,13.85011511,
36788888,-1.252743005,-13.59561213,13.8910232,
36893333,-1.250245799,-17.31975925,13.91867287,
36997777,-1.248915046,-21.06503071,13.93345255,
37102222,-1.245558712,-24.81284132,13.97086931,
37206666,-1.244440674,-28.54074373,13.98337821,
37311111,-1.241504605,-32.29972567,14.01633516,
37415555,-1.239871174,-36.09188405,14.03473788,
37520000,-1.24219517,-39.88654727,14.00856963,
37624444,-1.234773096,-43.65510137,14.09248798,
37728888,-1.234429747,-47.31596114,14.09639455,
37833333,-1.232828292,-50.95456982,14.11464443,
37937777,-1.233561612,-54.63485179,14.10628176,
38042222,-1.231789926,-58.33950313,14.12650286,
38146666,-1.230647669,-62.03264049,14.13957091,
38251111,-1.232250098,-65.75248951,14.1212451,
38355555,-1.232166297,-69.4616282,14.12220228,
38460000,-1.233094785,-73.14466148,14.11160423,
38564444,-1.234549417,-76.86201471,14.09503271,
38668888,-1.234655854,-80.56658054,14.09382169,
38773333,-1.236405504,-84.25796324,14.07394444,
38877777,-1.237652673,-87.96567833,14.05981008,
38982222,-1.240302647,-91.6571383,14.02987206,
39086666,-1.244907659,-95.34904735,13.97815072,
39191111,-1.245615063,-99.05574584,13.97023944,
39295555,-1.251229372,-102.7578254,13.90776932,
39400000,-1.254892272,-106.4517024,13.86731426,
39504444,-1.259279573,-110.1520795,13.8191688,
39608888,-1.263903756,-113.8479158,13.7687863,
39713333,-1.270008604,-117.5443231,13.70283421,
39817777,-1.274371288,-121.2326745,13.65609092,
39922222,-1.279837776,-124.9438602,13.59797174,
40026666,-1.286692276,-128.6406228,13.52579443,
40131111,-1.294388913,-132.3519749,13.44566223,
40235555,-1.300697118,-136.0429285,13.38069392,
40340000,-1.306503284,-139.7499475,13.3214516,
40444444,-1.313325892,-143.4551808,13.25250883,
40548888,-1.321274303,-147.1771933,13.17308938,
40653333,-1.32924258,-150.8974152,13.09442662,
40757777,-1.336588921,-154.6293608,13.02273619,
40862222,-1.343831999,-158.3588198,12.95282234,
40966666,-1.351354715,-162.0672856,12.88100429,
41071111,-1.363453912,-165.7219467,12.76716102,
41175555,-1.375420494,-169.3714682,12.65653965,
41280000,-1.386866861,-172.9940603,12.55251726,
41384444,-1.398965122,-176.6378451,12.44442487,
41488888,-1.409293899,179.6939649,12.35361372,
41593333,-1.421091285,176.0243251,12.25150895,
41697777,-1.432409714,172.3326086,12.15513382,
41802222,-1.444192854,168.6401692,12.05641027,
41906666,-1.455981532,164.9550899,11.95924302,
42011111,-1.468957253,161.2491552,11.85409889,
42115555,-1.48163943,157.5656347,11.75311721,
42220000,-1.49588229,153.8721197,11.6417548,
42324444,-1.508125265,150.1694648,11.54771439,
42428888,-1.521661048,146.4367487,11.44550948,
42533333,-1.537947779,142.7441945,11.32492362,
42637777,-1.553174315,139.044619,11.21448066,
42742222,-1.574967704,135.551191,11.06013156,
42846666,-1.591932114,131.8863826,10.94291622,
42951111,-1.608691902,128.1990659,10.82954906,
43055555,-1.628841599,124.5237429,10.69634898,
43160000,-1.648833091,120.8450749,10.56742135,
43264444,-1.668912075,117.1769155,10.44104778,
43368888,-1.691888092,113.4925652,10.30013192,
43473333,-1.713812085,109.7782042,10.16920208,
43577777,-1.736493977,106.0254208,10.03723672,
43682222,-1.762126931,102.3050483,9.89220429,
43786666,-1.79368392,98.75268236,9.719365554,
43891111,-1.826760451,95.1572691,9.54463635,
43995555,-1.859050621,91.5310374,9.3800805,
44100000,-1.892069232,87.88594524,9.217642296,
44204444,-1.929723419,84.25322969,9.03920949,
44308888,-1.969849576,80.60803805,8.856600976,
44413333,-2.013107209,76.97199105,8.667929764,
44517777,-2.05785552,73.34803139,8.481140113,
44622222,-2.107505777,69.73741526,8.283214187,
44726666,-2.15978777,66.13192074,8.084680512,
44831111,-2.216367017,62.54429781,7.880434476,
44935555,-2.276453445,58.97403101,7.674702758,
45040000,-2.343901972,55.4187099,7.456399378,
45144444,-2.412329931,51.8972425,7.247474069,
45248888,-2.488561816,48.43727542,7.028335939,
45353333,-2.567805044,45.01096963,6.814425114,
45457777,-2.653774348,41.61277678,6.596907092,
45562222,-2.742718655,38.23272203,6.386321598,
45666666,-2.837689334,34.87763476,6.17615804,
45771111,-2.935167838,31.57883669,5.974709771,
45875555,-3.041604038,28.57611574,5.769631501,
45980000,-3.148379798,25.66558471,5.577968482,
46084444,-3.251324527,22.77070391,5.405227225,
46188888,-3.35149971,19.91985585,5.247435592,
46293333,-3.448288001,17.13955876,5.103791571,
46397777,-3.537531036,14.4649975,4.978399212,
46502222,-3.617374831,11.91085725,4.871527743,
46606666,-3.681495871,9.40965068,4.789104821,
46711111,-3.729662856,7.006498773,4.72908107,
46815555,-3.758055608,4.649835331,4.694430873,
46920000,-3.772086053,2.475626336,4.677503819,
47024444,-3.761659583,0.3173231783,4.690070611,
47128888,-3.729295548,-1.943664116,4.729532839,
47233333,-3.680140059,-4.257218941,4.79081746,
47337777,-3.610364303,-6.614520557,4.880719416,
47442222,-3.527653712,-9.055120945,4.991961073,
47546666,-3.432521973,-11.58982124,5.126630681,
47651111,-3.329447602,-14.2292555,5.281346294,
47755555,-3.222547933,-16.9577269,5.452390467,
47860000,-3.109314124,-19.82246261,5.646548405,
47964444,-2.995787126,-22.82313903,5.85610635,
48068888,-2.885025377,-25.7523011,6.076617942,
48173333,-2.778333563,-28.77255896,6.305810061,
48277777,-2.675473563,-31.85544213,6.544230171,
48382222,-2.576809221,-34.98600292,6.790957321,
48486666,-2.483736353,-38.16743831,7.041805901,
48591111,-2.395235769,-41.39916174,7.298540689,
48695555,-2.3128591,-44.67914859,7.555281686,
48800000,-2.23704844,-47.9772928,7.80836846,
48904444,-2.162980236,-51.40867839,8.072870042,
49008888,-2.097759185,-54.67161687,8.32132541,
49113333,-2.037171934,-58.02930626,8.566453559,
49217777,-1.978965927,-61.39018039,8.816150399,
49322222,-1.924769485,-64.77188634,9.062284381,
49426666,-1.875914397,-68.14519316,9.296400321,
49531111,-1.828823621,-71.55636781,9.533947679,
49635555,-1.786341689,-74.93762416,9.759032194,
49740000,-1.746310602,-78.32819433,9.981189057,
49844444,-1.710072067,-81.72351724,10.19129917,
49948888,-1.676435571,-85.10086467,10.39447824,
50053333,-1.647389394,-88.49418662,10.5766268,
50157777,-1.619947022,-91.88813022,10.75473711,
50262222,-1.593148024,-95.28087118,10.93461105,
50366666,-1.570156205,-98.6686566,11.09383888,
50471111,-1.548253117,-102.0260917,11.24993747,
50575555,-1.531595311,-105.3339918,11.37165101,
50680000,-1.510939237,-108.6340988,11.52631572,
50784444,-1.493733731,-111.9994645,11.65841765,
50888888,-1.478504479,-115.3466962,11.77791765,
50993333,-1.465609877,-118.6891853,11.88104455,
51097777,-1.452849734,-122.0393699,11.98490246,
51202222,-1.440414338,-125.3875716,12.08789176,
51306666,-1.43111295,-128.7465392,12.16609812,
51411111,-1.4216789,-132.0781752,12.24646763,
51515555,-1.412368588,-135.3679322,12.32683799,
51620000,-1.405564742,-138.6502941,12.38624638,
51724444,-1.399316028,-141.9415068,12.44131764,
51828888,-1.394033452,-145.2434935,12.48826006,
51933333,-1.389538361,-148.5477171,12.52848636,
52037777,-1.385600361,-151.8533019,12.56394222,
52142222,-1.3817656,-155.1413833,12.59866321,
52246666,-1.378130413,-158.4229788,12.63175597,
52351111,-1.375408359,-161.7241342,12.65665085,
52455555,-1.374643323,-165.0287226,12.66366536,
52560000,-1.371628081,-168.3267239,12.69138808,
52664444,-1.368672884,-171.6644896,12.7186775,
52768888,-1.363845673,-175.0105171,12.76350871,
52873333,-1.364989356,-178.2646672,12.75285839,
52977777,-1.366118237,178.4841099,12.74236344,
53082222,-1.366189616,175.1797802,12.74170042,
53186666,-1.363652775,171.8556791,12.7653068,
53291111,-1.361382465,168.5285,12.78650774,
53395555,-1.363150022,165.2713606,12.76999558,
53500000,-1.364786549,162.0031379,12.75474569,
53604444,-1.365690587,158.722204,12.74633715,
53708888,-1.365591881,155.4088698,12.74725469,
53813333,-1.365046281,152.1022873,12.75232876,
53917777,-1.365465424,148.7860236,12.74843037,
54022222,-1.366461481,145.4816234,12.73917582,
54126666,-1.36510916,142.1448631,12.75174378,
54231111,-1.363475461,138.7729687,12.76696007,
54335555,-1.365864332,135.4787724,12.74472242,
54440000,-1.365239554,132.1350226,12.75053085,
54544444,-1.364345751,128.8274294,12.75884963,
54648888,-1.366117795,125.5623891,12.74236754,
54753333,-1.370223279,122.2586912,12.70434585,
54857777,-1.370519403,118.958143,12.70161222,
54962222,-1.370353616,115.6257619,12.70314252,
55066666,-1.370932584,112.2857486,12.69779996,
55171111,-1.371346216,108.9593848,12.69398585,
55275555,-1.372447436,105.5973588,12.6838427,
55380000,-1.368756739,102.1924963,12.71790152,
55484444,-1.366059799,98.74031919,12.74290629,
55588888,-1.364216449,95.42112868,12.76005397,
55693333,-1.368037493,92.07175466,12.72456038,
55797777,-1.361534337,88.63100762,12.7850873,
55902222,-1.356521688,85.20017248,12.83213846,
56006666,-1.353649569,81.79374697,12.85925494,
56111111,-1.3501936,78.39157263,12.89203692,
56215555,-1.346349173,75.01681916,12.9287018,
56320000,-1.343416425,71.61617805,12.95681325,
56424444,-1.339996625,68.19650768,12.98974898,
56528888,-1.335070095,64.76660957,13.03749307,
56633333,-1.326985308,61.31016495,13.1166143,
56737777,-1.316173347,57.80870218,13.22394696,
56842222,-1.308122278,54.33781201,13.30502639,
56946666,-1.302415926,50.88943651,13.36310119,
57051111,-1.290770466,47.43595031,13.48321582,
57155555,-1.272992408,43.91319236,13.67083002,
57260000,-1.260476143,40.3500503,13.80609614,
57364444,-1.238082901,36.7332376,14.05494086,
57468888,-1.220788101,33.17718401,14.25338803,
57573333,-1.193878677,29.50573985,14.57360856,
57677777,-1.165485875,25.79137597,14.92753904,
57782222,-1.135785178,21.99071537,15.31673904,
57886666,-1.106205973,18.11564564,15.72514866,
57991111,-1.07188283,14.130164,16.22735168,
58095555,-1.039858955,10.13002992,16.72584785,
58200000,-1.016318511,6.030417604,17.1123463,
58304444,-1.001278203,1.789455321,17.36881144,
58408888,-1.000531815,-2.651754298,17.38173978,
58513333,-1.019005789,-7.17170472,17.06732131,
58617777,-1.065553733,-11.79410059,16.32349421,
58722222,-1.14265725,-16.4828966,15.22488519,
58826666,-1.25378854,-21.08815206,13.87947955,
58931111,-1.395049361,-25.63844491,12.47920475,
59035555,-1.557578104,-30.05655306,11.18294219,
59140000,-1.736303852,-34.28627104,10.03832851,
59244444,-1.92822692,-38.36320833,9.046167469,
59348888,-2.108607471,-42.27764605,8.2789286,
59453333,-2.287010934,-46.15758215,7.639677455,
59557777,-2.454521439,-49.90475392,7.124496109,
59662222,-2.608161962,-53.63574335,6.710515589,
59766666,-2.756295628,-57.28025914,6.355381849,
59871111,-2.895378782,-60.91150216,6.0552841,
59975555,-3.03401003,-64.56259581,5.783782051,
60080000,-3.169549798,-68.32816398,5.541518378,
60184444,-3.297169364,-72.07338496,5.331810211,
60288888,-3.424975064,-75.78813257,5.137638732,
60393333,-3.556461475,-79.5534395,4.952620586,
60497777,-3.69201139,-83.39823117,4.77586515,
60602222,-3.829667369,-87.26689331,4.609354027,
60706666,-3.96760944,-91.19076105,4.454267397,
60811111,-4.114029143,-95.17805528,4.301218047,
60915555,-4.266691595,-99.19783318,4.153029779,
61020000,-4.424973395,-103.2444628,4.010391728,
61124444,-4.589141404,-107.330633,3.873059883,
61228888,-4.766189679,-111.467178,3.7357929,
61333333,-4.942772371,-115.6384628,3.608917082,
61437777,-5.139099855,-119.8216385,3.478355122,
61542222,-5.345898038,-124.1182184,3.351489431,
61646666,-5.565463284,-128.4226753,3.227421286,
61751111,-5.714720896,-134.9870403,3.148702081,
61855555,-6.037348729,-137.0881957,2.992309133,
61960000,-6.299770598,-141.4621231,2.877360297,
62064444,-6.58600018,-145.976177,2.76286174,
62168888,-6.866403738,-150.3704268,2.660369458,
62273333,-7.17660194,-154.9687799,2.55677785,
62377777,-7.509415989,-159.6053885,2.455661496,
62482222,-7.869416642,-164.0547203,2.356479144,
62586666,-8.254803548,-168.7106899,2.26050557,
62691111,-8.670436795,-173.2572841,2.167235624,
62795555,-9.118085015,-177.895675,2.077028776,
62900000,-9.605375734,177.429415,1.989207078,
63004444,-10.11922367,172.6336395,1.906625396,
63108888,-10.6881288,167.8470945,1.825424262,
63213333,-11.30720433,162.9720246,1.747420294,
63317777,-11.98965373,158.025873,1.671967947,
63422222,-12.74947736,153.2230454,1.598830814,
63526666,-13.58665007,148.4617336,1.529247517,
63631111,-14.52663501,143.6278414,1.462411833,
63735555,-15.58490707,138.7086642,1.398792882,
63840000,-16.80602456,133.7069636,1.337660456,
63944444,-18.24083882,128.6844948,1.279071883,
64048888,-19.94117557,123.5514376,1.223901366,
64153333,-22.08031387,118.2472325,1.170849633,
64257777,-24.90009546,112.6692768,1.120631414,
64362222,-29.0814073,106.1921494,1.072861815,
64466666,-37.35258308,94.8325162,1.027499937,
64571111,-41.33365097,-63.75357935,1.017301681,
64675555,-30.60959319,-80.30659376,1.060749909,
64780000,-25.98606155,-87.02477036,1.105704723,
64884444,-23.02063343,-92.8211522,1.151987576,
64988888,-20.85626445,-98.38712402,1.19928181,
65093333,-19.15778435,-103.6455363,1.247650727,
65197777,-17.76504836,-108.6870364,1.297119512,
65302222,-16.59749812,-113.8335167,1.347289591,
65406666,-15.59703546,-118.7966372,1.398125653,
65511111,-14.72343204,-123.783252,1.449723353,
65615555,-13.95537924,-128.7739463,1.50173203,
65720000,-13.27509198,-133.8299274,1.553929192,
65824444,-12.67092941,-139.0263551,1.605918766,
65928888,-12.12234085,-144.0179582,1.658427131,
66033333,-11.62963868,-149.0104969,1.710507529,
66137777,-11.17811255,-154.065475,1.762880402,
66242222,-10.77293293,-159.1997912,1.814139895,
66346666,-10.40405632,-164.3547833,1.864731009,
66451111,-10.06457209,-169.5491864,1.914965795,
66555555,-9.757112638,-174.7569626,1.96382085,
66660000,-9.473909737,179.9691807,2.011926197,
66764444,-9.21516866,174.6471054,2.058720643,
66868888,-8.982931493,169.2728782,2.103235232,
66973333,-8.76909529,163.8284909,2.146495483,
67077777,-8.574411473,158.2945452,2.187918459,
67182222,-8.398264165,152.6406642,2.227187808,
67286666,-8.236858109,146.8653724,2.26476111,
67391111,-8.088869179,140.9432322,2.300628106,
67495555,-7.952951816,134.9254693,2.33483077,
67600000,-7.840396304,128.7410924,2.364115178,
67704444,-7.734038163,122.371124,2.392623709,
67808888,-7.639182752,115.7902701,2.41876302,
67913333,-7.554820769,108.9152542,2.442597702,
68017777,-7.478958456,101.7806809,2.464519083,
68122222,-7.413194915,94.33029007,2.483907738,
68226666,-7.34788762,86.52404029,2.503526128,
68331111,-7.287329547,78.29867436,2.522050742,
68435555,-7.222994744,69.58496425,2.542090841,
68540000,-7.153019325,60.36375014,2.564320792,
68644444,-7.070452791,50.58754791,2.591148573,
68748888,-6.967444975,40.20040229,2.625558941,
68853333,-6.841034175,29.16587103,2.669279682,
68957777,-6.677441546,17.45449496,2.728445735,
69062222,-6.471876798,5.076066404,2.807244629,
69166666,-6.212784117,-7.90716454,2.914342295,
69271111,-5.90365276,-21.44924544,3.054965408,
69375555,-5.543198157,-35.41146638,3.239540062,
69480000,-5.141430985,-49.65582029,3.476866441,
69584444,-4.716198714,-64.04770609,3.773482029,
69688888,-4.28500759,-78.36717612,4.135973698,
69793333,-3.861908049,-92.4628797,4.572097505,
69897777,-3.472383205,-106.2156816,5.069292497,
70002222,-3.124150133,-119.4821042,5.620299569,
70106666,-2.825798978,-132.1958506,6.201690332,
70211111,-2.578979713,-144.3065386,6.785325009,
70315555,-2.380727934,-155.7574438,7.34245996,
70420000,-2.225339651,-166.5440041,7.849003235,
70524444,-2.109826565,-176.7050674,8.274191573,
70628888,-2.02455935,173.7363282,8.619336135,
70733333,-1.964534887,164.7349343,8.880357001,
70837777,-1.922250185,156.238171,9.07406482,
70942222,-1.893889745,148.1984002,9.2088515,
71046666,-1.877180303,140.5823174,9.290179637,
71151111,-1.869331492,133.3198266,9.328885181,
71255555,-1.866320054,126.4038115,9.343822509,
71360000,-1.866106387,119.8067319,9.344884176,
71464444,-1.875694509,113.458759,9.297481712,
71568888,-1.882829479,107.3249493,9.262521837,
71673333,-1.893184988,101.4020491,9.212252582,
71777777,-1.907094167,95.66741074,9.145595033,
71882222,-1.920009667,90.10809396,9.08456773,
71986666,-1.93526586,84.66995374,9.013533989,
72091111,-1.950427295,79.36583393,8.944046872,
72195555,-1.965726168,74.18320476,8.875020899,
72300000,-1.982015007,69.08201446,8.802704581,
72404444,-2.000863491,64.08734745,8.720500237,
72508888,-2.020530707,59.15630131,8.63636735,
72613333,-2.04008118,54.30055345,8.554348779,
72717777,-2.059627171,49.49743277,8.473912638,
72822222,-2.080336168,44.73937713,8.390347177,
72926666,-2.10581956,40.03418836,8.289782288,
73031111,-2.131928264,35.33928951,8.189255146,
73135555,-2.157159187,30.69006193,8.094431281,
