Frequency,S11_Magnitude,S11_Magnitude (linear),S11_Phase,S11_Unwrapped Phase,S11_VSWR,
30000000,-0.9740295198,0.8939197324,-134.510397,-134.510397,17.85364776,
30104444,-1.019040696,0.8892993302,-138.1501458,-138.1501458,17.06673802,
30208888,-1.023631934,0.8888293834,-141.8669497,-141.8669497,16.99036528,
30313333,-1.032423758,0.8879301689,-145.5622211,-145.5622211,16.84601601,
30417777,-1.042320632,0.8869190199,-149.252318,-149.252318,16.68644027,
30522222,-1.052370304,0.885893438,-152.9360651,-152.9360651,16.52747576,
30626666,-1.062376788,0.8848734419,-156.6466045,-156.6466045,16.37218616,
30731111,-1.073081909,0.8837835314,-160.362297,-160.362297,16.20926495,
30835555,-1.084218616,0.8826511049,-164.078667,-164.078667,16.04319413,
30940000,-1.093856249,0.8816722817,-167.8007738,-167.8007738,15.90221048,
31044444,-1.106227219,0.8804174445,-171.556285,-171.556285,15.72484747,
31148888,-1.117109843,0.8793150529,-175.3020705,-175.3020705,15.57207504,
31253333,-1.126831419,0.8783314408,-179.0514395,-179.0514395,15.43810046,
31357777,-1.135459381,0.8774594002,177.1776465,-182.8223535,15.32112136,
31462222,-1.14576525,0.8764189059,173.4060684,-186.5939316,15.18370524,
31566666,-1.155859008,0.8754010226,169.6420506,-190.3579494,15.0514961,
31671111,-1.166380174,0.8743412966,165.8283368,-194.1716632,14.91612794,
31775555,-1.179740714,0.8729974282,161.9993558,-198.0006442,14.7477126,
31880000,-1.190717041,0.8718949213,158.1750746,-201.8249254,14.61218353,
31984444,-1.203411678,0.8706215566,154.3192373,-205.6807627,14.45852576,
32088888,-1.218765627,0.8690839281,150.4339509,-209.5660491,14.2769631,
32193333,-1.237956987,0.8671658183,146.5154698,-213.4845302,14.05636557,
32297777,-1.265396405,0.8644306948,142.5241974,-217.4758026,13.75260198,
32402222,-1.305150187,0.8604833883,138.4899928,-221.5100072,13.33521052,
32506666,-1.36884438,0.854196487,134.4092645,-225.5907355,12.71709062,
32611111,-1.472068142,0.8441052334,130.3788638,-229.6211362,11.82916703,
32715555,-1.621058583,0.8297496366,126.6553444,-233.3446556,10.74740517,
32820000,-1.762800194,0.8163191605,123.6157314,-236.3842686,9.888451974,
32924444,-1.806524706,0.8122201597,121.0240781,-238.9759219,9.650770589,
33028888,-1.748277187,0.8176852066,118.195368,-241.804632,9.970036842,
33133333,-1.666972761,0.8253750982,114.8804313,-245.1195687,10.45312026,
33237777,-1.599549904,0.8318068736,111.2955511,-248.7044489,10.89109236,
33342222,-1.548835263,0.8366777828,107.551635,-252.448365,11.24573138,
33446666,-1.512881623,0.840148234,103.7428861,-256.2571139,11.51159152,
33551111,-1.489089378,0.842452709,99.92086167,-260.0791383,11.69460101,
33655555,-1.471451199,0.8441651909,96.10003654,-263.8999635,11.83410306,
33760000,-1.459355342,0.8453415833,92.26773979,-267.7322602,11.93172426,
33864444,-1.444031987,0.8468342228,88.32270009,-271.6772999,12.05774721,
33968888,-1.438970914,0.8473277979,84.56866386,-275.4313361,12.0999617,
34073333,-1.434126955,0.8478004686,80.78595957,-279.2140404,12.14064492,
34177777,-1.428673793,0.8483329004,76.98059053,-283.0194095,12.18677555,
34282222,-1.423031364,0.8488841639,73.18950079,-286.8104992,12.23488028,
34386666,-1.419739212,0.8492059715,69.38350748,-290.6164925,12.26312467,
34491111,-1.415221895,0.8496477374,65.5901757,-294.4098243,12.30209447,
34595555,-1.414018699,0.8497654414,61.8042261,-298.1957739,12.31251623,
34700000,-1.40459113,0.8506882682,58.01574865,-301.9842513,12.39479474,
34804444,-1.406469471,0.850504325,54.21549773,-305.7845023,12.37831345,
34908888,-1.403616582,0.8507837199,50.42300554,-309.5769945,12.40336322,
35013333,-1.399947307,0.8511432017,46.64500861,-313.3549914,12.43573167,
35117777,-1.398089024,0.851325317,42.86510579,-317.1348942,12.45218944,
35222222,-1.397594801,0.8513737584,39.04758257,-320.9524174,12.45657388,
35326666,-1.393130206,0.8518114817,35.26065606,-324.7393439,12.49632227,
35431111,-1.389835845,0.8521346157,31.44860633,-328.5513937,12.52581613,
35535555,-1.385480986,0.852561959,27.62731576,-332.3726842,12.56502017,
35640000,-1.381390189,0.8529635851,23.76674039,-336.2332596,12.60207267,
35744444,-1.376883541,0.8534062575,19.89728171,-340.1027183,12.64314715,
35848888,-1.372559782,0.8538311814,16.04524921,-343.9547508,12.68280881,
35953333,-1.368758031,0.8542049788,12.20952227,-347.7904777,12.71788957,
36057777,-1.3639527,0.854677685,8.42592609,-351.5740739,12.76251128,
36162222,-1.362112381,0.8548587887,4.684481124,-355.3155189,12.77968381,
36266666,-1.359349991,0.8551307043,0.9462197119,-359.0537803,12.80554789,
36371111,-1.354819476,0.8555768523,-2.800916547,-362.8009165,12.84819561,
36475555,-1.352134693,0.8558413495,-6.552363298,-366.5523633,12.87360379,
36580000,-1.34701659,0.8563457969,-10.30114496,-370.301145,12.9223215,
36684444,-1.344449078,0.8565989666,-14.04794748,-374.0479475,12.94690088,
36788888,-1.341977646,0.8568427328,-17.82046131,-377.8204613,12.97064948,
36893333,-1.337489226,0.8572856194,-21.60882775,-381.6088277,13.0140047,
36997777,-1.333331104,0.8576961187,-25.3958985,-385.3958985,13.05443044,
37102222,-1.33066489,0.8579594369,-29.17639198,-389.176392,13.08048487,
37206666,-1.32814572,0.8582083071,-32.97582054,-392.9758205,13.10519868,
37311111,-1.324892832,0.8585297685,-36.68913535,-396.6891354,13.13724978,
37415555,-1.323431812,0.8586741906,-40.43835432,-400.4383543,13.15169677,
37520000,-1.316745669,0.8593354273,-44.52510799,-404.525108,13.21822114,
37624444,-1.316635502,0.8593463267,-48.13303595,-408.133036,13.21932292,
37728888,-1.314547429,0.8595529369,-51.85343888,-411.8534389,13.24024081,
37833333,-1.313101729,0.8596960149,-55.6432448,-415.6432448,13.2547626,
37937777,-1.310241109,0.8599791947,-59.45881967,-419.4588197,13.28359161,
38042222,-1.310087775,0.8599943762,-63.30102319,-423.3010232,13.28514045,
38146666,-1.308839383,0.860117989,-67.12959789,-427.1295979,13.29776413,
38251111,-1.308878403,0.8601141251,-70.91571339,-430.9157134,13.2973692,
38355555,-1.310109216,0.8599922533,-74.63568378,-434.6356838,13.28492385,
38460000,-1.311081309,0.8598960115,-78.36460359,-438.3646036,13.27511109,
38564444,-1.308159344,0.8601853323,-82.11864337,-442.1186434,13.30465082,
38668888,-1.307189824,0.8602813517,-85.8807769,-445.8807769,13.31448146,
38773333,-1.3085792,0.8601437539,-89.62378123,-449.6237812,13.30039813,
38877777,-1.309860804,0.860016849,-93.39798043,-453.3979804,13.28743378,
38982222,-1.315501295,0.8594585478,-97.17656895,-457.1765689,13.23067692,
39086666,-1.316116203,0.8593977055,-100.9436581,-460.9436581,13.22451894,
39191111,-1.321059146,0.8589087809,-104.7112131,-464.7112131,13.17522658,
39295555,-1.324881326,0.8585309057,-108.4745521,-468.4745521,13.13736343,
39400000,-1.328771165,0.8581465122,-112.2433146,-472.2433146,13.09905411,
39504444,-1.333311132,0.8576980909,-116.0329975,-476.0329975,13.05462521,
39608888,-1.341532638,0.856886633,-119.8030683,-479.8030683,12.97493499,
39713333,-1.349476249,0.8561033324,-123.5859104,-483.5859104,12.89886252,
39817777,-1.353766493,0.8556805795,-127.3894066,-487.3894066,12.85814877,
39922222,-1.359940971,0.855072524,-131.1819976,-491.1819976,12.80000573,
40026666,-1.368825984,0.8541982961,-134.9783019,-494.9783019,12.71726082,
40131111,-1.37786063,0.8533102619,-138.7764107,-498.7764107,12.63421891,
40235555,-1.385437312,0.8525662459,-142.5793869,-502.5793869,12.56541459,
40340000,-1.394672691,0.8516602261,-146.4030942,-506.4030942,12.48256066,
40444444,-1.404486779,0.8506984883,-150.2451303,-510.2451303,12.39571165,
40548888,-1.415035162,0.8496660038,-154.0985964,-514.0985964,12.30371074,
40653333,-1.425803329,0.8486132991,-157.9457446,-517.9457446,12.21120011,
40757777,-1.437899431,0.8474323298,-161.7448038,-521.7448038,12.10893715,
40862222,-1.451270442,0.8461288007,-165.499579,-525.499579,11.997884,
40966666,-1.464037219,0.8448860492,-169.2402645,-529.2402645,11.89374675,
41071111,-1.479105373,0.8434216238,-173.0099171,-533.0099171,11.77315584,
41175555,-1.493813764,0.8419946108,-176.8127175,-536.8127175,11.65779611,
41280000,-1.509116651,0.8405124823,179.3696511,-540.6303489,11.54016633,
41384444,-1.524367792,0.8390379612,175.5517975,-544.4482025,11.42528993,
41488888,-1.540630525,0.8374684866,171.7280332,-548.2719668,11.30530595,
41593333,-1.557928662,0.8358023096,167.8990098,-552.1009902,11.18043929,
41697777,-1.575937555,0.8340711937,164.0613545,-555.9386455,11.05336219,
41802222,-1.594235639,0.8323159515,160.2424136,-559.7575864,10.92719295,
41906666,-1.612441344,0.8305732366,156.4083949,-563.5916051,10.80451046,
42011111,-1.633983906,0.8285158186,152.5644421,-567.4355579,10.66288333,
42115555,-1.653209091,0.8266840252,148.6936216,-571.3063784,10.53961718,
42220000,-1.672938303,0.8248084183,144.7558626,-575.2441374,10.41607365,
42324444,-1.696123125,0.8226097331,140.8703631,-579.1296369,10.27457574,
42428888,-1.72125348,0.8202331661,137.0535961,-582.9464039,10.12552275,
42533333,-1.748845888,0.8176316712,133.2228772,-586.7771228,9.966816512,
42637777,-1.776804919,0.8150040259,129.4282491,-590.5717509,9.811046077,
42742222,-1.80907978,0.8119812691,125.6935682,-594.3064318,9.637238057,
42846666,-1.839538534,0.8091388862,121.9036494,-598.0963506,9.478823894,
42951111,-1.873062954,0.8060219192,118.0780986,-601.9219014,9.310443284,
43055555,-1.906172897,0.8029552743,114.2536262,-605.7463738,9.149979871,
43160000,-1.941138298,0.7997294425,110.4035529,-609.5964471,8.986490399,
43264444,-1.980440661,0.79611896,106.566607,-613.433393,8.809641934,
43368888,-2.019410454,0.7925551225,102.7219131,-617.2780869,8.641115385,
43473333,-2.062624583,0.7886217867,98.89120821,-621.1087918,8.461713052,
43577777,-2.106723311,0.7846280583,95.01273552,-624.9872645,8.28626071,
43682222,-2.154640163,0.780311472,91.03772764,-628.9622724,8.103798082,
43786666,-2.207796413,0.7755506735,87.26988307,-632.7301169,7.910697267,
43891111,-2.262316279,0.7706979185,83.47442844,-636.5255716,7.722118818,
43995555,-2.318797602,0.7657025967,79.53628535,-640.4637146,7.536159477,
44100000,-2.380201267,0.760308659,75.70996143,-644.2900386,7.344064462,
44204444,-2.449594371,0.7542586187,71.93850984,-648.0614902,7.138637414,
44308888,-2.519022222,0.7482537273,68.14093338,-651.8590666,6.944506898,
44413333,-2.595054286,0.7417324609,64.31352759,-655.6864724,6.743907759,
44517777,-2.675739216,0.7348742656,60.49678651,-659.5032135,6.543590609,
44622222,-2.759918651,0.7277866207,56.66757843,-663.3324216,6.347177443,
44726666,-2.851657984,0.720140276,52.85265375,-667.1473463,6.146437405,
44831111,-2.949675655,0.7120593889,49.04272719,-670.9572728,5.945876765,
44935555,-3.055678721,0.7034221894,45.24235586,-674.7576441,5.743592839,
45040000,-3.164652543,0.6946521318,41.46476125,-678.5352388,5.549906543,
45144444,-3.280980857,0.6854108218,37.6921075,-682.3078925,5.357497774,
45248888,-3.406235138,0.6755978255,33.93343817,-686.0665618,5.165186788,
45353333,-3.541550811,0.6651543865,30.21136742,-689.7886326,4.972901896,
45457777,-3.681725326,0.654506153,26.50418029,-693.4958197,4.788815105,
45562222,-3.833217337,0.6431897772,22.71862034,-697.2813797,4.605220568,
45666666,-3.990974356,0.6316133229,19.02557189,-700.9744281,4.429077989,
45771111,-4.159340508,0.6194881091,15.60321057,-704.3967894,4.25607753,
45875555,-4.338792712,0.6068206682,12.00636502,-707.993635,4.08673737,
45980000,-4.528532581,0.5937086425,8.658814608,-711.3411854,3.92257579,
46084444,-4.724875994,0.5804384855,5.44025991,-714.5597401,3.766881449,
46188888,-4.930187243,0.5668793511,2.34884206,-717.6511579,3.617651006,
46293333,-5.142327075,0.5532018786,-0.638737751,-720.6387378,3.476294559,
46397777,-5.360734674,0.5394649913,-3.521924149,-723.5219241,3.342775169,
46502222,-5.584332573,0.5257549513,-6.279592004,-726.279592,3.217229058,
46606666,-5.810131517,0.5122635138,-8.899992909,-728.8999929,3.100574914,
46711111,-6.032395983,0.4993214245,-11.39028069,-731.3902807,2.994578753,
46815555,-6.254281563,0.4867275419,-13.71337887,-733.7133789,2.896565982,
46920000,-6.466925611,0.474956373,-15.74797774,-735.7479777,2.809207268,
47024444,-6.668767779,0.4640466171,-17.67565958,-737.6756596,2.731667835,
47128888,-6.853062496,0.454304329,-19.33748679,-739.3374868,2.665046484,
47233333,-7.017267571,0.4457964661,-20.84082467,-740.8408247,2.608782474,
47337777,-7.157961151,0.4386336467,-22.23767123,-742.2376712,2.562735793,
47442222,-7.268843597,0.433069721,-23.5359099,-743.5359099,2.527770652,
47546666,-7.345058603,0.4292863405,-24.72834585,-744.7283459,2.504384321,
47651111,-7.388475799,0.4271458685,-25.88269833,-745.8826983,2.491290173,
47755555,-7.395124656,0.4268190229,-27.02155801,-747.021558,2.489299331,
47860000,-7.371351478,0.4279888216,-28.20172639,-748.2017264,2.496435167,
47964444,-7.3128431,0.4308814971,-29.45481379,-749.4548138,2.514206601,
48068888,-7.225077679,0.4352573525,-30.85351246,-750.8535125,2.541436101,
48173333,-7.107027123,0.4412133492,-32.48610096,-752.486101,2.579183571,
48277777,-6.972869515,0.4480809952,-34.07921997,-754.07922,2.623720116,
48382222,-6.823278031,0.4558648413,-35.53794127,-755.5379413,2.675557383,
48486666,-6.658678618,0.4645859472,-37.20458949,-757.2045895,2.735426796,
48591111,-6.486084553,0.4739098903,-39.1134922,-759.1134922,2.801630107,
48695555,-6.306413602,0.4838149899,-41.18465154,-761.1846515,2.874579775,
48800000,-6.123871174,0.494090429,-43.40626686,-763.4062669,2.953275674,
48904444,-5.93481038,0.5049629112,-45.86104802,-765.861048,3.040101329,
49008888,-5.751246721,0.5157481324,-48.29339335,-768.2933933,3.130082161,
49113333,-5.574300848,0.5263625202,-50.90217443,-770.9021744,3.222638801,
49217777,-5.399662528,0.537052662,-53.58600139,-773.5860014,3.320145805,
49322222,-5.225879882,0.5479059364,-56.37059665,-776.3705967,3.423858133,
49426666,-5.059100274,0.5585280467,-59.24761903,-779.247619,3.530299117,
49531111,-4.900384382,0.5688277576,-62.1756966,-782.1756966,3.638517519,
49635555,-4.748344456,0.5788723118,-65.17514111,-785.1751411,3.749153419,
49740000,-4.601750411,0.5887250014,-68.21636757,-788.2163676,3.862926283,
49844444,-4.464232397,0.5981200764,-71.32071397,-791.320714,3.97661088,
49948888,-4.331470867,0.6073324086,-74.45070676,-794.4507068,4.093366613,
50053333,-4.20496295,0.616242792,-77.59411786,-797.5941179,4.211628494,
50157777,-4.086628439,0.6246957885,-80.77981796,-800.779818,4.329010276,
50262222,-3.975305052,0.6327537788,-83.97644459,-803.9764446,4.445937587,
50366666,-3.868794982,0.6405606422,-87.19156801,-807.191568,4.564220936,
50471111,-3.765340504,0.6482357444,-90.44380351,-810.4438035,4.685626007,
50575555,-3.667387844,0.6555874146,-93.74230862,-813.7423086,4.806988725,
50680000,-3.574695049,0.6626210793,-97.03377268,-817.0337727,4.928052635,
50784444,-3.485235734,0.6694809339,-100.3001102,-820.3001102,5.051088137,
50888888,-3.402552285,0.6758843425,-103.5577606,-823.5577606,5.170636789,
50993333,-3.325505136,0.6819063634,-106.8538122,-826.8538122,5.287456805,
51097777,-3.250622087,0.6878106493,-110.1499872,-830.1499872,5.406368428,
51202222,-3.180434575,0.6933911132,-113.4523997,-833.4523997,5.52296814,
51306666,-3.115458034,0.6985976144,-116.7774058,-836.7774058,5.635647546,
51411111,-3.052417665,0.7036863338,-120.141003,-840.141003,5.749604315,
51515555,-2.991210436,0.7086625428,-123.4223356,-843.4223356,5.864891384,
51620000,-2.935419994,0.7132290115,-126.6678323,-846.6678323,5.974206178,
51724444,-2.882822349,0.7175610927,-129.9539057,-849.9539057,6.081177374,
51828888,-2.831997999,0.7217721159,-133.2519289,-853.2519289,6.188352119,
51933333,-2.784050218,0.7257674542,-136.5724713,-856.5724713,6.293080381,
52037777,-2.739384007,0.7295092444,-139.8919527,-859.8919527,6.393968031,
52142222,-2.694533038,0.7332859234,-143.2152591,-863.2152591,6.498666833,
52246666,-2.652083566,0.7368783922,-146.5646296,-866.5646296,6.601048111,
52351111,-2.61440006,0.7400822648,-149.8256458,-869.8256458,6.694742333,
52455555,-2.578588284,0.7431399105,-153.120622,-873.120622,6.786340041,
52560000,-2.54265119,0.746220955,-156.4178059,-876.4178059,6.880871331,
52664444,-2.510349761,0.7490011973,-159.7124979,-879.7124979,6.9681655,
52768888,-2.476521879,0.7519239293,-163.0474815,-883.0474815,7.062043204,
52873333,-2.444607954,0.7546917497,-166.3400418,-886.3400418,7.153007481,
52977777,-2.417368833,0.7570621928,-169.5703009,-889.5703009,7.232559695,
53082222,-2.390797161,0.759381726,-172.8316934,-892.8316934,7.311920648,
53186666,-2.364926636,0.7616468815,-176.113017,-896.113017,7.390911821,
53291111,-2.340103891,0.7638266475,-179.4207655,-899.4207655,7.468355886,
53395555,-2.315228088,0.766017331,177.2987768,-902.7012232,7.54764162,
53500000,-2.291310669,0.768129539,173.9854623,-906.0145377,7.625505773,
53604444,-2.26869906,0.7701317832,170.6802743,-909.3197257,7.700637382,
53708888,-2.246611502,0.772092662,167.3608697,-912.6391303,7.775496294,
53813333,-2.224797905,0.7740341194,164.0373189,-915.9626811,7.850893747,
53917777,-2.204675307,0.7758294027,160.7378233,-919.2621767,7.921776649,
54022222,-2.186534007,0.777451489,157.4345464,-922.5654536,7.986804678,
54126666,-2.168570387,0.7790610299,154.1758248,-925.8241752,8.052273572,
54231111,-2.151789088,0.7805676451,150.8720686,-929.1279314,8.114426178,
54335555,-2.13461447,0.7821125891,147.5742068,-932.4257932,8.179052575,
54440000,-2.11900511,0.7835193827,144.2665937,-935.7334063,8.238702405,
54544444,-2.101319708,0.7851163373,140.9817512,-939.0182488,8.30736183,
54648888,-2.087287633,0.7863857197,137.6934226,-942.3065774,8.362669934,
54753333,-2.071222161,0.7878415692,134.4119467,-945.5880533,8.426917386,
54857777,-2.057667549,0.7890719813,131.1149921,-948.8850079,8.481907679,
54962222,-2.045704633,0.7901595043,127.7872598,-952.2127402,8.53104878,
55066666,-2.032292557,0.7913805498,124.4540024,-955.5459976,8.586833815,
55171111,-2.017994749,0.7926843109,121.1364079,-958.8635921,8.647123227,
55275555,-2.007926689,0.7936036664,117.868359,-962.131641,8.690094609,
55380000,-1.994078932,0.7948699035,114.640673,-965.359327,8.749910102,
55484444,-1.988286852,0.7954001295,111.3652781,-968.6347219,8.775177255,
55588888,-1.979934699,0.796165336,108.0848645,-971.9151355,8.811873806,
55693333,-1.971790104,0.7969122354,104.7803783,-975.2196217,8.847959102,
55797777,-1.963131253,0.7977070629,101.4095196,-978.5904804,8.886652638,
55902222,-1.950213908,0.798894267,98.03374307,-981.9662569,8.945017331,
56006666,-1.940248587,0.7998113644,94.6989497,-985.3010503,8.990577108,
56111111,-1.929821225,0.80077211,91.34304855,-988.6569514,9.038755117,
56215555,-1.918506708,0.801815901,87.96226949,-992.0377305,9.091626977,
56320000,-1.907090517,0.8028704506,84.59082754,-995.4091725,9.145612398,
56424444,-1.898076433,0.8037040899,81.26262274,-998.7373773,9.18869929,
56528888,-1.888294624,0.804609709,77.82131782,-1002.178682,9.235923135,
56633333,-1.883053067,0.8050954026,74.53987592,-1005.460124,9.261430601,
56737777,-1.87845102,0.8055220795,71.24288179,-1008.757118,9.283943777,
56842222,-1.871334742,0.8061823075,67.86687508,-1012.133125,9.318975396,
56946666,-1.860648924,0.8071747239,64.40712054,-1015.592879,9.372084201,
57051111,-1.850979799,0.8080737704,60.94300642,-1019.056994,9.420670506,
57155555,-1.850962777,0.808075354,57.66939839,-1022.330602,9.420756487,
57260000,-1.849328527,0.8082274077,54.26815533,-1025.731845,9.429018955,
57364444,-1.843377212,0.8087813709,50.85839306,-1029.141607,9.459231979,
57468888,-1.837441638,0.8093342473,47.42365361,-1032.576346,9.48956077,
57573333,-1.832401816,0.8098039843,43.98469545,-1036.015305,9.515467387,
57677777,-1.826286317,0.8103743461,40.49393764,-1039.506062,9.547096126,
57782222,-1.820440304,0.8109199498,36.94054004,-1043.05946,9.577530511,
57886666,-1.819685553,0.8109904168,33.51719648,-1046.482804,9.581474053,
57991111,-1.817381682,0.8112055549,30.01298058,-1049.987019,9.593532022,
58095555,-1.81329705,0.8115871226,26.41607534,-1053.583925,9.614985705,
58200000,-1.807982841,0.8120838205,22.94709089,-1057.052909,9.643043112,
58304444,-1.811797804,0.8117272204,19.46024544,-1060.539755,9.622884539,
