Frequency,S11_Magnitude,S11_Phase,S11_VSWR,
30000000,-0.9556054336,-137.6832861,18.19715277,
30104444,-0.9966776059,-141.351464,17.44880783,
30208888,-1.00934507,-145.0310018,17.23030498,
30313333,-1.020987651,-148.7089143,17.0342675,
30417777,-1.033988336,-152.4111004,16.82058545,
30522222,-1.04504169,-156.113081,16.6430967,
30626666,-1.057653188,-159.8290737,16.44512462,
30731111,-1.070165236,-163.5523516,16.25333032,
30835555,-1.082286399,-167.2879607,16.07176203,
30940000,-1.092817705,-171.0107859,15.91728308,
31044444,-1.102595321,-174.7569611,15.77650485,
31148888,-1.112167565,-178.4939683,15.64108463,
31253333,-1.123121804,177.7891252,15.48894922,
31357777,-1.131900954,174.0673019,15.36915062,
31462222,-1.139592445,170.3237599,15.26571309,
31566666,-1.151072394,166.5666988,15.11390221,
31671111,-1.16076461,162.8188929,14.9880735,
31775555,-1.169509756,159.0770293,14.87633258,
31880000,-1.179231416,155.3157192,14.75406245,
31984444,-1.188769017,151.5484425,14.6360536,
32088888,-1.195344343,147.7743712,14.55579538,
32193333,-1.204965705,144.0099691,14.43993837,
32297777,-1.214202631,140.241946,14.33044087,
32402222,-1.221538482,136.4924866,14.24466106,
32506666,-1.228852921,132.7309787,14.16015297,
32611111,-1.23579743,128.9511886,14.08084619,
32715555,-1.242638105,125.1562085,14.00359329,
32820000,-1.249796747,121.3646469,13.92365664,
32924444,-1.256566569,117.5840321,13.84890108,
33028888,-1.264521727,113.7702472,13.7620812,
33133333,-1.270910996,109.9808316,13.6931393,
33237777,-1.279163227,106.1823188,13.60511656,
33342222,-1.286946993,102.3686672,13.52312713,
33446666,-1.297754824,98.5464443,13.41091791,
33551111,-1.307477573,94.73653539,13.31156224,
33655555,-1.321457483,90.89969294,13.17127035,
33760000,-1.340300019,87.05734669,12.98682021,
33864444,-1.366649184,83.21692088,12.73743335,
33968888,-1.398014656,79.43907151,12.45284899,
34073333,-1.438683911,75.72730753,12.10236451,
34177777,-1.477532728,72.1391219,11.78562653,
34282222,-1.500397671,68.67704755,11.6068923,
34386666,-1.500430089,65.2141183,11.60664277,
34491111,-1.47702147,61.67697553,11.78968642,
34595555,-1.450564063,58.05581305,12.00369951,
34700000,-1.423824134,54.39144794,12.22809842,
34804444,-1.404944256,50.71808609,12.3916929,
34908888,-1.386321807,46.97099722,12.55743157,
35013333,-1.371622906,43.2348805,12.69143577,
35117777,-1.361088316,39.48231037,12.7892598,
35222222,-1.35008545,35.7011975,12.8930655,
35326666,-1.339816808,31.92092709,12.99148543,
35431111,-1.334658074,28.20084614,13.04150207,
35535555,-1.32844863,24.44994236,13.10222207,
35640000,-1.320814633,20.69728746,13.17765625,
35744444,-1.317563699,16.94738706,13.21004575,
35848888,-1.311836922,13.20560059,13.26749365,
35953333,-1.304481391,9.463473555,13.34202171,
36057777,-1.300237268,5.712316483,13.38540857,
36162222,-1.295971825,1.963539363,13.42930024,
36266666,-1.290124316,-1.76025333,13.48994401,
36371111,-1.284098746,-5.515287755,13.55301329,
36475555,-1.280062415,-9.271660466,13.59559403,
36580000,-1.274871685,-13.01212416,13.65074998,
36684444,-1.272091903,-16.76872676,13.68047296,
36788888,-1.266773926,-20.53826323,13.73769986,
36893333,-1.26160144,-24.28502243,13.7938248,
36997777,-1.256893956,-28.04451106,13.84530637,
37102222,-1.250257794,-31.80385913,13.9185398,
37206666,-1.246522048,-35.5663303,13.96010928,
37311111,-1.243615477,-39.29350963,13.99262517,
37415555,-1.238020551,-43.06187361,14.05564632,
37520000,-1.235206167,-46.86498736,14.08756367,
37624444,-1.234170573,-50.69135332,14.09934483,
37728888,-1.23110373,-54.47784188,14.13435041,
37833333,-1.226480519,-58.19554383,14.18745212,
37937777,-1.225080897,-61.88420556,14.20360719,
38042222,-1.222504769,-65.54109976,14.2334389,
38146666,-1.222575563,-69.2009257,14.23261742,
38251111,-1.220381651,-72.88001374,14.25811956,
38355555,-1.220893079,-76.58315482,14.25216648,
38460000,-1.222061088,-80.29946784,14.23858947,
38564444,-1.220900482,-84.00825819,14.25208035,
38668888,-1.221053821,-87.71216573,14.25029646,
38773333,-1.221267742,-91.42903208,14.24780855,
38877777,-1.224067092,-95.13125436,14.2153321,
38982222,-1.225751993,-98.85119514,14.19585649,
39086666,-1.226693839,-102.5542089,14.18499312,
39191111,-1.22861909,-106.2724611,14.16283896,
39295555,-1.231969835,-109.9727865,14.12444681,
39400000,-1.233872794,-113.6569234,14.1027361,
39504444,-1.238348509,-117.3357923,14.05193646,
39608888,-1.241952691,-121.0175528,14.01129537,
39713333,-1.247965455,-124.7161126,13.94401823,
39817777,-1.250880773,-128.3709861,13.9116318,
39922222,-1.256546219,-132.0629845,13.84912459,
40026666,-1.262645283,-135.7471344,13.78246131,
40131111,-1.267903646,-139.4347242,13.72550269,
40235555,-1.274098738,-143.13098,13.65900172,
40340000,-1.280845968,-146.8097394,13.58730702,
40444444,-1.287153673,-150.502148,13.52096363,
40548888,-1.293872697,-154.2164756,13.45100684,
40653333,-1.299846561,-157.9371936,13.38941697,
40757777,-1.309375632,-161.5618328,13.29233865,
40862222,-1.3186008,-165.2058033,13.19969559,
40966666,-1.328252481,-168.8693754,13.10414942,
41071111,-1.336456037,-172.5632637,13.02402595,
41175555,-1.34509716,-176.2497147,12.94068778,
41280000,-1.353737109,-179.9222264,12.85842674,
41384444,-1.36337119,176.4080645,12.76793249,
41488888,-1.373498833,172.73422,12.67417367,
41593333,-1.381647877,169.0646989,12.59973216,
41697777,-1.391295099,165.3965273,12.51273441,
41802222,-1.400933678,161.7278246,12.42701372,
41906666,-1.412427472,158.0704143,12.32632634,
42011111,-1.42280228,154.4071299,12.23684143,
42115555,-1.433138936,150.7556893,12.14897689,
42220000,-1.446315162,147.1098045,12.03880013,
42324444,-1.45738118,143.4428093,11.94781118,
42428888,-1.468871658,139.7740201,11.85478638,
42533333,-1.479241366,136.0781166,11.77207869,
42637777,-1.494991473,132.4435874,11.64865758,
42742222,-1.509241084,128.7918788,11.53921965,
42846666,-1.52071494,125.0975908,11.45259399,
42951111,-1.537836643,121.5288343,11.32573779,
43055555,-1.552883712,117.9133663,11.21656817,
43160000,-1.569616025,114.2269933,11.09763609,
43264444,-1.588215111,110.671779,10.96838398,
43368888,-1.606685938,107.0712884,10.84299292,
43473333,-1.625517694,103.4524413,10.71809364,
43577777,-1.64637967,99.81639611,10.58307472,
43682222,-1.667092125,96.19850438,10.45237639,
43786666,-1.690514207,92.57058875,10.30845018,
43891111,-1.713160665,88.94490907,10.17304389,
43995555,-1.735777692,85.34098229,10.04135122,
44100000,-1.761343536,81.71498598,9.896574031,
44204444,-1.789518666,78.09940676,9.741828384,
44308888,-1.817811705,74.49571227,9.591279047,
44413333,-1.848539967,70.87743149,9.43301101,
44517777,-1.881457886,67.28040287,9.269221691,
44622222,-1.914792305,63.67689494,9.109120886,
44726666,-1.952118133,60.09414316,8.936364691,
44831111,-1.990800515,56.50932157,8.76419361,
44935555,-2.031868888,52.93130266,8.588608043,
45040000,-2.076968969,49.39208863,8.403820598,
45144444,-2.123737349,45.85829806,8.22052548,
45248888,-2.176255094,42.31680074,8.024133475,
45353333,-2.229799788,38.78504577,7.833473953,
45457777,-2.286789708,35.23531682,7.640408054,
45562222,-2.345846657,31.68567644,7.450292511,
45666666,-2.41287495,28.25159794,7.245857874,
45771111,-2.484735342,24.84973468,7.039012964,
45875555,-2.559310124,21.46960143,6.836718109,
45980000,-2.636013656,18.03439605,6.640673349,
46084444,-2.713037542,14.63030774,6.455047557,
46188888,-2.797038415,11.26674103,6.264353707,
46293333,-2.885436401,7.957821751,6.075768057,
46397777,-2.979612184,4.667249827,5.887276476,
46502222,-3.078834394,1.464632294,5.701277352,
46606666,-3.180386971,-1.613841769,5.52304899,
46711111,-3.283978942,-4.602695673,5.352721144,
46815555,-3.387771295,-7.558344304,5.192630898,
46920000,-3.491859264,-10.4849081,5.041759575,
47024444,-3.595387524,-13.28660634,4.900477644,
47128888,-3.697343194,-16.0303931,4.769181291,
47233333,-3.793461289,-18.65115339,4.651960074,
47337777,-3.887270474,-21.21196485,4.543230693,
47442222,-3.973491783,-23.69764463,4.447897332,
47546666,-4.047920858,-26.1116854,4.368923993,
47651111,-4.111731709,-28.4616825,4.303533818,
47755555,-4.163085553,-30.78272297,4.252391398,
47860000,-4.199107123,-33.27333569,4.21727864,
47964444,-4.222061276,-35.3389598,4.195222169,
48068888,-4.227489187,-37.4780286,4.190042228,
48173333,-4.216561499,-39.69645123,4.200484559,
48277777,-4.190937523,-41.92298094,4.225188182,
48382222,-4.149457944,-44.07885626,4.265837188,
48486666,-4.092422807,-46.26694073,4.32310151,
48591111,-4.025865422,-48.54901039,4.392016189,
48695555,-3.947776687,-51.02954728,4.475886867,
48800000,-3.859176852,-53.52570238,4.575229082,
48904444,-3.766127723,-55.92710383,4.684676608,
49008888,-3.668094096,-58.433145,4.806090133,
49113333,-3.566599918,-61.02187885,4.93892859,
49217777,-3.465069312,-63.68037185,5.079713011,
49322222,-3.362316882,-66.4189254,5.230966062,
49426666,-3.258611334,-69.25090763,5.39341825,
49531111,-3.157732352,-72.12659995,5.561804505,
49635555,-3.060702132,-75.04882061,5.734357934,
49740000,-2.96404139,-78.03609254,5.917606907,
49844444,-2.872398227,-81.0706965,6.102847061,
49948888,-2.785436894,-84.14081886,6.290000514,
50053333,-2.699854477,-87.23362563,6.48606126,
50157777,-2.619464282,-90.36502542,6.681992931,
50262222,-2.541779661,-93.50834957,6.883197295,
50366666,-2.468321642,-96.70385039,7.085190292,
50471111,-2.398941999,-99.92787365,7.28740662,
50575555,-2.334662157,-103.1193499,7.485554886,
50680000,-2.271520719,-106.3877291,7.691179703,
50784444,-2.213360292,-109.5980807,7.891024387,
50888888,-2.159285686,-112.8192204,8.086541157,
50993333,-2.108029223,-116.0585726,8.281177421,
51097777,-2.059511537,-119.3016667,8.474383988,
51202222,-2.014389064,-122.5458939,8.662463022,
51306666,-1.97107177,-125.8114865,8.851156113,
51411111,-1.932144757,-129.1025424,9.027974386,
51515555,-1.893613108,-132.3511587,9.210186219,
51620000,-1.859590614,-135.6155981,9.377377376,
51724444,-1.825630963,-138.9256108,9.550498168,
51828888,-1.79253475,-142.2056199,9.725552455,
51933333,-1.76650797,-145.4219381,9.86783876,
52037777,-1.738743775,-148.6740618,10.02433549,
52142222,-1.71395257,-151.9012966,10.16837395,
52246666,-1.690735899,-155.1375427,10.30710702,
52351111,-1.669080827,-158.3938582,10.43999861,
52455555,-1.648411357,-161.6251802,10.57010878,
52560000,-1.630202685,-164.8820719,10.68747056,
52664444,-1.612990029,-168.1476896,10.80085615,
52768888,-1.595264092,-171.4194516,10.92018769,
52873333,-1.579143663,-174.6739129,11.03104352,
52977777,-1.564632028,-177.9338333,11.13279527,
53082222,-1.550343496,178.8246112,11.23484889,
53186666,-1.536043042,175.5628724,11.33889378,
53291111,-1.523227549,172.3032721,11.43379884,
53395555,-1.511235436,169.0412384,11.52406794,
53500000,-1.499503835,165.7615404,11.61377675,
53604444,-1.487277565,162.4983858,11.70877795,
53708888,-1.477110055,159.1895178,11.78898277,
53813333,-1.468698045,155.9373272,11.85618107,
53917777,-1.463547222,152.7483291,11.89771,
54022222,-1.457055362,149.5015248,11.95047039,
54126666,-1.449823839,146.2363429,12.00979974,
54231111,-1.44462911,142.9661844,12.05278614,
54335555,-1.437940704,139.7118407,12.10859117,
54440000,-1.431651786,136.4428083,12.16153978,
54544444,-1.424967786,133.1052788,12.21832822,
54648888,-1.424796151,129.8939307,12.21979349,
54753333,-1.422748603,126.6323258,12.23730103,
54857777,-1.419340039,123.3779333,12.26655823,
54962222,-1.41728898,120.0855829,12.28423133,
55066666,-1.419042851,116.7891728,12.2691158,
55171111,-1.414250173,113.4642097,12.31050988,
55275555,-1.416589699,110.2168945,12.29026846,
55380000,-1.419217788,106.9501055,12.26761018,
55484444,-1.419953092,103.6296084,12.26128574,
55588888,-1.421388065,100.2868616,12.24896227,
55693333,-1.421764589,96.92774034,12.24573282,
55797777,-1.422813313,93.50938782,12.23674696,
55902222,-1.424791582,90.1337619,12.2198325,
56006666,-1.429548675,86.80672956,12.17935079,
56111111,-1.441755942,83.57242136,12.07669498,
56215555,-1.456996183,80.29043547,11.95095351,
56320000,-1.468799802,76.98402598,11.85536359,
56424444,-1.482164452,73.62781961,11.74897407,
56528888,-1.494677881,70.28565877,11.65108951,
56633333,-1.510354041,66.91691333,11.53075922,
56737777,-1.531942085,63.52255255,11.36909019,
56842222,-1.552094962,60.14971575,11.222238,
56946666,-1.57622096,56.74565557,11.05138566,
57051111,-1.603547252,53.34470978,10.86409591,
57155555,-1.634708984,49.95552525,10.65818157,
57260000,-1.666298966,46.53510379,10.45732131,
57364444,-1.700998312,43.10463049,10.24531463,
57468888,-1.741170185,39.67003672,10.01045899,
57573333,-1.783409593,36.11937129,9.774964516,
57677777,-1.839394481,32.75660392,9.479560711,
57782222,-1.898772984,29.42575429,9.185355164,
57886666,-1.96218158,26.07252763,8.890917287,
57991111,-2.027156654,22.69705718,8.608392,
58095555,-2.101164766,19.31037708,8.30796849,
58200000,-2.178323358,15.8151706,8.01659393,
58304444,-2.269785766,12.55773969,7.696992145,
58408888,-2.363404781,9.274256898,7.395612733,
58513333,-2.462121464,6.03787117,7.1027948,
58617777,-2.568043743,2.858894791,6.813800849,
58722222,-2.681508923,-0.211739513,6.529731483,
58826666,-2.798572821,-3.226480537,6.260977742,
58931111,-2.920961242,-6.057754753,6.003224336,
59035555,-3.039705041,-8.933681756,5.773163364,
59140000,-3.163312792,-11.58784335,5.552205885,
59244444,-3.282126434,-14.22608801,5.355671568,
59348888,-3.385343803,-16.68674941,5.196261599,
59453333,-3.483650012,-18.98924879,5.053326798,
59557777,-3.569994976,-21.2451302,4.93436118,
59662222,-3.632460425,-23.55085766,4.851870702,
59766666,-3.677240252,-25.72017698,4.794484747,
59871111,-3.699532237,-27.85383082,4.766442807,
59975555,-3.707256065,-29.87638824,4.756806553,
60080000,-3.695595273,-31.9761289,4.771370299,
60184444,-3.662572701,-34.147192,4.813124601,
60288888,-3.606144992,-36.42211565,4.886268931,
60393333,-3.538146515,-38.75079213,4.977556682,
60497777,-3.461112719,-41.13820179,5.085368791,
60602222,-3.376999325,-43.63789696,5.208782413,
60706666,-3.288318019,-46.19995735,5.345823617,
60811111,-3.196739559,-48.84494073,5.495419558,
60915555,-3.104808903,-51.5912543,5.654569522,
61020000,-3.013258352,-54.40469914,5.822817842,
61124444,-2.920639598,-57.31395351,6.003873161,
61228888,-2.833399995,-60.28189205,6.185343658,
61333333,-2.742900389,-63.33501799,6.385905416,
61437777,-2.667672768,-66.3538144,6.563067914,
61542222,-2.58392761,-69.40088898,6.772521107,
61646666,-2.507542644,-72.56955938,6.975858659,
61751111,-2.132497771,-74.26773215,8.187089924,
61855555,-2.370593346,-78.90773082,7.37346112,
61960000,-2.29987071,-82.08817807,7.597451031,
62064444,-2.235373264,-85.31841565,7.814155839,
62168888,-2.174046782,-88.5685565,8.032199464,
62273333,-2.116609959,-91.82484904,8.247933514,
62377777,-2.058659813,-95.09110844,8.477857438,
62482222,-2.002624521,-98.33321698,8.712899201,
62586666,-1.94797113,-101.5951009,8.955230116,
62691111,-1.892389967,-104.832753,9.216092318,
62795555,-1.838077834,-108.0944183,9.486300614,
62900000,-1.785531885,-111.4003374,9.763427231,
63004444,-1.722995371,-114.6158218,10.11535291,
63108888,-1.661484292,-117.8810798,10.48743988,
63213333,-1.595843197,-121.1527119,10.91624713,
63317777,-1.527431147,-124.483329,11.40249315,
63422222,-1.449313586,-127.8391179,12.01400841,
63526666,-1.365777522,-131.2729045,12.74552916,
63631111,-1.279879681,-134.8489702,13.59752813,
63735555,-1.197928538,-138.542584,14.52449433,
63840000,-1.127729971,-142.3972862,15.42583415,
63944444,-1.080796717,-146.3574668,16.09385686,
64048888,-1.063311383,-150.3936238,16.3578317,
64153333,-1.074790195,-154.3957948,16.18356719,
64257777,-1.106190769,-158.2981574,15.72536421,
64362222,-1.150144394,-162.0675274,15.12606133,
64466666,-1.197834581,-165.7140831,14.52563002,
64571111,-1.241132124,-169.2771912,14.02052736,
64675555,-1.278209935,-172.7826905,13.61522671,
64780000,-1.310614942,-176.2243253,13.279817,
64884444,-1.335767991,-179.6602987,13.03070815,
64988888,-1.359035255,176.9040184,12.80850143,
65093333,-1.375877426,173.5040616,12.6523539,
65197777,-1.389474186,170.0952219,12.52906255,
65302222,-1.399456435,166.6644965,12.44007479,
65406666,-1.406417769,163.2199385,12.37876652,
65511111,-1.41615551,159.794295,12.29401997,
65615555,-1.422914454,156.3564849,12.23588105,
65720000,-1.427985173,152.8850207,12.19262599,
65824444,-1.431474827,149.4095865,12.16303641,
65928888,-1.433128212,145.9117397,12.1490674,
66033333,-1.43504585,142.4055626,12.13290619,
66137777,-1.433929476,138.869184,12.14230935,
66242222,-1.433394913,135.3170217,12.14681713,
66346666,-1.431701038,131.7616153,12.1611233,
66451111,-1.429846851,128.1800384,12.17682238,
66555555,-1.427498586,124.5822635,12.19676339,
66660000,-1.423353455,120.9539523,12.232124,
66764444,-1.421809078,117.3402494,12.24535135,
66868888,-1.42216514,113.6730107,12.24229919,
66973333,-1.420290906,109.9915322,12.25838237,
67077777,-1.418424825,106.30409,12.27443791,
67182222,-1.415742504,102.5832679,12.29759059,
67286666,-1.411665985,98.84360911,12.33294627,
67391111,-1.407991521,95.05025925,12.36499073,
67495555,-1.404762162,91.2447844,12.39329221,
67600000,-1.402531164,87.42054383,12.41292054,
67704444,-1.393455899,83.5333961,12.49341399,
67808888,-1.384753777,79.62205959,12.57159085,
67913333,-1.382851254,75.7182882,12.58881382,
68017777,-1.380978663,71.76886356,12.60581224,
68122222,-1.376235162,67.76540977,12.64907879,
68226666,-1.371033836,63.68006532,12.6968661,
68331111,-1.36462373,59.60562376,12.75626126,
68435555,-1.358928227,55.45654334,12.80950611,
68540000,-1.355401808,51.28256192,12.84269786,
68644444,-1.351004497,47.03157929,12.88432997,
68748888,-1.346342732,42.72263019,12.9287634,
68853333,-1.339150634,38.33833549,12.99792263,
68957777,-1.333339707,33.89345748,13.05434653,
69062222,-1.330164858,29.40556457,13.08538288,
69166666,-1.325646279,24.85988741,13.12981196,
69271111,-1.323848988,20.21071948,13.14756836,
69375555,-1.317268568,15.47653851,13.21299411,
69480000,-1.312543434,10.64933708,13.26037914,
69584444,-1.308615112,5.717166213,13.30003451,
69688888,-1.306993143,0.6939650788,13.31647752,
69793333,-1.302236771,-4.454878768,13.36493274,
69897777,-1.301448311,-9.708633247,13.37299941,
70002222,-1.30199534,-15.1110913,13.36740176,
70106666,-1.300901869,-20.66204796,13.37859576,
70211111,-1.302180376,-26.3595462,13.36550938,
70315555,-1.303648608,-32.24257449,13.35051277,
70420000,-1.305583661,-38.31035392,13.33079964,
70524444,-1.311436017,-44.57713191,13.27153413,
70628888,-1.319377125,-51.09034685,13.19195862,
70733333,-1.329196233,-57.80815031,13.09488143,
70837777,-1.342160372,-64.82534528,12.96889063,
70942222,-1.358185012,-72.12685965,12.81648712,
71046666,-1.376539531,-79.74344782,12.6462936,
71151111,-1.399437485,-87.71504011,12.44024252,
71255555,-1.426577194,-96.0473542,12.20460565,
71360000,-1.456660253,-104.7947812,11.95369671,
71464444,-1.490528783,-113.9591422,11.68336268,
71568888,-1.532217783,-123.5850432,11.36705507,
71673333,-1.578406062,-133.6820835,11.03617013,
71777777,-1.62870507,-144.2656312,10.69724039,
71882222,-1.683026585,-155.3582065,10.35402385,
71986666,-1.741296711,-166.9048744,10.00973646,
72091111,-1.799205965,-178.9318195,9.68974659,
72195555,-1.856299511,168.6472374,9.393876661,
72300000,-1.911272307,155.909317,9.125762201,
72404444,-1.956706395,142.9191593,8.915585471,
72508888,-1.997832158,129.7845039,8.733615737,
72613333,-2.028766645,116.5931755,8.601622191,
72717777,-2.050571509,103.4813656,8.510987189,
72822222,-2.066407674,90.55118924,8.446366486,
72926666,-2.074109813,77.8828483,8.415295653,
73031111,-2.079054016,65.48897386,8.395472377,
73135555,-2.088659386,53.43590446,8.357230174,
