Frequency,S11_Magnitude,S11_Magnitude (linear),S11_Phase,S11_Unwrapped Phase,S11_VSWR,
30000000,-0.9262536437,0.8988501967,-135.1659956,-135.1659956,18.77265339,
30104444,-0.9510038631,0.8962925918,-138.5055624,-138.5055624,18.28502539,
30208888,-0.957473084,0.8956252847,-142.174328,-142.174328,18.16172891,
30313333,-0.9677841464,0.8945627143,-145.8230984,-145.8230984,17.96862184,
30417777,-0.977831528,0.8935285294,-149.4744075,-149.4744075,17.78437471,
30522222,-0.9885249558,0.8924291597,-153.1126444,-153.1126444,17.59239915,
30626666,-0.9995311975,0.8912990428,-156.7728204,-156.7728204,17.39910201,
30731111,-1.01080559,0.8901428761,-160.4330102,-160.4330102,17.20546479,
30835555,-1.02384651,0.888807426,-164.0827126,-164.0827126,16.98681268,
30940000,-1.035467849,0.8876190359,-167.7539365,-167.7539365,16.79660831,
31044444,-1.047951995,0.886344186,-171.4425679,-171.4425679,16.59698804,
31148888,-1.059325478,0.8851843481,-175.1210137,-175.1210137,16.41922784,
31253333,-1.07088154,0.8840074458,-178.7878503,-178.7878503,16.24248607,
31357777,-1.081082838,0.8829698169,177.5281933,-182.4718067,16.0896084,
31462222,-1.090496284,0.8820134053,173.8341821,-186.1658179,15.95107825,
31566666,-1.102022182,0.8808437779,170.1688656,-189.8311344,15.7846879,
31671111,-1.112935802,0.879737713,166.4681248,-193.5318752,15.63031736,
31775555,-1.124974691,0.8785192162,162.7537125,-197.2462875,15.46350919,
31880000,-1.135714984,0.8774335793,159.0650172,-200.9349828,15.31768301,
31984444,-1.145838574,0.8764115074,155.3797968,-204.6202032,15.18273642,
32088888,-1.155948112,0.8753920424,151.6879784,-208.3120216,15.05033931,
32193333,-1.167562558,0.8742222832,147.9877125,-212.0122875,14.90106777,
32297777,-1.17852914,0.873119209,144.2603525,-215.7396475,14.76282733,
32402222,-1.187318948,0.8722360907,140.5533507,-219.4466493,14.65387292,
32506666,-1.19620252,0.8713444594,136.8382016,-223.1617984,14.54538569,
32611111,-1.206841237,0.870277866,133.1257469,-226.8742531,14.41756937,
32715555,-1.215896208,0.869371081,129.404717,-230.595283,14.31054544,
32820000,-1.221559005,0.8688044761,125.6965997,-234.3034003,14.24442253,
32924444,-1.230278191,0.8679327787,121.9650655,-238.0349345,14.14380314,
33028888,-1.235936441,0.8673675653,118.2475221,-241.7524779,14.07926779,
33133333,-1.243598593,0.8666027649,114.5214279,-245.4785721,13.9928145,
33237777,-1.251563355,0.8658084742,110.813662,-249.186338,13.9040708,
33342222,-1.257994942,0.8651676118,107.0877593,-252.9122407,13.83323129,
33446666,-1.262590579,0.8647099793,103.3608915,-256.6391085,13.78305635,
33551111,-1.268009593,0.8641706662,99.63260302,-260.367397,13.72435994,
33655555,-1.273420092,0.8636325361,95.91883748,-264.0811625,13.66625501,
33760000,-1.277186557,0.8632581201,92.19465321,-267.8053468,13.626097,
33864444,-1.278602333,0.8631174229,88.49113082,-271.5088692,13.6110633,
33968888,-1.284619764,0.8625196774,84.75274602,-275.247254,13.54753642,
34073333,-1.288838017,0.8621009014,81.03696845,-278.9630315,13.50335803,
34177777,-1.291405169,0.8618461413,77.31303308,-282.6869669,13.47661339,
34282222,-1.292003321,0.8617867926,73.59721391,-286.4027861,13.47039713,
34386666,-1.295345251,0.8614552804,69.87969061,-290.1203094,13.43577212,
34491111,-1.297172205,0.8612741046,66.16684142,-293.8331586,13.41691902,
34595555,-1.30119614,0.8608751923,62.45474352,-297.5452565,13.37558142,
34700000,-1.296943519,0.8612967809,58.73542386,-301.2645761,13.41927601,
34804444,-1.299354748,0.8610577155,54.97287713,-305.0271229,13.39446608,
34908888,-1.297602351,0.8612314533,51.15757676,-308.8424232,13.4124879,
35013333,-1.299109792,0.8610819991,47.498645,-312.501355,13.3969823,
35117777,-1.299684132,0.8610250633,43.83170262,-316.1682974,13.39108409,
35222222,-1.300356555,0.8609584091,40.12244894,-319.8775511,13.38418525,
35326666,-1.300362929,0.8609577774,36.434625,-323.565375,13.38411989,
35431111,-1.300747567,0.8609196524,32.73403406,-327.2659659,13.38017688,
35535555,-1.301067906,0.8608879019,29.03122616,-330.9687738,13.3768948,
35640000,-1.29964903,0.861028543,25.30988263,-334.6901174,13.39144443,
35744444,-1.297931056,0.8611988619,21.60275794,-338.3972421,13.40910375,
35848888,-1.297136268,0.8612776681,17.90205877,-342.0979412,13.41728936,
35953333,-1.294159132,0.8615729262,14.19238148,-345.8076185,13.44804073,
36057777,-1.292771569,0.8617105728,10.49719303,-349.502807,13.46242161,
36162222,-1.292194382,0.8617678363,6.806716923,-353.1932831,13.46841275,
36266666,-1.290985111,0.8618878221,3.09917235,-356.9008277,13.48098227,
36371111,-1.286752959,0.8623078745,-0.6058674648,-360.6058675,13.52515888,
36475555,-1.284363738,0.8625451015,-4.310422436,-364.3104224,13.55022717,
36580000,-1.278824223,0.863095374,-8.030491325,-368.0304913,13.60871015,
36684444,-1.277087548,0.8632679603,-11.72670098,-371.726701,13.6271496,
36788888,-1.27546047,0.8634296865,-15.44061581,-375.4406158,13.64447103,
36893333,-1.271474556,0.8638260013,-19.16712076,-379.1671208,13.68709165,
36997777,-1.267960554,0.8641755452,-22.88806777,-382.8880678,13.72488885,
37102222,-1.265093957,0.8644607954,-26.59902165,-386.5990217,13.75587824,
37206666,-1.264896396,0.8644804579,-30.33586587,-390.3358659,13.75801916,
37311111,-1.26113262,0.8648551363,-34.02603866,-394.0260387,13.79893461,
37415555,-1.2613569,0.864832805,-37.73979547,-397.7397955,13.79648964,
37520000,-1.255083906,0.8654576173,-41.55894009,-401.5589401,13.86520426,
37624444,-1.256982909,0.8652684223,-45.24829676,-405.2482968,13.84432999,
37728888,-1.255454577,0.8654206846,-48.94167968,-408.9416797,13.86112479,
37833333,-1.255457079,0.8654204353,-52.65702411,-412.6570241,13.86109726,
37937777,-1.253020809,0.8656632076,-56.39639931,-416.3963993,13.88795411,
38042222,-1.252651836,0.8656999814,-60.1390635,-420.1390635,13.8920307,
38146666,-1.251732425,0.8657916216,-63.89374211,-423.8937421,13.90219928,
38251111,-1.252428123,0.8657222786,-67.67750543,-427.6775054,13.89450357,
38355555,-1.253770182,0.865588526,-71.43653871,-431.4365387,13.87968207,
38460000,-1.254959203,0.8654700427,-75.13636029,-435.1363603,13.86657723,
38564444,-1.252619952,0.8657031592,-78.81725565,-438.8172556,13.89238309,
38668888,-1.252406213,0.8657244624,-82.48547889,-442.4854789,13.8947458,
38773333,-1.254412274,0.8655245409,-86.15552045,-446.1555204,13.87260214,
38877777,-1.254754506,0.8654904392,-89.87097195,-449.870972,13.86883154,
38982222,-1.2597049,0.8649973063,-93.59034454,-453.5903445,13.81451921,
39086666,-1.260268956,0.8649411357,-97.28632441,-457.2863244,13.8083579,
39191111,-1.26429053,0.86454076,-100.9700368,-460.9700368,13.76458896,
39295555,-1.267385451,0.8642327652,-104.6276989,-464.6276989,13.73109475,
39400000,-1.271577197,0.8638157935,-108.3037876,-468.3037876,13.68599077,
39504444,-1.275724723,0.8634034185,-112.0112563,-472.0112563,13.64165485,
39608888,-1.283060388,0.8626745393,-115.7065701,-475.7065701,13.56394167,
39713333,-1.289845672,0.8620008943,-119.4200522,-479.4200522,13.49284754,
39817777,-1.293905325,0.8615981023,-123.1489205,-483.1489205,13.45066891,
39922222,-1.299728733,0.8610206421,-126.8947937,-486.8947937,13.39062628,
40026666,-1.307180998,0.8602822259,-130.6389667,-490.6389667,13.31457102,
40131111,-1.314551902,0.8595524943,-134.4166965,-494.4166965,13.24019594,
40235555,-1.321633916,0.8588519463,-138.1861816,-498.1861816,13.1695188,
40340000,-1.331031904,0.8579231854,-141.8363845,-501.8363845,13.07689218,
40444444,-1.341553008,0.8568846234,-145.4938084,-505.4938084,12.97473876,
40548888,-1.353190273,0.855737347,-149.2145894,-509.2145894,12.86360197,
40653333,-1.364060838,0.8546670445,-152.9728499,-512.9728499,12.76150366,
40757777,-1.375167307,0.8535748976,-156.7399918,-516.7399918,12.65886018,
40862222,-1.387082475,0.8524047797,-160.4880221,-520.4880221,12.5505743,
40966666,-1.398758089,0.8512597429,-164.2400414,-524.2400414,12.44625886,
41071111,-1.415004988,0.8496689554,-167.9935564,-527.9935564,12.30397195,
41175555,-1.428895561,0.8483112411,-171.7660035,-531.7660035,12.18489264,
41280000,-1.444248079,0.846813155,-175.5377098,-535.5377098,12.05595138,
41384444,-1.461367158,0.8451458088,-179.3312471,-539.3312471,11.91537533,
41488888,-1.478650212,0.8434658222,176.8837431,-543.1162569,11.77676242,
41593333,-1.498514011,0.8415391006,173.0759378,-546.9240622,11.62141012,
41697777,-1.518246451,0.8396294779,169.281575,-550.718425,11.47111984,
41802222,-1.540840534,0.8374482383,165.4861309,-554.5138691,11.30377314,
41906666,-1.562877916,0.8353262018,161.6665182,-558.3334818,11.14522299,
42011111,-1.589870962,0.832734297,157.8482639,-562.1517361,10.95702385,
42115555,-1.616378739,0.8301968153,154.0095424,-565.9904576,10.77834211,
42220000,-1.646201276,0.8273512668,150.1718991,-569.8281009,10.58421474,
42324444,-1.679365807,0.824198291,146.3075839,-573.6924161,10.37645368,
42428888,-1.714666634,0.8208554166,142.4545109,-577.5454891,10.16416674,
42533333,-1.75498407,0.8170540678,138.5912573,-581.4087427,9.932191691,
42637777,-1.795350627,0.8132657236,134.6889285,-585.3110715,9.710406461,
42742222,-1.842736856,0.8088409996,130.7973605,-589.2026395,9.462494549,
42846666,-1.894163166,0.8040662655,126.8847325,-593.1152675,9.207532689,
42951111,-1.951917357,0.7987376057,122.9638963,-597.0361037,8.937276197,
43055555,-2.014649803,0.7929896333,119.0428035,-600.9571965,8.661351902,
43160000,-2.084422825,0.7866451307,115.0908076,-604.9091924,8.374053689,
43264444,-2.16423363,0.7794501025,111.1360813,-608.8639187,8.068242709,
43368888,-2.250596063,0.7717385538,107.1789166,-612.8210834,7.761882628,
43473333,-2.349409537,0.7630087584,103.2279936,-616.7720064,7.439130435,
43577777,-2.460224635,0.7533360807,99.24292293,-620.7570771,7.108198416,
43682222,-2.587496459,0.7423781432,95.26591161,-624.7340884,6.763316455,
43786666,-2.723861146,0.7308141418,91.20036411,-628.7996359,6.429810813,
43891111,-2.872607646,0.7184054489,87.03334621,-632.9666538,6.102410158,
43995555,-3.049815721,0.7038971616,83.13252511,-636.8674749,5.754410091,
44100000,-3.251378872,0.6877507242,79.46000024,-640.5399998,5.405138955,
44204444,-3.477429246,0.6700829039,75.91256782,-644.0874322,5.062129012,
44308888,-3.72209526,0.6514712235,72.42049497,-647.579505,4.738407083,
44413333,-3.992321432,0.6315153749,69.05527886,-650.9447211,4.42763487,
44517777,-4.285778835,0.6105356925,65.93452809,-654.0654719,4.135258768,
44622222,-4.597827325,0.5889909662,63.08945567,-656.9105443,3.866073092,
44726666,-4.921198335,0.5674663104,60.60772382,-659.3922762,3.623917277,
44831111,-5.243156285,0.5468172239,58.56239232,-661.4376077,3.413230391,
44935555,-5.550787511,0.5277893523,56.9623893,-663.0376107,3.23539793,
45040000,-5.8190178,0.5117396998,55.83647516,-664.1635248,3.096175747,
45144444,-6.029780314,0.4994718128,55.11428608,-664.8857139,2.995778962,
45248888,-6.159703804,0.4920563149,54.69776862,-665.3022314,2.937444364,
45353333,-6.200937817,0.4897259407,54.41427199,-665.585728,2.919462421,
45457777,-6.144914208,0.4928948604,54.08712535,-665.9128747,2.943955294,
45562222,-6.010689942,0.5005707894,53.5668173,-666.4331827,3.004571534,
45666666,-5.808484744,0.512360644,52.70827034,-667.2917297,3.101391685,
45771111,-5.560276173,0.5272130981,51.48278811,-668.5172119,3.230235635,
45875555,-5.290309698,0.54385674,49.84142502,-670.158575,3.384587421,
45980000,-5.00894159,0.5617627272,47.80051605,-672.1994839,3.563737784,
46084444,-4.729526516,0.5801277955,45.40648286,-674.5935171,3.763354131,
46188888,-4.462611765,0.5982316854,42.75320031,-677.2467997,3.977993354,
46293333,-4.210680441,0.6158372833,39.87524286,-680.1247571,4.206127282,
46397777,-3.976329058,0.6326791858,36.79867885,-683.2013211,4.444831665,
46502222,-3.76237139,0.6484573699,33.58331966,-686.4166803,4.689210436,
46606666,-3.566572775,0.6632409936,30.27110788,-689.7288921,4.938965141,
46711111,-3.388028431,0.677015448,26.88305892,-693.1169411,5.192246619,
46815555,-3.226365876,0.6897341134,23.38632679,-696.6136732,5.446084105,
46920000,-3.078413007,0.7015834726,19.85082565,-700.1491744,5.702041664,
47024444,-2.945200847,0.7124263231,16.34447048,-703.6555295,5.954739466,
47128888,-2.822540148,0.7225584639,12.86358315,-707.1364168,6.208725946,
47233333,-2.711539874,0.7318515657,9.371659771,-710.6283402,6.458555577,
47337777,-2.612911788,0.7402090841,5.85558835,-714.1444116,6.69849859,
47442222,-2.522607515,0.7479449328,2.347144252,-717.6528557,6.934774024,
47546666,-2.439433112,0.7551415107,-1.171891346,-721.1718913,7.167983089,
47651111,-2.36313509,0.7618039945,-4.688089409,-724.6880894,7.396446429,
47755555,-2.293945466,0.7678965682,-8.18848668,-728.1884867,7.616848033,
47860000,-2.23168645,0.7734204971,-11.69285683,-731.6928568,7.826923769,
47964444,-2.172610168,0.7786987752,-15.18437593,-735.1843759,8.037455628,
48068888,-2.119808364,0.7834469277,-18.66537316,-738.6653732,8.235611293,
48173333,-2.068389472,0.7880985463,-22.12258787,-742.1225879,8.438349596,
48277777,-2.023414741,0.7921898305,-25.55334146,-745.5533415,8.624168079,
48382222,-1.981233316,0.7960463111,-28.98936849,-748.9893685,8.806147716,
48486666,-1.940792572,0.7997612749,-32.4100251,-752.4100251,8.988077974,
48591111,-1.90479798,0.8030823867,-35.84882877,-755.8488288,9.156531792,
48695555,-1.869456159,0.8063566874,-39.25337114,-759.2533711,9.32826785,
48800000,-1.838889918,0.8091993106,-42.63242985,-762.6324298,9.482142418,
48904444,-1.807373893,0.8121407559,-46.03257042,-766.0325704,9.646268748,
49008888,-1.777611811,0.8149283181,-49.40953368,-769.4095337,9.80662357,
49113333,-1.753850679,0.8171606892,-52.79630138,-772.7963014,9.93856672,
49217777,-1.731298685,0.8192851173,-56.14294366,-776.1429437,10.06715711,
49322222,-1.705336694,0.8217376113,-59.47521297,-779.475213,10.21941658,
49426666,-1.684083106,0.8237507912,-62.82125329,-782.8212533,10.34756867,
49531111,-1.664678749,0.8255931151,-66.14246169,-786.1424617,10.4674372,
49635555,-1.647164194,0.8272595517,-69.4527199,-789.4527199,10.5780642,
49740000,-1.629033112,0.8289881917,-72.76561482,-792.7656148,10.69509883,
49844444,-1.615052426,0.8303235939,-76.0793631,-796.0793631,10.78714263,
49948888,-1.598766548,0.8318818953,-79.38019184,-799.3801918,10.89639869,
50053333,-1.584911809,0.8332098771,-82.66433,-802.66433,10.99111773,
50157777,-1.571766712,0.8344717992,-85.93699234,-805.9369923,11.08253331,
50262222,-1.561323969,0.835475659,-89.19927394,-809.1992739,11.15625595,
50366666,-1.549860935,0.8365789897,-92.46213894,-812.4621389,11.23832845,
50471111,-1.538314557,0.8376918153,-95.71762656,-815.7176266,11.3222375,
50575555,-1.529106693,0.8385803187,-98.97063024,-818.9706302,11.39006287,
50680000,-1.52090283,0.8393727358,-102.2277702,-822.2277702,11.45118635,
50784444,-1.511467943,0.8402849842,-105.4845125,-825.4845125,11.52230412,
50888888,-1.503400754,0.8410657778,-108.7147655,-828.7147655,11.58382224,
50993333,-1.495990957,0.8417835841,-111.957838,-831.957838,11.64091332,
51097777,-1.486879126,0.8426671106,-115.161006,-835.161006,11.71190028,
51202222,-1.48008537,0.843326469,-118.349964,-838.349964,11.76539813,
51306666,-1.476088675,0.8437146036,-121.5381168,-841.5381168,11.79710098,
51411111,-1.473331256,0.8439824914,-124.7093199,-844.7093199,11.81907408,
51515555,-1.469920308,0.8443139884,-127.8787967,-847.8787967,11.8463693,
51620000,-1.467446068,0.8445545317,-131.0463271,-851.0463271,11.86624835,
51724444,-1.463352353,0.8449526694,-134.2860111,-854.2860111,11.8992869,
51828888,-1.460542381,0.8452260643,-137.4285233,-857.4285233,11.92207238,
51933333,-1.456733305,0.8455968077,-140.6105502,-860.6105502,11.95310007,
52037777,-1.455390646,0.8457275295,-143.7661615,-863.7661615,11.96407579,
52142222,-1.453901857,0.8458725024,-146.9197243,-866.9197243,11.97626985,
52246666,-1.452201084,0.8460381478,-150.0827072,-870.0827072,11.99023084,
52351111,-1.451526427,0.8461038644,-153.2391194,-873.2391194,11.99577792,
52455555,-1.448757193,0.8463736622,-156.4436855,-876.4436855,12.01860103,
52560000,-1.447986904,0.8464487243,-159.5786917,-879.5786917,12.02496505,
52664444,-1.449701808,0.8462816217,-162.6930349,-882.6930349,12.01080601,
52768888,-1.447993431,0.8464480883,-165.8418949,-885.8418949,12.0249111,
52873333,-1.446844737,0.846560037,-168.9839174,-888.9839174,12.03441398,
52977777,-1.446505742,0.8465930773,-172.1488607,-892.1488607,12.0372213,
53082222,-1.446376264,0.8466056974,-175.2939871,-895.2939871,12.0382939,
53186666,-1.445666768,0.8466748541,-178.4250015,-898.4250015,12.04417477,
53291111,-1.444072678,0.8468302556,178.4110666,-901.5889334,12.057409,
53395555,-1.445216689,0.8467187276,175.3107486,-904.6892514,12.04790839,
53500000,-1.445280052,0.8467125509,172.1670844,-907.8329156,12.04738262,
53604444,-1.444295775,0.846808505,169.0231401,-910.9768599,12.05555508,
53708888,-1.443523835,0.8468837666,165.8758198,-914.1241802,12.06197231,
53813333,-1.442859732,0.8469485199,162.7232325,-917.2767675,12.06749859,
53917777,-1.442012912,0.8470310961,159.5897254,-920.4102746,12.07455273,
54022222,-1.442759171,0.8469583256,156.4331119,-923.5668881,12.06833585,
54126666,-1.440906385,0.8471390093,153.2637771,-926.7362229,12.0837828,
54231111,-1.440523727,0.847176331,150.1319618,-929.8680382,12.08697804,
54335555,-1.44024044,0.8472039618,147.0281337,-932.9718663,12.08934461,
54440000,-1.441544985,0.8470767287,143.9200372,-936.0799628,12.0784542,
54544444,-1.441740508,0.8470576608,140.7855582,-939.2144418,12.07682366,
54648888,-1.44366881,0.8468696315,137.6453746,-942.3546254,12.06076659,
54753333,-1.44108073,0.8471220056,134.5178655,-945.4821345,12.08232756,
54857777,-1.441441368,0.8470868338,131.3788276,-948.6211724,12.07931848,
54962222,-1.439776103,0.8472492535,128.1841704,-951.8158296,12.0932257,
55066666,-1.439424899,0.8472835117,125.0436386,-954.9563614,12.09616285,
55171111,-1.437286754,0.8474921073,121.9160288,-958.0839712,12.11407538,
55275555,-1.438603093,0.8473636804,118.7829058,-961.2170942,12.1030413,
55380000,-1.431909986,0.8480168871,115.6805265,-964.3194735,12.15935673,
55484444,-1.436956543,0.8475243269,112.5216221,-967.4783779,12.11684651,
55588888,-1.436271936,0.84759113,109.407964,-970.592036,12.12259582,
55693333,-1.434171696,0.8477961015,106.2727552,-973.7272448,12.14026789,
55797777,-1.436642515,0.8475549688,103.1612453,-976.8387547,12.11948303,
55902222,-1.436813613,0.8475382735,100.0443584,-979.9556416,12.11804638,
56006666,-1.436351097,0.8475834053,96.91253468,-983.0874653,12.12193075,
56111111,-1.436692924,0.84755005,93.78065311,-986.2193469,12.11905973,
56215555,-1.435652393,0.8476515888,90.64554804,-989.354452,12.12780346,
56320000,-1.435450157,0.8476713251,87.50099856,-992.4990014,12.12950435,
56424444,-1.435467376,0.8476696446,84.3611742,-995.6388258,12.12935951,
56528888,-1.436606578,0.8475584754,81.24135211,-998.7586479,12.11978482,
56633333,-1.434290509,0.8477845048,78.10777558,-1001.892224,12.13926678,
56737777,-1.434515514,0.8477625434,74.97085967,-1005.02914,12.13737135,
56842222,-1.434064383,0.847806576,71.82179174,-1008.178208,12.14117225,
56946666,-1.432329956,0.8479758857,68.68810617,-1011.311894,12.15580761,
57051111,-1.431116883,0.8480943225,65.56404072,-1014.435959,12.16606484,
57155555,-1.432174886,0.8479910248,62.45746188,-1017.542538,12.15711785,
57260000,-1.431508472,0.8480560884,59.3101434,-1020.689857,12.16275183,
57364444,-1.430698886,0.8481351369,56.1743751,-1023.825625,12.16960329,
57468888,-1.431455889,0.8480612224,53.02335882,-1026.976641,12.1631966,
57573333,-1.430753714,0.8481297832,49.87818735,-1030.121813,12.16913903,
57677777,-1.429978869,0.8482054459,46.74280923,-1033.257191,12.17570325,
57782222,-1.428042482,0.8483945615,43.58361595,-1036.416384,12.19213888,
57886666,-1.428515195,0.8483483906,40.44160358,-1039.558396,12.18812248,
57991111,-1.42899808,0.8483012286,37.29074233,-1042.709258,12.1840224,
58095555,-1.427415597,0.8484557948,34.134453,-1045.865547,12.19746933,
58200000,-1.429323662,0.8482694314,30.96046531,-1049.039535,12.18125951,
58304444,-1.430341704,0.8481700147,27.82274803,-1052.177252,12.17262856,
58408888,-1.429405689,0.8482614207,24.64752511,-1055.352475,12.18056364,
