Frequency,S11_Magnitude,S11_Magnitude (linear),S11_Phase,S11_Unwrapped Phase,S11_VSWR,
30000000,-0.949009657,0.8964983966,-133.3871211,-133.3871211,18.32337214,
30104444,-0.9593110383,0.8954357884,-136.854471,-136.854471,18.1270031,
30208888,-0.9652886414,0.8948197642,-140.5202564,-140.5202564,18.01497923,
30313333,-0.9752796322,0.8937910847,-144.158253,-144.158253,17.8308109,
30417777,-0.9855691094,0.8927329089,-147.7933386,-147.7933386,17.64504743,
30522222,-0.9971291073,0.8915455664,-151.4241125,-151.4241125,17.4409243,
30626666,-1.008508972,0.890378268,-155.069461,-155.069461,17.24455757,
30731111,-1.019364802,0.8892661474,-158.7192907,-158.7192907,17.0613241,
30835555,-1.032554591,0.8879167944,-162.3647582,-162.3647582,16.8438865,
30940000,-1.044464977,0.8867000872,-166.0226845,-166.0226845,16.65226424,
31044444,-1.05708104,0.8854131097,-169.7013575,-169.7013575,16.45400364,
31148888,-1.067642183,0.8843371932,-173.3785514,-173.3785514,16.29164332,
31253333,-1.080031667,0.8830766809,-177.0414987,-177.0414987,16.10522773,
31357777,-1.090849183,0.8819775706,179.2903779,-180.7096221,15.94593147,
31462222,-1.101802586,0.8808660476,175.601887,-184.398113,15.78782546,
31566666,-1.112457108,0.8797861982,171.9436697,-188.0563303,15.63702478,
31671111,-1.124734275,0.878543533,168.2564815,-191.7435185,15.46680534,
31775555,-1.137247454,0.8772787855,164.5501043,-195.4498957,15.29710077,
31880000,-1.148875882,0.8761050948,160.8729167,-199.1270833,15.14271383,
31984444,-1.160178157,0.8749658285,157.183695,-202.816305,14.99562725,
32088888,-1.169426397,0.8740347106,153.4895784,-206.5104216,14.87738979,
32193333,-1.180122965,0.8729590099,149.8010499,-210.1989501,14.74295036,
32297777,-1.193608748,0.8716046983,146.0917799,-213.9082201,14.57689396,
32402222,-1.203887085,0.870573906,142.3981891,-217.6018109,14.45283441,
32506666,-1.214201716,0.8695406993,138.6862536,-221.3137464,14.33045164,
32611111,-1.224161987,0.8685441524,134.9734835,-225.0265165,14.2142338,
32715555,-1.234058824,0.8675550833,131.2691936,-228.7308064,14.1006173,
32820000,-1.241864531,0.8667757919,127.5601385,-232.4398615,14.01228664,
32924444,-1.251939019,0.865771029,123.8271852,-236.1728148,13.89991307,
33028888,-1.258955777,0.865071912,120.1118538,-239.8881462,13.8227106,
33133333,-1.267123648,0.8642588145,116.3863249,-243.6136751,13.73392171,
33237777,-1.27565769,0.8634100818,112.6884708,-247.3115292,13.64236912,
33342222,-1.283600009,0.8626209463,108.9707195,-251.0292805,13.55826013,
33446666,-1.289723146,0.8620130541,105.2470679,-254.7529321,13.49412469,
33551111,-1.29595123,0.8613951824,101.5339,-258.4661,13.42951287,
33655555,-1.303177211,0.8606788669,97.82432157,-262.1756784,13.35532396,
33760000,-1.308571375,0.8601445288,94.1005232,-265.8994768,13.30047736,
33864444,-1.310119546,0.8599912305,90.32446576,-269.6755342,13.2848195,
33968888,-1.316994293,0.8593108301,86.62829588,-273.3717041,13.21573531,
34073333,-1.321829383,0.858832619,82.91414082,-277.0858592,13.16757884,
34177777,-1.326828131,0.8583385012,79.18135785,-280.8186421,13.11816208,
34282222,-1.330282622,0.8579971967,75.4724319,-284.5275681,13.08422899,
34386666,-1.336800136,0.8573536344,71.75044114,-288.2495589,13.0206867,
34491111,-1.341663103,0.8568737624,68.03750275,-291.9624973,12.97367829,
34595555,-1.348485118,0.8562010263,64.32562527,-295.6743747,12.90830511,
34700000,-1.349550423,0.8560960216,60.6072834,-299.3927166,12.89815641,
34804444,-1.359043443,0.8551608846,56.8823809,-303.1176191,12.80842457,
34908888,-1.366551317,0.8544220235,53.16124551,-306.8387545,12.7383418,
35013333,-1.374463809,0.8536440342,49.46334894,-310.5366511,12.66531244,
35117777,-1.38552745,0.8525573984,45.80214948,-314.1978505,12.56460058,
35222222,-1.395867259,0.8515431055,42.13382977,-317.8661702,12.471924,
35326666,-1.402173317,0.8509250996,38.51559744,-321.4844026,12.4160747,
35431111,-1.40183556,0.850958189,34.94572336,-325.0542766,12.41905326,
35535555,-1.390661909,0.8520535781,31.36276571,-328.6372343,12.51840737,
35640000,-1.376579611,0.8534361198,27.70713218,-332.2928678,12.64592693,
35744444,-1.36021848,0.8550452053,24.03322859,-335.9667714,12.79740493,
35848888,-1.349991232,0.8560525759,20.33162666,-339.6683733,12.89396172,
35953333,-1.342132279,0.8568274788,16.61302147,-343.3869785,12.96916101,
36057777,-1.334788824,0.857552187,12.88359945,-347.1164005,13.04022959,
36162222,-1.330865902,0.8579395819,9.148551066,-350.8514489,13.07851692,
36266666,-1.32585277,0.8584348917,5.42001208,-354.5799879,13.12777501,
36371111,-1.322258091,0.8587902308,1.709190657,-358.2908093,13.16332603,
36475555,-1.320001097,0.859013413,-2.005959551,-362.0059596,13.18574662,
36580000,-1.316057471,0.8594035166,-5.72860604,-365.728606,13.22510686,
36684444,-1.313706298,0.859636179,-9.443215774,-369.4432158,13.24868592,
36788888,-1.31175635,0.8598291856,-13.1719535,-373.1719535,13.26830548,
36893333,-1.308460642,0.8601554945,-16.9120979,-376.9120979,13.30159871,
36997777,-1.305952508,0.8604039086,-20.63745648,-380.6374565,13.3270487,
37102222,-1.302742827,0.8607219108,-24.37408882,-384.3740888,13.35976048,
37206666,-1.302789518,0.860717284,-28.11854026,-388.1185403,13.35928346,
37311111,-1.299111717,0.8610818082,-31.80800547,-391.8080055,13.39696252,
37415555,-1.299018549,0.8610910445,-35.51251935,-395.5125194,13.3979198,
37520000,-1.294496072,0.861539505,-39.31945085,-399.3194509,13.4445533,
37624444,-1.293116856,0.8616763181,-43.02341906,-403.0234191,13.45884011,
37728888,-1.292053694,0.8617817947,-46.78336163,-406.7833616,13.46987389,
37833333,-1.291151357,0.8618713259,-50.57954021,-410.5795402,13.47925286,
37937777,-1.289179913,0.8620669678,-54.36763054,-414.3676305,13.49978999,
38042222,-1.28883417,0.8621012831,-58.0449808,-418.0449808,13.50339818,
38146666,-1.287469281,0.8622367633,-61.67305341,-421.6730534,13.51766122,
38251111,-1.287731435,0.8622107399,-65.3342012,-425.3342012,13.51491937,
38355555,-1.288983303,0.8620864814,-68.97666907,-428.9766691,13.50184159,
38460000,-1.289932584,0.8619922691,-72.59267816,-432.5926782,13.49194177,
38564444,-1.288247806,0.8621594836,-76.27287186,-436.2728719,13.50952196,
38668888,-1.28821263,0.8621629751,-79.95289267,-439.9528927,13.5098895,
38773333,-1.289886811,0.8619968116,-83.62867957,-443.6286796,13.49241878,
38877777,-1.289654672,0.8620198497,-87.32523046,-447.3252305,13.49483854,
38982222,-1.294949393,0.8614945421,-91.02771305,-451.027713,13.43986418,
39086666,-1.2952415,0.8614655704,-94.71858942,-454.7185894,13.43684437,
39191111,-1.298954037,0.8610974401,-98.40096832,-458.4009683,13.39858273,
39295555,-1.30117586,0.8608772023,-102.0706982,-462.0706982,13.37578911,
39400000,-1.305009178,0.8604973577,-105.758816,-465.758816,13.33664601,
39504444,-1.30784001,0.8602169574,-109.4670075,-469.4670075,13.30788715,
39608888,-1.31419747,0.8595875695,-113.1565885,-473.1565885,13.24375315,
39713333,-1.319235894,0.859089093,-116.850083,-476.850083,13.19336546,
39817777,-1.322331909,0.8587829323,-120.5550234,-480.5550234,13.16259403,
39922222,-1.327425414,0.8582794798,-124.2833475,-484.2833475,13.11228238,
40026666,-1.333165377,0.8577124837,-128.0164611,-488.0164611,13.05604689,
40131111,-1.33876518,0.8571596937,-131.7462189,-491.7462189,13.00165018,
40235555,-1.343443501,0.8566981419,-135.4740712,-495.4740712,12.95655316,
40340000,-1.349640455,0.856087148,-139.1814272,-499.1814272,12.89729946,
40444444,-1.355949183,0.8554655813,-142.8832758,-502.8832758,12.83753446,
40548888,-1.364555636,0.8546183591,-146.5185507,-506.5185507,12.75689522,
40653333,-1.375884668,0.8535044044,-150.0946696,-510.0946696,12.65228758,
40757777,-1.385455378,0.8525644726,-153.7195334,-513.7195334,12.56525144,
40862222,-1.394057444,0.8517205538,-157.3831436,-517.3831436,12.48804606,
40966666,-1.402244802,0.8509180965,-161.0670446,-521.0670446,12.41544448,
41071111,-1.413261447,0.8498395287,-164.7536694,-524.7536694,12.31908446,
41175555,-1.422532679,0.8489329024,-168.4510216,-528.4510216,12.23915023,
41280000,-1.433095114,0.847901189,-172.1536919,-532.1536919,12.14934671,
41384444,-1.4436093,0.8468754338,-175.8494418,-535.8494418,12.06126149,
41488888,-1.453950506,0.8458677647,-179.5491818,-539.5491818,11.97587099,
41593333,-1.465864742,0.8447083027,176.7525395,-543.2474605,11.8789886,
41697777,-1.478184669,0.8435110312,173.0564445,-546.9435555,11.78045357,
41802222,-1.490999119,0.8422675017,169.3723184,-550.6276816,11.67969519,
41906666,-1.502253848,0.8411768415,165.6709911,-554.3290089,11.592622,
42011111,-1.517421371,0.8397092387,161.9734148,-558.0265852,11.47732548,
42115555,-1.531001011,0.8383974514,158.2622416,-561.7377584,11.37604244,
42220000,-1.544671458,0.837078962,154.545506,-565.454494,11.27588545,
42324444,-1.56001697,0.8356013856,150.8068223,-569.1931777,11.16555266,
42428888,-1.579409829,0.8337378318,147.1978644,-572.8021356,11.02919475,
42533333,-1.598890506,0.8318700234,143.5539785,-576.4460215,10.89555866,
42637777,-1.616729179,0.8301633209,139.8749302,-580.1250698,10.77601924,
42742222,-1.637052072,0.828223209,136.2023943,-583.7976057,10.64301643,
42846666,-1.65821106,0.8262080973,132.5183819,-587.4816181,10.50801602,
42951111,-1.680165518,0.8241224105,128.8376124,-591.1623876,10.37154543,
43055555,-1.703942173,0.821869552,125.1668145,-594.8331855,10.22772677,
43160000,-1.727621391,0.8196320467,121.4767868,-598.5232132,10.08844428,
43264444,-1.755800411,0.8169772807,117.8019157,-602.1980843,9.927605097,
43368888,-1.783829606,0.8143451603,114.1232936,-605.8767064,9.77267904,
43473333,-1.814597564,0.811465615,110.4586364,-609.5413636,9.608144505,
43577777,-1.847644509,0.8083841218,106.7523567,-613.2476433,9.437548382,
43682222,-1.883904773,0.8050164617,102.9991859,-617.0008141,9.257276168,
43786666,-1.917927931,0.8018693311,99.24409789,-620.7559021,9.094348397,
43891111,-1.957110545,0.798260193,95.53932831,-624.4606717,8.913759857,
43995555,-2.001313598,0.7942081147,91.83981115,-628.1601889,8.718556188,
44100000,-2.048575757,0.7898983601,88.19305789,-631.8069421,8.519202233,
44204444,-2.103352909,0.7849325781,84.57468095,-635.4253191,8.299409376,
44308888,-2.158957916,0.7799236757,80.98221676,-639.0177832,8.087756289,
44413333,-2.220238843,0.7744405021,77.38883139,-642.6111686,7.866840097,
44517777,-2.287916041,0.7684297989,73.81599854,-646.1840015,7.636689825,
44622222,-2.358763645,0.7621874925,70.23913456,-649.7608654,7.409986595,
44726666,-2.435524426,0.755481404,66.69875002,-653.30125,7.179337001,
44831111,-2.519090389,0.748247855,63.20447625,-656.7955238,6.944321588,
44935555,-2.608607641,0.7405759732,59.73506185,-660.2649381,6.709386153,
45040000,-2.703516681,0.7325278924,56.3529819,-663.6470181,6.477415189,
45144444,-2.803162624,0.7241722333,53.04809419,-666.9519058,6.25090162,
45248888,-2.908349621,0.7154553226,49.81751697,-670.182483,6.02877319,
45353333,-3.018163132,0.7064669401,46.64072057,-673.3592794,5.813542573,
45457777,-3.125802151,0.6977661425,43.49477308,-676.5052269,5.617392295,
45562222,-3.23637402,0.6889398387,40.38293056,-679.6170694,5.42962439,
45666666,-3.343297436,0.6805109664,37.36049354,-682.6395065,5.259995773,
45771111,-3.446821257,0.6724483576,34.5731401,-685.4268599,5.105907408,
45875555,-3.548062621,0.6646559072,32.03631348,-687.9636865,4.96402335,
45980000,-3.636529675,0.6579206478,29.70162314,-690.2983769,4.846596666,
46084444,-3.706201563,0.652664396,27.42751737,-692.5724826,4.758119747,
46188888,-3.756347263,0.6489072656,25.1841013,-694.8158987,4.69650068,
46293333,-3.783886752,0.6468530979,22.94388107,-697.0561189,4.663365551,
46397777,-3.787813985,0.6465606962,20.69732522,-699.3026748,4.658680227,
46502222,-3.769121127,0.6479536545,18.44165435,-701.5583457,4.681070193,
46606666,-3.728515238,0.6509898812,16.16489064,-703.8351094,4.730492878,
46711111,-3.665323892,0.6557432146,13.76978899,-706.230211,4.809616789,
46815555,-3.589801138,0.6614696816,11.4052137,-708.5947863,4.907890345,
46920000,-3.496198533,0.6686364891,8.880254829,-711.1197452,5.03566758,
47024444,-3.396443487,0.6763598602,6.308245621,-713.6917544,5.179703176,
47128888,-3.289166897,0.6847651589,3.62465742,-716.3753426,5.344476368,
47233333,-3.178367528,0.6935561444,0.8402581927,-719.1597418,5.526480996,
47337777,-3.068682281,0.7023698908,-2.055781507,-722.0557815,5.719750248,
47442222,-2.958426273,0.7113423844,-5.036058768,-725.0360588,5.928623712,
47546666,-2.85082095,0.7202096772,-8.084599406,-728.0845994,6.148210059,
47651111,-2.745846588,0.7289666679,-11.20694451,-731.2069445,6.379166188,
47755555,-2.64706722,0.7373040831,-14.39872123,-734.3987212,6.613365384,
47860000,-2.55579284,0.745092785,-17.65712019,-737.6571202,6.845992119,
47964444,-2.468102656,0.7526531216,-20.95967807,-740.9596781,7.085810555,
48068888,-2.387578775,0.7596631522,-24.27851327,-744.2785133,7.321653621,
48173333,-2.309424435,0.766529332,-27.57850915,-747.5785091,7.566386593,
48277777,-2.238977044,0.7727715908,-30.84525874,-750.8452587,7.801716329,
48382222,-2.172727409,0.7786882645,-34.14190975,-754.1419097,8.037026415,
48486666,-2.111682461,0.7841802081,-37.4572428,-757.4572428,8.266990681,
48591111,-2.056265914,0.7891993235,-40.80701257,-760.8070126,8.487635585,
48695555,-2.003051989,0.7940491781,-44.14382646,-764.1438265,8.711056172,
48800000,-1.954565974,0.7984940812,-47.47718311,-767.4771831,8.925266769,
48904444,-1.908959002,0.8026977579,-50.85712967,-770.8571297,9.136732249,
49008888,-1.863961976,0.8068669025,-54.2173034,-774.2173034,9.355552861,
49113333,-1.82764164,0.8102479073,-57.593611,-777.593611,9.540068208,
49217777,-1.792380096,0.813543904,-60.94435459,-780.9443546,9.726385691,
49322222,-1.755886669,0.8169691676,-64.29094074,-784.2909407,9.927120711,
49426666,-1.723899548,0.8199833285,-67.6507923,-787.6507923,10.1100821,
49531111,-1.69472748,0.8227419202,-70.99691987,-790.9969199,10.28298356,
49635555,-1.668352656,0.8252439843,-74.33873925,-794.3387392,10.44452734,
49740000,-1.640964179,0.8278502629,-77.68456114,-797.6845611,10.61779294,
49844444,-1.620212236,0.8298304907,-81.04765263,-801.0476526,10.75298682,
49948888,-1.59691502,0.8320592423,-84.39273794,-804.3927379,10.90896139,
50053333,-1.576351741,0.834031422,-87.71752374,-807.7175237,11.0504738,
50157777,-1.55908258,0.8356912809,-91.04863261,-811.0486326,11.17220858,
50262222,-1.542926868,0.837247109,-94.37739355,-814.3773935,11.28856819,
50366666,-1.528520049,0.8386369581,-97.69336969,-817.6933697,11.39441186,
50471111,-1.513087318,0.8401283383,-101.0196204,-821.0196204,11.51003448,
50575555,-1.499134214,0.8414790139,-104.3739959,-824.3739959,11.61662603,
50680000,-1.486332739,0.8427201204,-107.6839556,-827.6839556,11.71618471,
50784444,-1.473545322,0.8439616916,-110.9763629,-830.9763629,11.8173653,
50888888,-1.464248305,0.8448655168,-114.2319143,-834.2319143,11.89204024,
50993333,-1.455550664,0.8457119491,-117.5055983,-837.5055983,11.96276664,
51097777,-1.445957263,0.846646538,-120.7710613,-840.7710613,12.04176621,
51202222,-1.438079642,0.8474147478,-124.0370736,-844.0370736,12.10742665,
51306666,-1.43132749,0.8480737589,-127.2985741,-847.2985741,12.16428278,
51411111,-1.426590903,0.8485363564,-130.540369,-850.540369,12.2044889,
51515555,-1.420577942,0.8491239741,-133.8020136,-853.8020136,12.25591649,
51620000,-1.415915874,0.8495798556,-137.0499692,-857.0499692,12.29609148,
51724444,-1.410925358,0.8500681257,-140.3143089,-860.3143089,12.33939171,
51828888,-1.404598185,0.8506875772,-143.5814165,-863.5814165,12.39473276,
51933333,-1.399374523,0.8511993315,-146.9018871,-866.9018871,12.44079983,
52037777,-1.396946094,0.8514373458,-150.1590641,-870.1590641,12.46233352,
52142222,-1.395126758,0.8516157055,-153.3876949,-873.3876949,12.47851541,
52246666,-1.392710735,0.8518526195,-156.6238888,-876.6238888,12.50006995,
52351111,-1.39093704,0.8520265892,-159.860656,-879.860656,12.51594175,
52455555,-1.388955004,0.8522210356,-163.1228839,-883.1228839,12.53372591,
52560000,-1.385809505,0.8525297139,-166.3773892,-886.3773892,12.56205411,
52664444,-1.385913361,0.8525195204,-169.6176047,-889.6176047,12.56111673,
52768888,-1.383577943,0.8527487724,-172.8793861,-892.8793861,12.58222972,
52873333,-1.381510156,0.8529518042,-176.1311219,-896.1311219,12.60098293,
52977777,-1.380401948,0.8530606369,-179.4019584,-899.4019584,12.61105668,
53082222,-1.379959087,0.8531041323,177.3686363,-902.6313637,12.61508688,
53186666,-1.381274154,0.8529749799,174.1660436,-905.8339564,12.60312686,
53291111,-1.382504267,0.8528541884,170.9216414,-909.0783586,12.5919601,
53395555,-1.383806052,0.8527263777,167.6980384,-912.3019616,12.58016439,
53500000,-1.383022641,0.8528032916,164.4474044,-915.5525956,12.58726035,
53604444,-1.383206694,0.852785221,161.2121914,-918.7878086,12.58559251,
53708888,-1.382669177,0.8528379964,157.9558534,-922.0441466,12.59046459,
53813333,-1.383138398,0.8527919264,154.7046735,-925.2953265,12.58621134,
53917777,-1.383002929,0.852805227,151.451444,-928.548556,12.587439,
54022222,-1.381794741,0.8529238585,148.1521008,-931.8478992,12.59839862,
54126666,-1.37774777,0.8533213495,144.861497,-935.138503,12.63524953,
54231111,-1.377304406,0.8533649077,141.5990191,-938.4009809,12.6392999,
54335555,-1.374039057,0.8536857796,138.2858453,-941.7141547,12.66921133,
54440000,-1.375630837,0.8535293471,135.0278055,-944.9721945,12.65461245,
54544444,-1.376751099,0.8534192703,131.7781948,-948.2218052,12.64435833,
54648888,-1.37779906,0.8533163107,128.5172213,-951.4827787,12.63478114,
54753333,-1.375197613,0.8535719194,125.2618026,-954.7381974,12.65858237,
54857777,-1.374716037,0.8536192458,122.0034254,-957.9965746,12.66299833,
54962222,-1.376082949,0.853484921,118.7159746,-961.2840254,12.65047211,
55066666,-1.376712439,0.8534230688,115.4337407,-964.5662593,12.64471192,
55171111,-1.376506411,0.8534433121,112.1599516,-967.8400484,12.64659661,
55275555,-1.378976484,0.8532006463,108.8792002,-971.1207998,12.62403819,
55380000,-1.37354909,0.8537339369,105.6001281,-974.3998719,12.67371185,
55484444,-1.378808282,0.8532171687,102.2432213,-977.7567787,12.62557176,
55588888,-1.377097432,0.8533852425,98.90086316,-981.0991368,12.64119161,
55693333,-1.372212082,0.8538653613,95.54209206,-984.4579079,12.68600913,
55797777,-1.375160735,0.8535755435,92.24815308,-987.7518469,12.65892043,
55902222,-1.375857427,0.8535070812,88.93525073,-991.0647493,12.65253704,
56006666,-1.376991603,0.8533956403,85.59607723,-994.4039228,12.6421591,
56111111,-1.374863352,0.8536047683,82.24610176,-997.7538982,12.66164715,
56215555,-1.373100394,0.8537780403,78.89977983,-1001.10022,12.67783611,
56320000,-1.372379087,0.853848944,75.54354417,-1004.456456,12.68447177,
56424444,-1.372257206,0.8538609254,72.20047161,-1007.799528,12.68559371,
56528888,-1.372626778,0.8538245956,68.85996564,-1011.140034,12.68219235,
56633333,-1.373613552,0.853727601,65.4919991,-1014.508001,12.67311956,
56737777,-1.374135478,0.853676303,62.11632299,-1017.883677,12.66832605,
56842222,-1.374240471,0.853665984,58.73543149,-1021.264569,12.66736221,
56946666,-1.371235892,0.8539613309,55.32666462,-1024.673335,12.69500292,
57051111,-1.369408003,0.8541410605,51.90815116,-1028.091849,12.71187811,
57155555,-1.368551192,0.8542253205,48.37322039,-1031.62678,12.71980379,
57260000,-1.371657742,0.8539198574,45.04234044,-1034.95766,12.69111478,
57364444,-1.372241291,0.8538624899,41.59140314,-1038.408597,12.68574022,
57468888,-1.368182981,0.8542615334,38.00841047,-1041.99159,12.72321287,
57573333,-1.371405767,0.8539446297,34.64850481,-1045.351495,12.69343692,
57677777,-1.370995711,0.8539849448,31.22256688,-1048.777433,12.69721771,
57782222,-1.372060574,0.8538802554,27.73340425,-1052.266596,12.68740416,
57886666,-1.374776958,0.8536132587,24.25919188,-1055.740808,12.66243952,
57991111,-1.374774156,0.853613534,20.74971672,-1059.250283,12.66246522,
58095555,-1.378541011,0.8532434232,17.21533176,-1062.784668,12.62800935,
58200000,-1.379243558,0.8531744125,13.68331597,-1066.316684,12.62160393,
58304444,-1.381386285,0.8529639684,10.12708151,-1069.872918,12.60210813,
58408888,-1.38357697,0.8527488678,6.504821261,-1073.495179,12.58223852,
