Frequency,S11_Magnitude,S11_Magnitude (linear),S11_Phase,S11_Unwrapped Phase,S11_VSWR,
30000000,-0.9520510681,0.8961845378,-136.8201966,-136.8201966,18.264953,
30104444,-0.9775975572,0.8935525986,-140.3349873,-140.3349873,17.78862211,
30208888,-0.9848385589,0.8928079978,-144.0260218,-144.0260218,17.65810844,
30313333,-0.9963772421,0.8916227434,-147.692091,-147.692091,17.45405635,
30417777,-1.00747868,0.8904838881,-151.3619651,-151.3619651,17.26215308,
30522222,-1.019166374,0.8892864628,-155.0166985,-155.0166985,17.06463826,
30626666,-1.03103824,0.8880718172,-158.6957679,-158.6957679,16.86860065,
30731111,-1.042872798,0.8868626399,-162.3710033,-162.3710033,16.67762654,
30835555,-1.056999883,0.8854213827,-166.0458623,-166.0458623,16.45526388,
30940000,-1.069627277,0.8841351078,-169.7280339,-169.7280339,16.26148415,
31044444,-1.083918815,0.8826815709,-173.436561,-173.436561,16.04762001,
31148888,-1.095465612,0.8815089365,-177.1347517,-177.1347517,15.87891002,
31253333,-1.108771648,0.8801595744,179.1752372,-180.8247628,15.68885929,
31357777,-1.120303432,0.8789918097,175.4746369,-184.5253631,15.52780688,
31462222,-1.132425448,0.8777659454,171.7664316,-188.2335684,15.36205235,
31566666,-1.143893392,0.8766077995,168.0793664,-191.9206336,15.20847988,
31671111,-1.157734919,0.8752119807,164.3641443,-195.6358557,15.02717962,
31775555,-1.171686947,0.873807268,160.6257071,-199.3742929,14.84877328,
31880000,-1.182991756,0.8726707351,156.9137064,-203.0862936,14.70730814,
31984444,-1.195527785,0.8714121496,153.2025758,-206.7974242,14.55356897,
32088888,-1.206743957,0.870287613,149.4810267,-210.5189733,14.41872789,
32193333,-1.219709082,0.868989534,145.7771447,-214.2228553,14.26595593,
32297777,-1.231814247,0.8677793028,142.0388307,-217.9611693,14.12622488,
32402222,-1.241647611,0.8667974389,138.32002,-221.67998,14.01472632,
32506666,-1.252546384,0.8657104916,134.5798424,-225.4201576,13.89319623,
32611111,-1.263294536,0.8646399009,130.8524395,-229.1475605,13.77540289,
32715555,-1.273636171,0.8636110518,127.120659,-232.879341,13.66394474,
32820000,-1.282263363,0.8627537027,123.3885156,-236.6114844,13.57234213,
32924444,-1.292999918,0.8616879189,119.6386673,-240.3613327,13.46005284,
33028888,-1.300950867,0.8608995021,115.9016786,-244.0983214,13.37809376,
33133333,-1.309192008,0.8600830711,112.1584337,-247.8415663,13.29419596,
33237777,-1.318870843,0.8591251997,108.4298227,-251.5701773,13.19700327,
33342222,-1.328614414,0.8581619991,104.6831089,-255.3168911,13.10059354,
33446666,-1.33470691,0.8575602742,100.9342981,-259.0657019,13.04102675,
33551111,-1.343345985,0.85670776,97.19371801,-262.806282,12.95748995,
33655555,-1.351482919,0.8559055728,93.45159448,-266.5484055,12.87978729,
33760000,-1.358156968,0.8552481661,89.70596903,-270.294031,12.81675068,
33864444,-1.363016222,0.8547698379,85.9818661,-274.0181339,12.77124401,
33968888,-1.371738354,0.8539119323,82.23279784,-277.7672022,12.69037206,
34073333,-1.380078217,0.8530924319,78.50001809,-281.4999819,12.6140025,
34177777,-1.383572916,0.8527492658,74.74460657,-285.2553934,12.58227524,
34282222,-1.390077822,0.8521108768,71.01111644,-288.9888836,12.52364499,
34386666,-1.399195851,0.8512168412,67.26928454,-292.7307155,12.44238162,
34491111,-1.405263141,0.8506224546,63.53772382,-296.4622762,12.38889318,
34595555,-1.413185817,0.8498469286,59.8170036,-300.1829964,12.31974086,
34700000,-1.415075573,0.8496620507,56.08436981,-303.9156302,12.30336092,
34804444,-1.428450598,0.8483546998,52.34871531,-307.6512847,12.18867118,
34908888,-1.438716475,0.8473526193,48.60652267,-311.3934773,12.10209183,
35013333,-1.4495799,0.8462934994,44.89510778,-315.1048922,12.01181142,
35117777,-1.462370958,0.8450481437,41.18823602,-318.811764,11.90723485,
35222222,-1.477389139,0.8435882909,37.4583675,-322.5416325,11.78676648,
35326666,-1.496122927,0.8417707944,33.78406567,-326.2159343,11.63989156,
35431111,-1.517405871,0.8397107372,30.13488684,-329.8651132,11.47744213,
35535555,-1.541547936,0.8373800371,26.51854908,-333.4814509,11.29861306,
35640000,-1.563427369,0.8352733623,22.95708157,-337.0429184,11.14132716,
35744444,-1.576171423,0.8340487366,19.50920568,-340.4907943,11.05173109,
35848888,-1.567970341,0.8348366044,16.14171382,-343.8582862,11.10922064,
35953333,-1.533346461,0.8381710896,12.78682443,-347.2131756,11.35873118,
36057777,-1.483015516,0.8430420246,9.34228649,-350.6577135,11.74226426,
36162222,-1.433820492,0.8478303819,5.726889084,-354.2731109,12.14322809,
36266666,-1.395164475,0.8516120075,1.983329329,-358.0166707,12.47817951,
36371111,-1.366974275,0.8543804185,-1.818326223,-361.8183262,12.73441662,
36475555,-1.348806988,0.856169299,-5.621530694,-365.6215307,12.9052371,
36580000,-1.335507019,0.857481283,-9.42648488,-369.4264849,13.03324449,
36684444,-1.328434173,0.858179807,-13.20811108,-373.2081111,13.10236411,
36788888,-1.324390433,0.858579428,-17.00221018,-377.0022102,13.14221405,
36893333,-1.318412627,0.8591705232,-20.80547667,-380.8054767,13.20157233,
36997777,-1.314863971,0.8595216126,-24.57777423,-384.5777742,13.23706548,
37102222,-1.312291404,0.8597762215,-28.34646435,-388.3464644,13.26291618,
37206666,-1.312691454,0.8597366232,-32.11543398,-392.115434,13.25888957,
37311111,-1.309081171,0.8600940464,-35.86426471,-395.8642647,13.2953173,
37415555,-1.308228068,0.8601785265,-39.66853087,-399.6685309,13.30395453,
37520000,-1.305381354,0.8604604876,-43.38467491,-403.3846749,13.33285788,
37624444,-1.305796446,0.8604193678,-47.13564084,-407.1356408,13.32863549,
37728888,-1.305056047,0.8604927145,-50.97858402,-410.978584,13.33616885,
37833333,-1.30590698,0.8604084185,-54.71276089,-414.7127609,13.32751157,
37937777,-1.304765582,0.8605214907,-58.36014823,-418.3601482,13.33912658,
38042222,-1.305492027,0.8604495239,-62.04041236,-422.0404124,13.33173183,
38146666,-1.305181833,0.8604802532,-65.7488539,-425.7488539,13.3348884,
38251111,-1.306305713,0.8603689217,-69.47184642,-429.4718464,13.32345882,
38355555,-1.308080084,0.8601931817,-73.1371843,-433.1371843,13.30545394,
38460000,-1.309728222,0.8600299764,-76.7690731,-436.7690731,13.28877376,
38564444,-1.30836535,0.8601649313,-80.40366231,-440.4036623,13.30256386,
38668888,-1.307572601,0.860243441,-84.04290799,-444.042908,13.31059847,
38773333,-1.3096179,0.8600409,-87.681008,-447.681008,13.28988897,
38877777,-1.310705302,0.8599332367,-91.34714187,-451.3471419,13.27890495,
38982222,-1.31527632,0.8594808091,-95.03054555,-455.0305455,13.23293137,
39086666,-1.316048257,0.8594044283,-98.68650631,-458.6865063,13.2251991,
39191111,-1.319785131,0.8590347718,-102.3480797,-462.3480797,13.18789602,
39295555,-1.322804875,0.8587361709,-106.0004334,-466.0004334,13.15790591,
39400000,-1.326590998,0.858361935,-109.6608131,-469.6608131,13.1204979,
39504444,-1.329453109,0.8580791403,-113.3335463,-473.3335463,13.09236109,
39608888,-1.335838419,0.8574485673,-116.9944797,-476.9944797,13.03002385,
39713333,-1.340705847,0.856968202,-120.6467568,-480.6467568,12.9829047,
39817777,-1.34343766,0.856698718,-124.3115471,-484.3115471,12.95660926,
39922222,-1.347073773,0.8563401593,-127.9742361,-487.9742361,12.92177515,
40026666,-1.353181955,0.8557381665,-131.6262141,-491.6262141,12.86368072,
40131111,-1.359493601,0.8551165658,-135.2797762,-495.2797762,12.80420068,
40235555,-1.364207454,0.854652618,-138.9400008,-498.9400008,12.76013776,
40340000,-1.369889912,0.8540936725,-142.6108402,-502.6108402,12.70742471,
40444444,-1.375474641,0.853544696,-146.3173573,-506.3173573,12.65604349,
40548888,-1.381055796,0.8529964235,-150.0798034,-510.0798034,12.60511116,
40653333,-1.386689064,0.8524433886,-153.7864904,-513.7864904,12.55411988,
40757777,-1.394085302,0.8517178221,-157.4092018,-517.4092018,12.48779758,
40862222,-1.402084975,0.8509337542,-161.0236132,-521.0236132,12.41685362,
40966666,-1.410027882,0.8501559642,-164.5358126,-524.5358126,12.34721125,
41071111,-1.420184691,0.8491624188,-168.1584159,-528.1584159,12.25929509,
41175555,-1.427493576,0.8484481776,-171.811171,-531.811171,12.19680601,
41280000,-1.435493624,0.8476670831,-175.4653732,-535.4653732,12.12913874,
41384444,-1.442781066,0.8469561905,-179.1125534,-539.1125534,12.06815354,
41488888,-1.450744462,0.8461800401,177.2501962,-542.7498038,12.00221377,
41593333,-1.459500485,0.8453274575,173.5947393,-546.4052607,11.93054325,
41697777,-1.468112241,0.8444897602,169.9692179,-550.0307821,11.86088944,
41802222,-1.477452566,0.8435821308,166.3573569,-553.6426431,11.78626291,
41906666,-1.48567738,0.8427837068,162.729687,-557.270313,11.72132779,
42011111,-1.49695393,0.8416902637,159.1178669,-560.8821331,11.63346177,
42115555,-1.505301344,0.8408817614,155.5082635,-564.4917365,11.56926935,
42220000,-1.515097848,0.8399338956,151.8922326,-568.1077674,11.49483773,
42324444,-1.525061908,0.8389709139,148.2209717,-571.7790283,11.42011644,
42428888,-1.537210411,0.837798309,144.6693814,-575.3306186,11.33032768,
42533333,-1.549773537,0.8365874074,141.077395,-578.922605,11.23895887,
42637777,-1.559925206,0.8356102136,137.4569713,-582.5430287,11.16620597,
42742222,-1.572606561,0.8343911171,133.8511496,-586.1488504,11.07664688,
42846666,-1.584585915,0.8332411397,130.2511035,-589.7488965,10.99336573,
42951111,-1.598659212,0.8318921754,126.6515847,-593.3484153,10.89712617,
43055555,-1.612208459,0.8305955061,123.0589316,-596.9410684,10.80606225,
43160000,-1.625330181,0.8293416777,119.4672059,-600.5327941,10.71932299,
43264444,-1.642308025,0.8277221911,115.8856935,-604.1143065,10.60915624,
43368888,-1.657633904,0.8262629987,112.3146599,-607.6853401,10.51165258,
43473333,-1.675255373,0.8245884196,108.7576369,-611.2423631,10.40175577,
43577777,-1.693385275,0.822869066,105.1729979,-614.8270021,10.29108256,
43682222,-1.716479403,0.8206841196,101.6124849,-618.3875151,10.15350183,
43786666,-1.736080966,0.818834159,98.05498833,-621.9450117,10.03960873,
43891111,-1.759571553,0.8166226517,94.48876296,-625.511237,9.906472466,
43995555,-1.782139729,0.8145036101,90.90674662,-629.0932534,9.781880988,
44100000,-1.804124866,0.8124446005,87.32023531,-632.6797647,9.663515979,
44204444,-1.832545972,0.8097905444,83.76390121,-636.2360988,9.51472438,
44308888,-1.861059509,0.8071365693,80.28888355,-639.7111164,9.370032272,
44413333,-1.89384185,0.8040960107,76.84679595,-643.1532041,9.209082557,
44517777,-1.930751948,0.8006863091,73.43820315,-646.5617968,9.034433615,
44622222,-1.967611664,0.7972956907,70.03782701,-649.962173,8.866588465,
44726666,-2.007404502,0.7936513785,66.67748034,-653.3225197,8.692335163,
44831111,-2.048065254,0.7899447867,63.35132138,-656.6486786,8.521306177,
44935555,-2.090613614,0.7860846563,60.03813119,-659.9618688,8.349492958,
45040000,-2.133339188,0.7822274291,56.75961023,-663.2403898,8.18389305,
45144444,-2.174807914,0.77850177,53.50815665,-666.4918434,8.029417526,
45248888,-2.216638053,0.7747616178,50.29639552,-669.7036045,7.879481287,
45353333,-2.255904996,0.7712670008,47.12196335,-672.8780367,7.743819245,
45457777,-2.287632118,0.7684549175,43.97670483,-676.0232952,7.637626757,
45562222,-2.317693255,0.7657999563,40.82482203,-679.175178,7.539708057,
45666666,-2.338045541,0.7640076777,37.73720235,-682.2627976,7.474851982,
45771111,-2.351214146,0.7628502496,34.79056698,-685.209433,7.433489797,
45875555,-2.360250103,0.7620570669,31.96322925,-688.0367707,7.40537676,
45980000,-2.357684984,0.7622821511,29.08688594,-690.9131141,7.413335426,
46084444,-2.341687328,0.7636874146,26.14565347,-693.8543465,7.463366421,
46188888,-2.318195863,0.7657556447,23.19034864,-696.8096514,7.538092614,
46293333,-2.284768763,0.768708285,20.20749355,-699.7925065,7.647088807,
46397777,-2.244223083,0.7723049988,17.15781597,-702.842184,7.783679876,
46502222,-2.200061679,0.7762416045,14.0758431,-705.9241569,7.938212108,
46606666,-2.153021218,0.7804569261,10.95159192,-709.0484081,8.109829633,
46711111,-2.101710431,0.7850810207,7.814339227,-712.1856608,8.305832397,
46815555,-2.052956527,0.7895000714,4.628907494,-715.3710925,8.501190872,
46920000,-2.002387647,0.7941099135,1.442454835,-718.5575452,8.713920828,
47024444,-1.954603683,0.7984906146,-1.727183266,-721.7271833,8.925096025,
47128888,-1.906208742,0.8029519606,-4.961418866,-724.9614189,9.149809185,
47233333,-1.860636167,0.8071759094,-8.235617846,-728.2356178,9.372147968,
47337777,-1.820160285,0.8109460929,-11.53690585,-731.5369058,9.578993213,
47442222,-1.78094751,0.8146154159,-14.84885338,-734.8488534,9.788383564,
47546666,-1.744706548,0.8180214139,-18.16781123,-738.1678112,9.990304093,
47651111,-1.710606982,0.8212391615,-21.50226227,-741.5022623,10.1881328,
47755555,-1.680340607,0.824105798,-24.84153933,-744.8415393,10.37047144,
47860000,-1.652270334,0.8267733768,-28.19601062,-748.1960106,10.5455694,
47964444,-1.62683008,0.8291984775,-31.55239232,-751.5523923,10.70949749,
48068888,-1.605616748,0.8312260832,-34.89992093,-754.8999209,10.85017234,
48173333,-1.580992925,0.8335858881,-38.23852839,-758.2385284,11.01821154,
48277777,-1.562111651,0.8353998971,-41.56836371,-761.5683637,11.15066069,
48382222,-1.544557053,0.8370899876,-44.90732257,-764.9073226,11.27671627,
48486666,-1.527864749,0.8387002309,-48.22746614,-768.2274661,11.39927379,
48591111,-1.51512922,0.8399308619,-51.60850332,-771.6085033,11.49460092,
48695555,-1.5008521,0.8413126034,-54.97219588,-774.9721959,11.60339537,
48800000,-1.488350016,0.8425244234,-58.36467886,-778.3646789,11.70038214,
48904444,-1.476959879,0.8436299823,-61.65069323,-781.6506932,11.7901757,
49008888,-1.464752527,0.8448164732,-64.95821319,-784.9582132,11.88796589,
49113333,-1.45848825,0.845425976,-68.28419099,-788.284191,11.93878459,
49217777,-1.450871713,0.8461676435,-71.58338566,-791.5833857,12.00116598,
49322222,-1.441512619,0.8470798851,-74.88524793,-794.8852479,12.07872415,
49426666,-1.435054463,0.8477099425,-78.1932725,-798.1932725,12.1328337,
49531111,-1.429472412,0.8482549046,-81.48974528,-801.4897453,12.17999765,
49635555,-1.425040388,0.8486878418,-84.79477895,-804.794779,12.2177085,
49740000,-1.419959005,0.8491844829,-88.08944332,-808.0894433,12.26123491,
49844444,-1.417816715,0.8493939519,-91.40082112,-811.4008211,12.27967917,
49948888,-1.413482851,0.8498178666,-94.70102211,-814.7010221,12.31716333,
50053333,-1.410986037,0.8500621872,-97.98585903,-817.985859,12.33886338,
50157777,-1.409869564,0.8501714601,-101.275869,-821.275869,12.34859167,
50262222,-1.410383137,0.8501211932,-104.5633058,-824.5633058,12.34411478,
50366666,-1.409767814,0.8501814194,-107.8497289,-827.8497289,12.34947903,
50471111,-1.407882396,0.8503659856,-111.1348391,-831.1348391,12.36594495,
50575555,-1.409236184,0.8502334574,-114.4096153,-834.4096153,12.35411745,
50680000,-1.411322321,0.8500292767,-117.6875502,-837.6875502,12.33593622,
50784444,-1.412027633,0.8499602555,-120.967182,-840.967182,12.32980142,
50888888,-1.415068216,0.8496627704,-124.2104391,-844.2104391,12.30342461,
50993333,-1.41739603,0.8494350916,-127.4749589,-847.4749589,12.28330766,
51097777,-1.417931233,0.8493827532,-130.7388887,-850.7388887,12.2786918,
51202222,-1.419575529,0.8492219747,-134.0022639,-854.0022639,12.26453239,
51306666,-1.422734901,0.8489131382,-137.2660772,-857.2660772,12.23741837,
51411111,-1.425768603,0.8486166918,-140.575517,-860.575517,12.2114962,
51515555,-1.429892449,0.8482138852,-143.800866,-863.800866,12.17643582,
51620000,-1.435057108,0.8477096843,-147.0535376,-867.0535376,12.13281144,
51724444,-1.440840806,0.8471454053,-150.3221252,-870.3221252,12.08433027,
51828888,-1.443805954,0.8468562602,-153.5806897,-873.5806897,12.05962622,
51933333,-1.448001889,0.846447264,-156.8634847,-876.8634847,12.02484119,
52037777,-1.452563765,0.8460028221,-160.1325195,-880.1325195,11.98725098,
52142222,-1.459692441,0.8453087762,-163.3924012,-883.3924012,11.92898169,
52246666,-1.465376446,0.8447557911,-166.6477905,-886.6477905,11.88292822,
52351111,-1.470741791,0.8442341397,-169.8932005,-889.8932005,11.839784,
52455555,-1.475688506,0.8437534754,-173.1732049,-893.1732049,11.80028471,
52560000,-1.480983638,0.8432392593,-176.4541806,-896.4541806,11.75829644,
52664444,-1.488355971,0.8425238457,-179.7161868,-899.7161868,11.70033555,
52768888,-1.494177684,0.8419593338,177.0136156,-902.9863844,11.6549707,
52873333,-1.500268173,0.8413691644,173.7496205,-906.2503795,11.6078892,
52977777,-1.505756942,0.8408376561,170.4108266,-909.5891734,11.56578629,
53082222,-1.509504839,0.8404749192,167.0728559,-912.9271441,11.53721352,
53186666,-1.515784471,0.8398675011,163.808981,-916.191019,11.48965709,
53291111,-1.522938007,0.8391760867,160.5101733,-919.4898267,11.43596154,
53395555,-1.529578976,0.8385347233,157.230857,-922.769143,11.3865641,
53500000,-1.536175308,0.8378981559,153.913491,-926.086509,11.33792257,
53604444,-1.542343797,0.837303314,150.6161519,-929.3838481,11.29281339,
53708888,-1.54865295,0.8366953445,147.3171704,-932.6828296,11.24704828,
53813333,-1.556046979,0.8359833947,143.9943706,-936.0056294,11.1938873,
53917777,-1.561847093,0.8354253424,140.6785832,-939.3214168,11.15253934,
54022222,-1.569811306,0.8346596804,137.330422,-942.669578,11.09626306,
54126666,-1.575243554,0.8341378385,133.9820323,-946.0179677,11.05820533,
54231111,-1.581045508,0.8335808416,130.6310627,-949.3689373,11.0178471,
54335555,-1.58674743,0.8330338104,127.2586177,-952.7413823,10.97847304,
54440000,-1.593111184,0.8324237082,123.8793364,-956.1206636,10.93486249,
54544444,-1.597880583,0.831966752,120.4554676,-959.5445324,10.90240636,
54648888,-1.605902447,0.8311987427,117.1250498,-962.8749502,10.84825298,
54753333,-1.611247395,0.8306874137,113.8034456,-966.1965544,10.81247091,
54857777,-1.618826563,0.8299628854,110.4450651,-969.5549349,10.76213796,
54962222,-1.627708543,0.8291146193,107.0480422,-972.9519578,10.70375132,
55066666,-1.635796534,0.8283429366,103.6199318,-976.3800682,10.65113722,
55171111,-1.637778903,0.8281539066,100.0982939,-979.9017061,10.63832101,
55275555,-1.647929219,0.8271866925,96.72499972,-983.2750003,10.57318281,
55380000,-1.651514873,0.826845289,93.32826974,-986.6717303,10.55036435,
55484444,-1.661667956,0.8258793403,89.76906241,-990.2309376,10.48628774,
55588888,-1.669491011,0.8251358366,86.37257667,-993.6274233,10.43744928,
55693333,-1.681695008,0.8239773042,82.99138011,-997.0086199,10.36217117,
55797777,-1.693497566,0.822858428,79.49868261,-1000.501317,10.29040449,
55902222,-1.693239774,0.8228828503,75.84538695,-1004.154613,10.2919613,
56006666,-1.706750159,0.8216038999,72.49884044,-1007.50116,10.21100741,
56111111,-1.718712673,0.8204731368,69.03491326,-1010.965087,10.14039406,
56215555,-1.729041706,0.8194980315,65.49791595,-1014.502084,10.08021157,
56320000,-1.739864247,0.8184775801,61.91031763,-1018.089682,10.01792275,
56424444,-1.747182835,0.8177882348,58.28973627,-1021.710264,9.97623964,
56528888,-1.752434409,0.8172939415,54.65562257,-1025.344377,9.946544502,
56633333,-1.7594729,0.8166319268,51.08805835,-1028.911942,9.907024137,
56737777,-1.770589567,0.8155874261,47.54265582,-1032.457344,9.845247466,
56842222,-1.783922101,0.8143364885,43.95137899,-1036.048621,9.772175879,
56946666,-1.794189108,0.8133744847,40.30534249,-1039.694658,9.71664824,
57051111,-1.804828359,0.8123788011,36.64967097,-1043.350329,9.659776249,
57155555,-1.819020102,0.8110525515,32.95738741,-1047.042613,9.584953732,
57260000,-1.83357079,0.8096950057,29.23176349,-1050.768237,9.509445677,
57364444,-1.848633817,0.8082920534,25.50292598,-1054.497074,9.432535719,
57468888,-1.85974994,0.8072582703,21.73441877,-1058.265581,9.376580115,
57573333,-1.8714807,0.8061687605,17.91803952,-1062.08196,9.318254195,
57677777,-1.886285259,0.8047958663,14.06701627,-1065.932984,9.245684669,
57782222,-1.901424998,0.8033943073,10.23795195,-1069.762048,9.172645425,
57886666,-1.918399949,0.8018257563,6.37500089,-1073.624999,9.092128837,
57991111,-1.933995525,0.8003873642,2.457500065,-1077.5425,9.019405796,
58095555,-1.949922221,0.7989210956,-1.499188354,-1081.499188,8.946344229,
58200000,-1.966895312,0.7973614488,-5.503743714,-1085.503744,8.869790266,
58304444,-1.990256655,0.7952197676,-9.540735333,-1089.540735,8.766567686,
58408888,-2.008730022,0.7935302717,-13.59475867,-1093.594759,8.68665003,
