Frequency,S11_Magnitude,S11_Magnitude (linear),S11_Phase,S11_Unwrapped Phase,S11_VSWR,
30000000,-1.421224392,0.8490607801,-137.4175473,-137.4175473,12.25036662,
30104444,-1.628858263,0.8290048796,-140.596114,-140.596114,10.69624019,
30208888,-1.816898491,0.811250683,-143.2192374,-143.2192374,9.596064832,
30313333,-1.893917972,0.8040889638,-145.174817,-145.174817,9.208715336,
30417777,-1.825855261,0.8104145637,-147.2622455,-147.2622455,9.549333528,
30522222,-1.691241676,0.8230721677,-149.9583079,-149.9583079,10.30404399,
30626666,-1.560914192,0.8355150755,-153.2183091,-153.2183091,11.15916903,
30731111,-1.45988035,0.8452904891,-156.7859703,-156.7859703,11.92745345,
30835555,-1.389085008,0.8522082803,-160.4892957,-160.4892957,12.53255787,
30940000,-1.338299267,0.8572056732,-164.2647781,-164.2647781,13.00615869,
31044444,-1.304712449,0.8605267546,-168.0806211,-168.0806211,13.33966776,
31148888,-1.280870086,0.8628921055,-171.8876567,-171.8876567,13.5870521,
31253333,-1.264388819,0.8645309769,-175.6785712,-175.6785712,13.76352272,
31357777,-1.25305331,0.8656599685,-179.4671863,-179.4671863,13.88759514,
31462222,-1.244500835,0.8665127518,176.7289987,-183.2710013,13.98270454,
31566666,-1.239676708,0.866994145,172.9653402,-187.0346598,14.03693202,
31671111,-1.240545176,0.866907462,169.1807561,-190.8192439,14.02713849,
31775555,-1.241395802,0.8668225682,165.3993883,-194.6006117,14.01755946,
31880000,-1.243607097,0.8666019165,161.6288026,-198.3711974,13.99271914,
31984444,-1.245060559,0.8664569149,157.874046,-202.125954,13.97643999,
32088888,-1.248962763,0.8660677399,154.1174508,-205.8825492,13.93292204,
32193333,-1.254118028,0.8655538622,150.3681553,-209.6318447,13.87584569,
32297777,-1.259215564,0.8650460389,146.5993821,-213.4006179,13.81986882,
32402222,-1.264075453,0.8645621677,142.8509189,-217.1490811,13.7669227,
32506666,-1.270308005,0.8639420244,139.0877396,-220.9122604,13.69961604,
32611111,-1.27713475,0.863263269,135.3328155,-224.6671845,13.62664776,
32715555,-1.282519991,0.8627282127,131.5601611,-228.4398389,13.56963619,
32820000,-1.285917403,0.8623908299,127.8047039,-232.1952961,13.53391514,
32924444,-1.292858859,0.8617019129,124.0326532,-235.9673468,13.46151601,
33028888,-1.296879942,0.8613030853,120.284789,-239.715211,13.41993143,
33133333,-1.301974567,0.8607980443,116.5203372,-243.4796628,13.36761423,
33237777,-1.307076396,0.8602925861,112.7817844,-247.2182156,13.31563253,
33342222,-1.3119562,0.8598094024,109.0321954,-250.9678046,13.26629199,
33446666,-1.314754834,0.8595324124,105.2774051,-254.7225949,13.23816009,
33551111,-1.319127009,0.8590998625,101.5235008,-258.4764992,13.19445031,
33655555,-1.321793242,0.8588361925,97.77267291,-262.2273271,13.16793748,
33760000,-1.324286472,0.8585897044,94.0052895,-265.9947105,13.14324177,
33864444,-1.324457292,0.8585728191,90.23478441,-269.7652156,13.14155319,
33968888,-1.32722969,0.8582988201,86.41755558,-273.5824444,13.11420852,
34073333,-1.331744109,0.8578528423,82.69370568,-277.3062943,13.06992607,
34177777,-1.334099924,0.8576202042,78.98707509,-281.0129249,13.04693685,
34282222,-1.33522558,0.8575090673,75.28671283,-284.7132872,13.03598084,
34386666,-1.338190624,0.8572163952,71.56506049,-288.4349395,13.00721044,
34491111,-1.337553174,0.8572793079,67.84286445,-292.1571356,13.01338495,
34595555,-1.340702384,0.8569685437,64.12999069,-295.8700093,12.9829381,
34700000,-1.335260248,0.8575056448,60.40393537,-299.5960646,13.03564371,
34804444,-1.341025994,0.8569366162,56.6807484,-303.3192516,12.97981753,
34908888,-1.340938615,0.8569452369,52.93503384,-307.0649662,12.98065997,
35013333,-1.340206525,0.8570174676,49.17785578,-310.8221442,12.9877226,
35117777,-1.337143755,0.8573197176,45.31330722,-314.6866928,13.01735381,
35222222,-1.337902658,0.8572448153,41.70262206,-318.2973779,13.00999903,
35326666,-1.337170055,0.8573171218,38.01522533,-321.9847747,13.01709879,
35431111,-1.336320948,0.8574009346,34.32026512,-325.6797349,13.02533737,
35535555,-1.335476457,0.8574843,30.61682262,-329.3831774,13.03354157,
35640000,-1.335386206,0.8574932098,26.89174366,-333.1082563,13.03441897,
35744444,-1.333913534,0.8576386081,23.18162851,-336.8183715,13.04875278,
35848888,-1.333490827,0.8576803468,19.48037539,-340.5196246,13.05287292,
35953333,-1.332366161,0.8577914082,15.76081635,-344.2391837,13.06384786,
36057777,-1.330879669,0.8579382221,12.03756541,-347.9624346,13.07838217,
36162222,-1.329214051,0.8581027573,8.332369059,-351.6676309,13.09470658,
36266666,-1.326147665,0.8584057474,4.618890508,-355.3811095,13.1248671,
36371111,-1.32294895,0.8587219269,0.8902209499,-359.1097791,13.15647847,
36475555,-1.318815689,0.859130655,-2.83352912,-362.8335291,13.19755306,
36580000,-1.314237594,0.8595835986,-6.54671659,-366.5467166,13.24335035,
36684444,-1.31399884,0.8596072268,-10.24643169,-370.2464317,13.24574752,
36788888,-1.311519639,0.8598526183,-13.97110545,-373.9711055,13.27069115,
36893333,-1.308620825,0.860139632,-17.70688728,-377.7068873,13.29997667,
36997777,-1.304799715,0.8605181091,-21.43505607,-381.4350561,13.33877894,
37102222,-1.301445727,0.8608504556,-25.15919079,-385.1591908,13.37302586,
37206666,-1.302033428,0.8607922111,-28.89423208,-388.8942321,13.36701219,
37311111,-1.299173294,0.8610757038,-32.60814372,-392.6081437,13.3963299,
37415555,-1.296669763,0.8613239271,-36.3983096,-396.3983096,13.42209862,
37520000,-1.290522651,0.8619337125,-40.34589945,-400.3458995,13.48579546,
37624444,-1.291585022,0.8618282959,-43.85028546,-403.8502855,13.47474367,
37728888,-1.290349698,0.8619508755,-47.5167712,-407.5167712,13.4875964,
37833333,-1.289876358,0.861997849,-51.23225754,-411.2322575,13.49252772,
37937777,-1.288230259,0.8621612253,-54.95044473,-414.9504447,13.5097053,
38042222,-1.288231027,0.862161149,-58.69228864,-418.6922886,13.50969727,
38146666,-1.286668046,0.8623163045,-62.43328259,-422.4332826,13.52604822,
38251111,-1.286749992,0.8623081691,-66.18660662,-426.1866066,13.52518996,
38355555,-1.287688732,0.8622149789,-69.89929875,-429.8992988,13.51536593,
38460000,-1.288960414,0.8620887532,-73.5993131,-433.5993131,13.50208048,
38564444,-1.287392724,0.862244363,-77.29516481,-437.2951648,13.51846213,
38668888,-1.287059132,0.8622774791,-80.97168521,-440.9716852,13.52195318,
38773333,-1.287914865,0.8621925318,-84.64263869,-444.6426387,13.51300155,
38877777,-1.288459461,0.862138475,-88.34216088,-448.3421609,13.50731086,
38982222,-1.293044302,0.8616835158,-92.04562264,-452.0456226,13.45959252,
39086666,-1.293542674,0.8616340763,-95.72877555,-455.7287755,13.45442596,
39191111,-1.297275096,0.8612639022,-99.41979291,-459.4197929,13.41585882,
39295555,-1.299131082,0.8610798884,-103.0928221,-463.0928221,13.39676356,
39400000,-1.302651816,0.8607309296,-106.7626644,-466.7626644,13.36069038,
39504444,-1.305055675,0.8604927514,-110.438808,-470.438808,13.33617263,
39608888,-1.311806831,0.8598241884,-114.0888462,-474.0888462,13.26779683,
39713333,-1.317414519,0.8592692574,-117.7425471,-477.7425471,13.2115359,
39817777,-1.320300751,0.8589837784,-121.3929912,-481.3929912,13.18276548,
39922222,-1.325587554,0.8584611036,-125.0587294,-485.0587294,13.13039137,
40026666,-1.331805954,0.8578467343,-128.7148238,-488.7148238,13.06932152,
40131111,-1.338667874,0.8571692964,-132.3786802,-492.3786802,13.00259153,
40235555,-1.344315448,0.8566121452,-136.0359425,-496.0359425,12.94818273,
40340000,-1.351550131,0.8558989497,-139.6889961,-499.6889961,12.87914936,
40444444,-1.358310405,0.8552330582,-143.3575173,-503.3575173,12.81530877,
40548888,-1.36644539,0.8544324435,-147.0662453,-507.0662453,12.73932522,
40653333,-1.372896269,0.853798105,-150.773728,-510.773728,12.67971325,
40757777,-1.380321402,0.8530685475,-154.4708092,-514.4708092,12.61178949,
40862222,-1.387994506,0.8523152806,-158.1275811,-518.1275811,12.54236246,
40966666,-1.396813572,0.8514503364,-161.7444801,-521.7444801,12.4635108,
41071111,-1.40829526,0.8503255663,-165.310442,-525.310442,12.36233551,
41175555,-1.420038478,0.8491767133,-168.889408,-528.889408,12.26055176,
41280000,-1.430707614,0.8481342846,-172.5023633,-532.5023633,12.16952938,
41384444,-1.440587919,0.84717007,-176.1388481,-536.1388481,12.08644191,
41488888,-1.449298181,0.8463209487,-179.7880798,-539.7880798,12.01413552,
41593333,-1.459526195,0.8453249554,176.5486476,-543.4513524,11.93033408,
41697777,-1.469039806,0.8443995821,172.892926,-547.107074,11.85343592,
41802222,-1.478969693,0.8434347988,169.241219,-550.758781,11.7742307,
41906666,-1.487532501,0.8426037254,165.5639218,-554.4360782,11.70678105,
42011111,-1.49822471,0.8415671302,161.8767549,-558.1232451,11.62364307,
42115555,-1.508250183,0.8405963325,158.2173363,-561.7826637,11.54676276,
42220000,-1.524643282,0.83901135,154.7796323,-565.2203677,11.42323605,
42324444,-1.534380068,0.8380713544,151.1166443,-568.8833557,11.35111918,
42428888,-1.545214926,0.8370265884,147.4835406,-572.5164594,11.27194044,
42533333,-1.557873252,0.8358076415,143.8728509,-576.1271491,11.18083483,
42637777,-1.568319553,0.8348030409,140.2448582,-579.7551418,11.10676038,
42742222,-1.581246592,0.8335615439,136.6413934,-583.3586066,11.01645369,
42846666,-1.592892161,0.8324446988,133.0407606,-586.9592394,10.93635764,
42951111,-1.606032134,0.8311863324,129.4350862,-590.5649138,10.84738196,
43055555,-1.617962448,0.8300454583,125.8327979,-594.1672021,10.76785262,
43160000,-1.62848183,0.8290408082,122.1978001,-597.8021999,10.69869826,
43264444,-1.641412737,0.8278075121,118.5442508,-601.4557492,10.61490855,
43368888,-1.653705791,0.826636753,114.9398077,-605.0601923,10.53647059,
43473333,-1.668728372,0.8252082884,111.4268836,-608.5731164,10.44219015,
43577777,-1.683805027,0.823777164,107.8897947,-612.1102053,10.3492669,
43682222,-1.701646358,0.8220868136,104.3774044,-615.6225956,10.24143769,
43786666,-1.715277404,0.8207976981,100.8311189,-619.1688811,10.16057092,
43891111,-1.730292034,0.8193800738,97.27656149,-622.7234385,10.0729754,
43995555,-1.745578321,0.8179393159,93.69892065,-626.3010794,9.985348154,
44100000,-1.75884094,0.8166913448,90.11967519,-629.8803248,9.910559558,
44204444,-1.776604142,0.8150228652,86.5472006,-633.4527994,9.812147147,
44308888,-1.791815034,0.813596831,83.02725083,-636.9727492,9.72943132,
44413333,-1.810943601,0.8118070526,79.55418029,-640.4458197,9.627390814,
44517777,-1.832878495,0.8097595437,76.11385324,-643.8861468,9.513010949,
44622222,-1.851828527,0.8079948146,72.66478772,-647.3352123,9.41638535,
44726666,-1.87231713,0.8060911322,69.22541379,-650.7745862,9.314123446,
44831111,-1.893333255,0.8041430952,65.78319108,-654.2168089,9.211536848,
44935555,-1.915226039,0.8021188049,62.33030413,-657.6696959,9.107074595,
45040000,-1.93535622,0.8002619887,58.88274629,-661.1172537,9.013116617,
45144444,-1.955793699,0.7983812243,55.42879042,-664.5712096,8.919711066,
45248888,-1.977609943,0.7963784562,51.95915221,-668.0408478,8.822143386,
45353333,-1.999383423,0.794384623,48.44925875,-671.5507413,8.726898975,
45457777,-2.021057257,0.7924048722,45.04107691,-674.9589231,8.634137472,
45562222,-2.04404772,0.7903102489,41.50844559,-678.4915544,8.537900588,
45666666,-2.063832377,0.7885121346,37.88780028,-682.1121997,8.456807348,
45771111,-2.088478639,0.7862778981,34.49520949,-685.5047905,8.357946522,
45875555,-2.117569135,0.783648927,31.09293401,-688.907066,8.244234252,
45980000,-2.147694509,0.780935696,27.78619486,-692.2138051,8.129739366,
46084444,-2.177084612,0.7782977401,24.51157392,-695.4884261,8.021107862,
46188888,-2.207604068,0.775567848,21.21390319,-698.7860968,7.911379149,
46293333,-2.236891592,0.7729571528,17.90547868,-702.0945213,7.808909967,
46397777,-2.266741706,0.7703053509,14.57056924,-705.4294308,7.707211979,
46502222,-2.299182416,0.7674337229,11.241159,-708.758841,7.599699082,
46606666,-2.332483835,0.76449704,7.938009944,-712.0619901,7.492462261,
46711111,-2.364475429,0.7616864479,4.658801777,-715.3411982,7.392304936,
46815555,-2.400276164,0.7585534567,1.370615402,-718.6293846,7.283407056,
46920000,-2.435419578,0.7554905234,-1.907400622,-721.9074006,7.179642066,
47024444,-2.471062699,0.7523966705,-5.178835362,-725.1788354,7.07743581,
47128888,-2.506232388,0.7493563306,-8.474683139,-728.4746831,6.979455475,
47233333,-2.542901247,0.7461994724,-11.77288087,-731.7728809,6.880204266,
47337777,-2.58260736,0.7427961293,-14.9617466,-734.9617466,6.775932745,
47442222,-2.620644049,0.7395504362,-18.05779318,-738.0577932,6.679029946,
47546666,-2.658887321,0.736301413,-21.13690277,-741.1369028,6.584416826,
47651111,-2.696880251,0.7330877922,-24.21998893,-744.2199889,6.49310051,
47755555,-2.735919215,0.7298003028,-27.29161507,-747.2916151,6.401932796,
47860000,-2.774780795,0.7265423934,-30.36956227,-750.3695623,6.313747915,
47964444,-2.811240328,0.7234990806,-33.46309659,-753.4630966,6.233249005,
48068888,-2.849699784,0.7203026471,-36.53275204,-756.532752,6.150586086,
48173333,-2.883596026,0.7174971803,-39.47251943,-759.4725194,6.079575356,
48277777,-2.917512163,0.7147010034,-42.36665607,-762.3666561,6.010189394,
48382222,-2.951375851,0.7119200224,-45.24596781,-765.2459678,5.942516508,
48486666,-2.981570596,0.7094494726,-48.11369346,-768.1136935,5.883484321,
48591111,-3.011992847,0.7069689787,-50.99535258,-770.9953526,5.825215948,
48695555,-3.038867091,0.7047849888,-53.84630632,-773.8463063,5.774723249,
48800000,-3.063117905,0.7028199889,-56.67017171,-776.6701717,5.729927738,
48904444,-3.081785557,0.7013111152,-59.51874823,-779.5187482,5.695930453,
49008888,-3.094124772,0.7003155367,-62.54148091,-782.5414809,5.673685977,
49113333,-3.111972896,0.6988779769,-65.05633214,-785.0563321,5.641825728,
49217777,-3.121774383,0.6980897814,-67.79198605,-787.7919861,5.624485945,
49322222,-3.124313101,0.697885773,-70.53716996,-790.53717,5.620012635,
49426666,-3.12323628,0.6979722978,-73.30422857,-793.3042286,5.621909135,
49531111,-3.118501633,0.6983528637,-76.04938141,-796.0493814,5.630263507,
49635555,-3.111307943,0.698931482,-78.79935476,-798.7993548,5.643006094,
49740000,-3.097532366,0.7000408472,-81.53804998,-801.53805,5.667574505,
49844444,-3.080563139,0.7014098219,-84.32116469,-804.3211647,5.698143967,
49948888,-3.057980454,0.7032358094,-87.09351005,-807.09351,5.73935759,
50053333,-3.031563279,0.7053778793,-89.86246586,-809.8624659,5.78835654,
50157777,-3.002285868,0.7077594986,-92.65384692,-812.6538469,5.843678376,
50262222,-2.971199956,0.7102970357,-95.4551058,-815.4551058,5.903622836,
50366666,-2.935470003,0.713224905,-98.27169827,-818.2716983,5.974106312,
50471111,-2.894929256,0.7165616103,-101.113056,-821.113056,6.056207179,
50575555,-2.853467565,0.7199902606,-103.9682761,-823.9682761,6.142608698,
50680000,-2.81031237,0.7235763799,-106.8318977,-826.8318977,6.235271716,
50784444,-2.76297871,0.7275302649,-109.7122914,-829.7122914,6.340264781,
50888888,-2.714922386,0.7315666191,-112.5710312,-832.5710312,6.450638194,
50993333,-2.666407829,0.7356641768,-115.4681471,-835.4681471,6.566133018,
51097777,-2.615418866,0.7399954625,-118.3847986,-838.3847986,6.692173448,
51202222,-2.564389209,0.7443557363,-121.3251128,-841.3251128,6.823371317,
51306666,-2.515968989,0.748516797,-124.2622447,-844.2622447,6.952817431,
51411111,-2.46549839,0.7528788213,-127.2448957,-847.2448957,7.093195454,
51515555,-2.416031045,0.7571788034,-130.2518496,-850.2518496,7.236513237,
51620000,-2.367063784,0.7614595026,-133.277155,-853.277155,7.384320575,
51724444,-2.317501203,0.7658168889,-136.3704382,-856.3704382,7.540325521,
51828888,-2.268813626,0.7701216253,-139.4476099,-859.4476099,7.700252916,
51933333,-2.220837774,0.7743871028,-142.5490866,-862.5490866,7.864741443,
52037777,-2.175193773,0.7784671869,-145.6612327,-865.6612327,8.028007958,
52142222,-2.131728668,0.7823724816,-148.776865,-868.776865,8.190014272,
52246666,-2.088585909,0.7862681878,-151.9245964,-871.9245964,8.357521367,
52351111,-2.044818436,0.7902401263,-155.09133,-875.09133,8.534712071,
52455555,-2.002995977,0.7940542987,-158.301024,-878.301024,8.711297624,
52560000,-1.960299336,0.797967187,-161.5283606,-881.5283606,8.899382039,
52664444,-1.921812018,0.8015108378,-164.7639964,-884.7639964,9.07611689,
52768888,-1.885856017,0.804835639,-167.9841617,-887.9841617,9.247772643,
52873333,-1.851038727,0.8080682881,-171.1835397,-891.1835397,9.420372854,
52977777,-1.817348739,0.8112086315,-174.4448479,-894.4448479,9.593704659,
53082222,-1.782424923,0.814476867,-177.7547937,-897.7547937,9.780326786,
53186666,-1.755031168,0.8170496374,179.0330563,-900.9669437,9.931926954,
53291111,-1.726477428,0.8197400022,175.7434286,-904.2565714,10.09508501,
53395555,-1.699610122,0.8222795582,172.4521319,-907.5478681,10.25362947,
53500000,-1.672135923,0.8248846155,169.1189511,-910.8810489,10.42104108,
53604444,-1.647852552,0.8271939938,165.8314197,-914.1685803,10.5736718,
53708888,-1.628209974,0.8290667564,162.5425216,-917.4574784,10.70047416,
53813333,-1.610250222,0.8307827853,159.2335315,-920.7664685,10.81912847,
53917777,-1.593432609,0.8323929045,155.9214196,-924.0785804,10.93266905,
54022222,-1.580401508,0.8336426483,152.5714279,-927.4285721,11.02231209,
54126666,-1.565926985,0.8350330229,149.2222543,-930.7777457,11.12363853,
54231111,-1.557164261,0.8358758676,145.8415944,-934.1584056,11.18589838,
54335555,-1.547763686,0.83678101,142.4423118,-937.5576882,11.25347614,
54440000,-1.54137857,0.8373963653,139.0379092,-940.9620908,11.29984805,
54544444,-1.535279948,0.8379845326,135.5974726,-944.4025274,11.34450039,
54648888,-1.53796355,0.837725668,132.2108691,-947.7891309,11.32480809,
54753333,-1.540994042,0.837433438,128.8291271,-951.1708729,11.30265299,
54857777,-1.548991705,0.8366627135,125.4212965,-954.5787035,11.2446016,
54962222,-1.562924798,0.8353216931,121.9882302,-958.0117698,11.14489047,
55066666,-1.579985713,0.8336825559,118.5691896,-961.4308104,11.02519682,
55171111,-1.600751952,0.831691767,115.1580511,-964.8419489,10.88296,
55275555,-1.631257952,0.8287758784,111.7571213,-968.2428787,10.68059723,
55380000,-1.65842107,0.8261881213,108.3911506,-971.6088494,10.50669341,
55484444,-1.702362954,0.8220189933,104.9798464,-975.0201536,10.2371541,
55588888,-1.751472826,0.8173844261,101.6415062,-978.3584938,9.951968432,
55693333,-1.802352298,0.8126104166,98.34741757,-981.6525824,9.672951843,
55797777,-1.861989504,0.8070501542,95.08060339,-984.9193966,9.365387913,
55902222,-1.926997449,0.8010324827,91.89727468,-988.1027253,9.051892024,
56006666,-1.991809419,0.79507762,88.76089456,-991.2391054,8.759792953,
56111111,-2.057367162,0.7890992705,85.68347072,-994.3165293,8.483134576,
56215555,-2.119378732,0.7834856804,82.67778652,-997.3222135,8.237264326,
56320000,-2.169056535,0.7790174271,79.67002752,-1000.329972,8.050487439,
56424444,-2.224965773,0.7740191601,76.97397697,-1003.026023,7.850307843,
56528888,-2.263801119,0.7705661801,74.28403189,-1005.715968,7.717110673,
56633333,-2.284552614,0.7687274146,71.59357093,-1008.406429,7.647804047,
56737777,-2.290830827,0.7681719746,68.92651392,-1011.073486,7.627084654,
56842222,-2.281640992,0.7689851451,66.24764235,-1013.752358,7.657451925,
56946666,-2.252769463,0.771545472,63.45168112,-1016.548319,7.754477392,
57051111,-2.219632265,0.7744945869,60.80021388,-1019.199786,7.868966702,
57155555,-2.174974857,0.7784868073,58.06557719,-1021.934423,8.02880761,
57260000,-2.121832087,0.7832644139,55.23108296,-1024.768917,8.227833952,
57364444,-2.062872103,0.7885993138,52.32124055,-1027.678759,8.460707228,
57468888,-2.000554712,0.7942775077,49.33003352,-1030.669966,8.721834389,
57573333,-1.939458399,0.7998841295,46.30116837,-1033.698832,8.994209831,
57677777,-1.872719917,0.8060537525,43.17791219,-1036.822088,9.312135585,
57782222,-1.810480126,0.8118503714,39.99006563,-1040.009934,9.629837619,
57886666,-1.750553097,0.8174709817,36.77414612,-1043.225854,9.95716187,
57991111,-1.688346831,0.823346528,33.36326867,-1046.636731,10.32160029,
58095555,-1.63499928,0.8284189715,30.15670489,-1049.843295,10.65630033,
58200000,-1.581611305,0.8335265441,26.78172393,-1053.218276,11.01392732,
58304444,-1.531221388,0.83837618,23.38651152,-1056.613488,11.37441362,
58408888,-1.483976641,0.8429487441,20.01472579,-1059.985274,11.734696,
