Frequency,S11_Magnitude,S11_Phase,S11_VSWR,S12_Magnitude,S12_Phase,S12_VSWR,S21_Magnitude,S21_Phase,S21_VSWR,S22_Magnitude,S22_Phase,S22_VSWR,
200000000,-8.472957321,-143.4835066,2.210321111,-1.02653675,-53.80881379,16.94239848,-1.079909858,-45.93916407,16.10703965,-8.383024885,-140.0589133,2.230668813,
200200066,-8.438717628,-143.6363868,2.218012951,-1.041259451,-53.99514429,16.70340524,-1.082857064,-46.04861203,16.06331411,-8.343700951,-140.1238675,2.239714552,
200400133,-8.41339193,-143.7421891,2.223745703,-1.044631848,-54.13194292,16.64961058,-1.09088453,-46.1941061,15.94541615,-8.304901364,-140.2551229,2.248730024,
200600200,-8.366584121,-143.7692978,2.234439574,-1.058229134,-54.27810182,16.43619638,-1.100032609,-46.33089282,15.81316048,-8.256426365,-140.5068465,2.260121718,
200800266,-8.316917916,-143.8997595,2.245928189,-1.050385303,-54.37977992,16.5586329,-1.107080178,-46.46462712,15.71276483,-8.227726076,-140.4604179,2.266934313,
201000333,-8.257689906,-144.0583399,2.25982296,-1.052347947,-54.52739414,16.52782604,-1.118458394,-46.62572948,15.55335113,-8.192999465,-140.5872278,2.275245912,
201200400,-8.231542896,-144.1196867,2.266025372,-1.064906362,-54.62422173,16.33339265,-1.120118586,-46.80798327,15.53036224,-8.151263957,-140.7819636,2.285335627,
201400466,-8.207867413,-144.1307789,2.271678119,-1.076571101,-54.80395563,16.15686396,-1.122456027,-46.94357655,15.49811084,-8.102755402,-140.88949,2.297202861,
201600533,-8.138519306,-144.1838522,2.288438818,-1.077741288,-54.96902916,16.13936606,-1.134245551,-47.07869721,15.33747091,-8.074689533,-140.953531,2.304138751,
201800600,-8.122104474,-144.3634944,2.292451047,-1.086714372,-55.10824256,16.00644484,-1.13827971,-47.17678406,15.28326808,-8.032638726,-141.1107875,2.314627902,
202000666,-8.085463093,-144.4480988,2.301470192,-1.093580145,-55.18750464,15.90621484,-1.145165052,-47.33410094,15.19164022,-8.00964154,-141.1825664,2.320414197,
202200733,-8.044604837,-144.6138907,2.311631125,-1.101286204,-55.36641601,15.79520841,-1.149510793,-47.51546609,15.13437438,-7.961508123,-141.3175745,2.332640776,
202400800,-8.003937468,-144.6400367,2.321854898,-1.107744491,-55.47091813,15.70336739,-1.157771544,-47.62992384,15.02670566,-7.923833798,-141.4656604,2.34232143,
202600866,-7.96563485,-144.7555025,2.331586334,-1.111568803,-55.59980978,15.64948695,-1.16497364,-47.76957257,14.93408298,-7.882081634,-141.4648452,2.353165452,
202800933,-7.938248259,-144.9022169,2.338605945,-1.116798968,-55.7429411,15.5763978,-1.16921922,-47.88623895,14.88001801,-7.850404568,-141.7456676,2.361474927,
203001000,-7.909984619,-145.0225433,2.345904836,-1.122540988,-55.91165567,15.4969411,-1.178096623,-48.02704705,14.76823065,-7.813962674,-141.7927251,2.37112326,
203201067,-7.874417034,-145.0981394,2.355169473,-1.13257791,-56.07178498,15.35999025,-1.178200008,-48.15027136,14.76693872,-7.778101637,-141.8733605,2.380711967,
203401133,-7.842089649,-145.121394,2.363667957,-1.133738434,-56.14630663,15.34431185,-1.187232826,-48.32862118,14.65493261,-7.754771324,-142.0389762,2.387000916,
203601200,-7.806272693,-145.226657,2.373171535,-1.144217496,-56.32376776,15.20418445,-1.195617129,-48.46988803,14.55248485,-7.700239116,-142.1045953,2.401859105,
203801267,-7.751874898,-145.3809091,2.387784496,-1.155709716,-56.4286528,15.05343469,-1.206726227,-48.61998407,14.41893906,-7.670782368,-142.2573671,2.409978677,
204001333,-7.705597601,-145.445026,2.400389175,-1.155949715,-56.61128655,15.0503185,-1.21063931,-48.76491185,14.37248335,-7.640667596,-142.2264653,2.418348519,
204201400,-7.69023713,-145.6276956,2.404608667,-1.159623846,-56.72280102,15.00277404,-1.212017242,-48.85644043,14.35619622,-7.602880088,-142.4370222,2.42895065,
204401467,-7.658127272,-145.6371891,2.413487395,-1.159238868,-56.90265466,15.00774162,-1.2191273,-49.05338745,14.2727415,-7.569921191,-142.4792683,2.438289907,
204601533,-7.632198508,-145.7879195,2.420715005,-1.17017565,-56.98838012,14.86789266,-1.227978331,-49.14868303,14.17020454,-7.542872429,-142.6304229,2.446019268,
204801600,-7.595466247,-145.9186557,2.431043933,-1.18205566,-57.16262643,14.71891928,-1.233525901,-49.30576023,14.10668877,-7.506119857,-142.7557485,2.456616388,
205001667,-7.556861572,-146.0111536,2.44201444,-1.182088719,-57.2970856,14.7185089,-1.243620082,-49.40157666,13.99257354,-7.472303325,-142.8735948,2.466464714,
205201733,-7.509327087,-146.0996228,2.455687239,-1.194637311,-57.41110142,14.56438293,-1.249904772,-49.58865596,13.9224574,-7.448881505,-143.048884,2.473341431,
205401800,-7.486475146,-146.1425789,2.462325988,-1.194737794,-57.56802966,14.56316184,-1.251239475,-49.71834277,13.90765741,-7.418472471,-143.039131,2.482338336,
205601867,-7.468260352,-146.3019282,2.467648476,-1.202835984,-57.74868417,14.46542373,-1.268524569,-49.82822381,13.71880808,-7.386548461,-143.1847433,2.491867979,
205801933,-7.429063234,-146.4027166,2.479196059,-1.214766793,-57.84335079,14.32380717,-1.266355673,-49.97238484,13.74222113,-7.337336675,-143.2913086,2.506730362,
206002000,-7.402458916,-146.5320786,2.487107657,-1.2168012,-57.97035442,14.29993671,-1.271639516,-50.12927471,13.68532245,-7.314357496,-143.3575521,2.513742821,
206202067,-7.363030785,-146.5310882,2.498944268,-1.218650898,-58.06401735,14.27830281,-1.276143812,-50.26230937,13.63719097,-7.286685022,-143.5462538,2.522249654,
206402134,-7.328397486,-146.7125869,2.509452764,-1.233035572,-58.25980322,14.11227963,-1.284838739,-50.4062038,13.54523591,-7.243609133,-143.5599287,2.535628536,
206602200,-7.304993694,-146.8007008,2.516613726,-1.229006459,-58.31459447,14.15838985,-1.292951476,-50.56018024,13.46055528,-7.21352858,-143.699184,2.545071425,
206802267,-7.265730316,-146.9024224,2.528736991,-1.240829194,-58.51621111,14.02393865,-1.296401118,-50.63807785,13.4248697,-7.192700763,-143.7473065,2.551658612,
207002334,-7.243540733,-146.9556144,2.535649914,-1.256212767,-58.62897456,13.85278794,-1.303772339,-50.81946155,13.34925052,-7.15442204,-144.0004035,2.563870662,
207202400,-7.203436085,-147.0657519,2.548258339,-1.257771536,-58.70957348,13.83567979,-1.312908776,-50.92808666,13.2567032,-7.129111425,-144.0128234,2.572021575,
207402467,-7.176058803,-147.2698465,2.556950984,-1.257820491,-58.89370829,13.83514317,-1.322836555,-51.05110519,13.15759201,-7.094401338,-144.1276411,2.583299287,
207602534,-7.153203473,-147.3473702,2.564261689,-1.27421054,-59.04383595,13.65780754,-1.33093574,-51.21716482,13.07783334,-7.05712521,-144.2531447,2.595541108,
207802600,-7.134281767,-147.4236213,2.57035158,-1.273569751,-59.16639403,13.66465481,-1.330375915,-51.3107731,13.08331504,-7.050579515,-144.384033,2.597704865,
208002667,-7.102711649,-147.5034269,2.58058858,-1.280918347,-59.2894405,13.58654203,-1.340048469,-51.48680656,12.98924842,-7.016536322,-144.405806,2.609026888,
208202734,-7.073442231,-147.6010589,2.590165703,-1.293688636,-59.41892103,13.45291354,-1.348873243,-51.54417385,12.90460575,-6.975609882,-144.6300953,2.622792324,
208402800,-7.031529073,-147.6710051,2.604026387,-1.297493635,-59.52196842,13.41360756,-1.354341776,-51.7144745,12.85270908,-6.952882607,-144.6982826,2.630510275,
208602867,-7.006779522,-147.7744741,2.612293167,-1.302075662,-59.67607965,13.36658024,-1.359005356,-51.83981538,12.80878207,-6.921555709,-144.8135641,2.641236054,
208802934,-6.98065997,-147.9452202,2.621084551,-1.310163629,-59.77739886,13.28437419,-1.375135532,-51.95748653,12.65915147,-6.90155792,-145.0111043,2.648136543,
209003001,-6.952008227,-147.9841984,2.630808267,-1.315983608,-59.94728437,13.22584631,-1.37071047,-52.12019585,12.69984903,-6.875898835,-144.9846787,2.657052395,
209203067,-6.927881268,-148.0951014,2.639062067,-1.31959325,-60.05854396,13.1898063,-1.383414538,-52.21992517,12.58370963,-6.84644513,-145.1820406,2.667373438,
209403134,-6.893387334,-148.182765,2.650968029,-1.323146046,-60.17448407,13.15452624,-1.389654787,-52.34463534,12.52744118,-6.817596148,-145.283999,2.677573477,
209603201,-6.877207408,-148.2670676,2.656596008,-1.327701362,-60.3173077,13.10956771,-1.393698797,-52.50453713,12.49124591,-6.790946816,-145.3391569,2.687076727,
209803267,-6.842083097,-148.4044973,2.668909906,-1.336470387,-60.42305582,13.02388665,-1.400545688,-52.58192578,12.43044147,-6.764278161,-145.3722934,2.696665625,
210003334,-6.818237218,-148.5979209,2.677345831,-1.357974618,-60.55966899,12.81846473,-1.40785863,-52.7745746,12.3661528,-6.727730975,-145.6815595,2.709936096,
210203401,-6.784268713,-148.5792904,2.689470454,-1.353972274,-60.7324364,12.85620244,-1.411478081,-52.89033294,12.33458089,-6.700064793,-145.7277236,2.7200829,
210403467,-6.771925031,-148.7995978,2.693908029,-1.363156615,-60.82840948,12.76993407,-1.422881389,-52.99357776,12.23616412,-6.685420279,-145.7977047,2.725489566,
210603534,-6.742607864,-148.7863649,2.704515996,-1.368442074,-60.92517554,12.72081386,-1.424529121,-53.13054823,12.22207387,-6.651018064,-145.8288168,2.738288908,
210803601,-6.719164587,-148.965427,2.71306852,-1.372396758,-61.09539552,12.68430913,-1.432847358,-53.25556565,12.15143798,-6.630191331,-145.9674222,2.746105178,
211003667,-6.689900342,-148.9972213,2.723832918,-1.375728181,-61.19188462,12.65372076,-1.438310047,-53.38489136,12.10549597,-6.598221027,-146.1071996,2.758204269,
211203734,-6.666635782,-149.1211063,2.732461168,-1.381941546,-61.29447354,12.59706591,-1.449238121,-53.48154071,12.01463111,-6.577382231,-146.2158551,2.766157016,
211403801,-6.64808174,-149.2272922,2.739387801,-1.398842251,-61.48155152,12.44551325,-1.454916807,-53.60350921,11.9679541,-6.547731342,-146.2893201,2.777564137,
211603867,-6.611947389,-149.2336987,2.752994538,-1.390428019,-61.56067231,12.52050417,-1.458097489,-53.76994626,11.94196912,-6.523715595,-146.3235111,2.786882926,
211803934,-6.582674386,-149.3632085,2.764132365,-1.407837409,-61.66014852,12.36633838,-1.466296036,-53.92085795,11.87551106,-6.504633077,-146.5260761,2.794338837,
212004001,-6.551366383,-149.5439731,2.776159869,-1.411275884,-61.79882689,12.33634034,-1.477978512,-53.97235223,11.78208888,-6.477836418,-146.6960012,2.804886412,
212204068,-6.544166405,-149.6194773,2.778942908,-1.419584629,-61.9746862,12.26445412,-1.480876841,-54.10887763,11.75914033,-6.449976181,-146.7346778,2.81594984,
212404134,-6.52089241,-149.7038097,2.787983121,-1.423059671,-62.05416361,12.234638,-1.484258153,-54.27683109,11.73248113,-6.426081625,-146.8237825,2.825518394,
212604201,-6.485871602,-149.8183503,2.80171407,-1.429279822,-62.16969069,12.18163147,-1.493607397,-54.39554277,11.65939891,-6.400960576,-146.8947895,2.835658624,
212804268,-6.473715597,-149.9160888,2.806516533,-1.433792824,-62.38334122,12.14346136,-1.491330184,-54.53146154,11.67711507,-6.374163243,-146.9716943,2.846567566,
213004334,-6.445065515,-150.0005568,2.817910257,-1.442428862,-62.44257838,12.07108676,-1.497911506,-54.68956586,11.62606149,-6.34980163,-147.1130256,2.856568422,
213204401,-6.411376076,-150.1126506,2.831444281,-1.447540165,-62.52000613,12.02865906,-1.513495939,-54.80675386,11.50694261,-6.323128283,-147.223468,2.867610579,
213404468,-6.397159518,-150.1973337,2.837200188,-1.454077376,-62.65481275,11.97483095,-1.51666216,-54.88712597,11.48304169,-6.301038651,-147.3124777,2.876829063,
213604534,-6.374528827,-150.2836178,2.846418096,-1.459811302,-62.81799211,11.92801497,-1.5210555,-55.03122815,11.45004284,-6.281840813,-147.4200858,2.884895693,
213804601,-6.356106156,-150.5482409,2.853972629,-1.470303384,-62.93865362,11.84329751,-1.532869181,-55.09431096,11.36224957,-6.265395803,-147.4857506,2.891846642,
214004668,-6.32881873,-150.5461421,2.86524671,-1.471854059,-63.02687552,11.83087939,-1.531615248,-55.23721823,11.37150375,-6.239472935,-147.6339831,2.902881284,
214204734,-6.308833815,-150.6654999,2.873568279,-1.480653712,-63.11783279,11.76090383,-1.540223912,-55.36303563,11.30827491,-6.208469494,-147.7158409,2.916204774,
214404801,-6.284136884,-150.6508416,2.883928213,-1.485192995,-63.25489799,11.72513205,-1.545511749,-55.50369576,11.26978698,-6.189368018,-147.7976276,2.924482758,
214604868,-6.260771601,-150.7989537,2.893808053,-1.489111431,-63.40493486,11.69442866,-1.556241272,-55.66550023,11.19249721,-6.166743209,-147.9055896,2.934356781,
214804934,-6.238873484,-150.9343206,2.903137584,-1.500923277,-63.53720181,11.60284785,-1.564226015,-55.77414978,11.13566935,-6.147589424,-148.0572217,2.942775147,
215005001,-6.215728704,-151.055905,2.913072762,-1.50830199,-63.62825494,11.54636814,-1.567847421,-55.86371361,11.1100869,-6.126141397,-148.073389,2.952266938,
215205068,-6.195614917,-151.1410433,2.921769693,-1.513053621,-63.73663077,11.51028952,-1.57693929,-55.95898662,11.04637904,-6.105611981,-148.2874202,2.96141724,
215405135,-6.174467713,-151.1703846,2.930977142,-1.511162833,-63.90175862,11.52461883,-1.57707182,-56.07655875,11.04545583,-6.080151552,-148.3196805,2.972854731,
215605201,-6.157373505,-151.2085482,2.938468086,-1.52962661,-64.04708353,11.38621133,-1.582920807,-56.24023648,11.00486602,-6.053921543,-148.4158537,2.984742639,
215805268,-6.150413488,-151.3070423,2.941530498,-1.528661959,-64.13265958,11.39335953,-1.583106995,-56.31512357,11.00357888,-6.040477218,-148.5082626,2.990877481,
216005335,-6.132720137,-151.4656806,2.949348177,-1.541435479,-64.26325014,11.29943305,-1.596413558,-56.43524759,10.91236887,-6.012870083,-148.6594962,3.003564477,
216205401,-6.092498376,-151.5998032,2.96729579,-1.539710559,-64.40005228,11.31202551,-1.604678298,-56.54467874,10.85648177,-5.989650012,-148.7059077,3.01432953,
216405468,-6.066099421,-151.7079483,2.979210106,-1.550648055,-64.50629868,11.23265396,-1.609378662,-56.69634074,10.82495415,-5.965653076,-148.830312,3.025546277,
216605535,-6.043018996,-151.7936048,2.989715454,-1.56361337,-64.59382265,11.14000897,-1.616107242,-56.78403224,10.7801424,-5.944490697,-148.922712,3.035516172,
216805601,-6.027109685,-151.8501101,2.997005506,-1.569765084,-64.71227044,11.09658801,-1.618581031,-56.90027195,10.76376112,-5.930046678,-148.9843198,3.042363401,
217005668,-6.006842198,-151.9893409,3.006350749,-1.568833916,-64.82956734,11.10313859,-1.633817927,-57.07623844,10.6639602,-5.90700615,-149.1454031,3.053357818,
217205735,-5.988206292,-152.1225071,3.015001719,-1.577946133,-64.93277796,11.03936925,-1.638683913,-57.14502244,10.63248038,-5.887469201,-149.2209035,3.062750416,
217405801,-5.962104708,-152.167277,3.027212832,-1.585039026,-65.13478017,10.99024045,-1.640887782,-57.20273571,10.61828436,-5.860701457,-149.2682478,3.075724849,
217605868,-5.947352738,-152.2276019,3.034163514,-1.59163255,-65.13400618,10.94496432,-1.648370131,-57.43246095,10.57037156,-5.848733907,-149.4337481,3.081565439,
217805935,-5.926640136,-152.368324,3.043983334,-1.5978861,-65.26199372,10.90236893,-1.653625435,-57.51248527,10.53697951,-5.832039653,-149.5483546,3.089754374,
218006002,-5.903107352,-152.4674114,3.055227052,-1.599576757,-65.42560473,10.89091055,-1.665010883,-57.62271836,10.4653619,-5.808047234,-149.6398912,3.101608763,
218206068,-5.879282275,-152.6085814,3.066705637,-1.605808621,-65.52697118,10.84888324,-1.667626442,-57.7832382,10.44904786,-5.787980976,-149.7280939,3.111601552,
218406135,-5.86637808,-152.5968,3.072963101,-1.613234438,-65.66762209,10.79922916,-1.674399696,-57.90120878,10.40703863,-5.761721536,-149.7867255,3.1247875,
218606202,-5.842155488,-152.681333,3.084786516,-1.618052372,-65.72251475,10.76725765,-1.681001462,-58.03246478,10.3664198,-5.755536674,-149.9679936,3.127911322,
218806268,-5.833066201,-152.8296028,3.089249424,-1.625213276,-65.84938189,10.72008957,-1.685860239,-58.05000285,10.33672896,-5.731700619,-150.0388784,3.140015676,
219006335,-5.805225859,-152.9307944,3.103009451,-1.634921871,-65.92208319,10.65680191,-1.694659593,-58.26481971,10.28339289,-5.710933588,-150.1168722,3.150646872,
219206402,-5.788511807,-153.024859,3.111336279,-1.644492278,-66.11674979,10.59514858,-1.701712017,-58.32386095,10.24104505,-5.689690297,-150.2006688,3.161605057,
219406468,-5.762601534,-153.1024393,3.124343599,-1.646549578,-66.23919194,10.58198916,-1.71068832,-58.41742755,10.1876515,-5.669275038,-150.3216206,3.172216251,
219606535,-5.755910479,-153.2235911,3.127722324,-1.653273873,-66.36000382,10.53920668,-1.710222586,-58.53736282,10.19040798,-5.656417734,-150.3765615,3.178939764,
219806602,-5.731488911,-153.301123,3.140123652,-1.660208472,-66.43104291,10.49545024,-1.722451066,-58.64877271,10.11852856,-5.638825139,-150.5738123,3.188190945,
220006668,-5.718892007,-153.3736368,3.146563293,-1.667304468,-66.60447175,10.45105334,-1.722670689,-58.82671172,10.11724697,-5.612186221,-150.6136401,3.202313461,
220206735,-5.70471293,-153.4961362,3.153846998,-1.672377778,-66.6544355,10.41954328,-1.728938516,-58.87717501,10.08080924,-5.601103182,-150.6905432,3.208230035,
220406802,-5.677707422,-153.5671621,3.167823792,-1.678468888,-66.76331573,10.38196413,-1.738737243,-58.9937372,10.0243729,-5.583564215,-150.8695234,3.217642695,
220606868,-5.657511644,-153.7131335,3.178366491,-1.684579154,-66.92772475,10.34454069,-1.748115261,-59.10234778,9.970954149,-5.55686089,-150.8936305,3.232091616,
220806935,-5.637820221,-153.7531737,3.188721192,-1.685770254,-67.0106688,10.33727728,-1.754537694,-59.2798852,9.934701455,-5.549008443,-150.9754085,3.236367862,
221007002,-5.630487972,-153.8083749,3.192595995,-1.692979837,-67.1364146,10.29353154,-1.75742571,-59.40693201,9.918486133,-5.530750802,-151.0763546,3.246359043,
221207069,-5.611226405,-153.9698465,3.202824894,-1.699566014,-67.22384614,10.25389388,-1.77460147,-59.45273162,9.823143553,-5.514439823,-151.2579972,3.255342786,
221407135,-5.590285922,-154.0594027,3.214028128,-1.712173116,-67.36202633,10.17887366,-1.768471159,-59.58785504,9.856959614,-5.491148952,-151.3296503,3.268266517,
221607202,-5.564881161,-154.1555016,3.227736856,-1.717208319,-67.46123537,10.14921983,-1.77979721,-59.68310108,9.794665793,-5.481456036,-151.4291195,3.2736784,
221807269,-5.551743834,-154.2078209,3.234876817,-1.723620217,-67.61646508,10.11170984,-1.786212942,-59.83835795,9.75973067,-5.459976613,-151.5459494,3.28574182,
222007335,-5.533173908,-154.3395152,3.245029118,-1.732478318,-67.69474768,10.06034765,-1.790763743,-59.91805463,9.735102809,-5.434788193,-151.6048325,3.300013776,
222207402,-5.51569884,-154.3721139,3.25464739,-1.732767831,-67.8151427,10.05867785,-1.789424375,-60.06659064,9.7423381,-5.423766097,-151.7028166,3.306302035,
222407469,-5.501465843,-154.4631349,3.26252789,-1.747831352,-67.88356926,9.972562897,-1.801737973,-60.15765049,9.676226411,-5.39188178,-151.8538187,3.324641915,
222607535,-5.490691311,-154.6192275,3.26852159,-1.744477109,-67.99519855,9.99160925,-1.807577453,-60.28132981,9.645190237,-5.385501535,-151.9059777,3.328338749,
222807602,-5.468543646,-154.6514846,3.280918611,-1.753194937,-68.16222433,9.942258873,-1.814989038,-60.41824738,9.606087132,-5.371568699,-151.9748538,3.336443197,
223007669,-5.454310739,-154.7692622,3.288940284,-1.756882208,-68.23575444,9.921533642,-1.824824386,-60.50974219,9.554688595,-5.356206602,-152.0830063,3.345429441,
223207735,-5.434269237,-154.8645447,3.300309257,-1.769173023,-68.36272862,9.853076063,-1.828798571,-60.57604436,9.534077308,-5.33657102,-152.1759521,3.356993219,
223407802,-5.422914326,-154.8851128,3.306789081,-1.767443244,-68.41726886,9.862652852,-1.832124488,-60.72198111,9.516897113,-5.329981915,-152.2785536,3.360893363,
223607869,-5.392299458,-155.0632614,3.32440022,-1.776251155,-68.56914229,9.814083544,-1.843432481,-60.82147266,9.458950497,-5.309708285,-152.3942188,3.372956094,
223807935,-5.380605017,-155.1140607,3.331182019,-1.780882513,-68.66875256,9.788738322,-1.848528608,-60.92198782,9.43306854,-5.294545342,-152.472356,3.382040246,
224008002,-5.367182027,-155.2160399,3.33900382,-1.798025428,-68.8042573,9.696063369,-1.851602188,-61.11787436,9.417527727,-5.270592052,-152.6064868,3.396500504,
224208069,-5.351858733,-155.3542999,3.347982443,-1.794585734,-68.87502028,9.714515933,-1.858473481,-61.18822698,9.382971319,-5.258547517,-152.682613,3.403822918,
