Frequency,S11_Magnitude,S11_Phase,S11_VSWR,S12_Magnitude,S12_Phase,S12_VSWR,S21_Magnitude,S21_Phase,S21_VSWR,S22_Magnitude,S22_Phase,S22_VSWR,
200000000,-1.155183144,-177.4282811,15.06027637,-6.663696717,-86.17580491,2.73355569,-6.744901253,-94.52082091,2.703682678,-1.114505786,-176.683629,15.60835939,
200200066,-1.155624969,-177.519118,15.05453537,-6.681896,-86.30230091,2.72679442,-6.739843673,-94.48010124,2.705521174,-1.115257116,-176.7485807,15.59787312,
200400133,-1.154107022,-177.586902,15.0742777,-6.676673187,-86.32414039,2.728730808,-6.740742986,-94.61473926,2.705194051,-1.114768444,-176.7499864,15.60469188,
200600200,-1.155393603,-177.6223197,15.05754116,-6.690329509,-86.35178536,2.723674341,-6.762967614,-94.66395883,2.697138889,-1.112746354,-176.8602241,15.6329712,
200800266,-1.152900311,-177.6422829,15.09000925,-6.670425822,-86.3948414,2.731051232,-6.758043978,-94.68322226,2.69891863,-1.107164539,-176.8558236,15.71157082,
201000333,-1.148810805,-177.6910471,15.14356914,-6.66844971,-86.43093984,2.731786157,-6.766785752,-94.7521812,2.695760623,-1.108251606,-176.8974002,15.69620126,
201200400,-1.149817489,-177.7298491,15.13034928,-6.679272264,-86.36649518,2.727766788,-6.763262263,-94.8620211,2.697032468,-1.109563674,-176.9594448,15.67769068,
201400466,-1.148240121,-177.7601726,15.15107371,-6.687796722,-86.4459695,2.724610509,-6.762365007,-94.95542509,2.697356566,-1.10621885,-177.0163964,15.72496611,
201600533,-1.143190842,-177.7840968,15.21779933,-6.682852798,-86.50489292,2.726440025,-6.780421332,-94.95656211,2.690851774,-1.106859772,-177.0729952,15.71588521,
201800600,-1.145090687,-177.8313233,15.19262395,-6.690581135,-86.53917482,2.723581376,-6.777234806,-94.98321652,2.691997075,-1.104618286,-177.1269408,15.74768976,
202000666,-1.143281631,-177.9138207,15.21659435,-6.696274791,-86.48663618,2.721479766,-6.776902283,-95.09691293,2.692116656,-1.105943373,-177.1534808,15.72887244,
202200733,-1.141451141,-177.9388063,15.2409262,-6.694810474,-86.6099835,2.722019909,-6.777225426,-95.17856057,2.692000448,-1.105122864,-177.2098696,15.74051901,
202400800,-1.137410606,-177.9684175,15.2949128,-6.70206981,-86.55277644,2.719344588,-6.788207567,-95.24057591,2.688057997,-1.104037473,-177.2051088,15.75595203,
202600866,-1.140780482,-177.999431,15.24986054,-6.697775217,-86.63725595,2.720926562,-6.789182855,-95.26077952,2.687708528,-1.102857837,-177.2651369,15.7727596,
202800933,-1.142742727,-178.0368928,15.22374964,-6.7009526,-86.57139234,2.719755924,-6.786255049,-95.25452927,2.688757947,-1.099147809,-177.3171013,15.82585592,
203001000,-1.144811908,-178.081026,15.1963129,-6.70115465,-86.67090147,2.719681522,-6.792551431,-95.35220498,2.686502299,-1.098158876,-177.3724855,15.84006974,
203201067,-1.141044823,-178.1239708,15.24633781,-6.709706195,-86.75186747,2.716536867,-6.780959743,-95.38471382,2.69065837,-1.098701131,-177.3703815,15.8322728,
203401133,-1.137506426,-178.1114964,15.29362807,-6.701957533,-86.70690308,2.71938592,-6.789524652,-95.54079579,2.687586079,-1.100031286,-177.4305243,15.81317945,
203601200,-1.137857298,-178.1733502,15.28892554,-6.712891238,-86.76889954,2.715367782,-6.795523432,-95.61253665,2.68543912,-1.09406327,-177.4968501,15.89920938,
203801267,-1.13679072,-178.2496711,15.30322924,-6.722397161,-86.76415503,2.711885498,-6.803134519,-95.631607,2.682720841,-1.096525562,-177.5192814,15.86360141,
204001333,-1.133752369,-178.2802558,15.34412379,-6.717049517,-86.8789906,2.713843216,-6.818148434,-95.72431712,2.677377355,-1.09608327,-177.5470171,15.86998573,
204201400,-1.133176901,-178.3325965,15.351894,-6.713153298,-86.86729935,2.715271643,-6.801035697,-95.68787861,2.683469791,-1.094102172,-177.6023904,15.89864556,
204401467,-1.131867619,-178.3573659,15.36960199,-6.704416352,-86.99438959,2.718481105,-6.803313153,-95.8056319,2.682657119,-1.092104856,-177.6366365,15.9276454,
204601533,-1.13588577,-178.4056,15.31538647,-6.716312375,-86.96484295,2.714113333,-6.81136835,-95.80600221,2.679787337,-1.096317535,-177.685251,15.86660355,
204801600,-1.131249998,-178.4768362,15.37796953,-6.725328814,-87.03633187,2.710813636,-6.807086969,-95.93245922,2.681311753,-1.090491174,-177.726633,15.9511528,
205001667,-1.127997713,-178.4856605,15.42218295,-6.715679748,-87.07276591,2.714345201,-6.820215502,-95.98693906,2.676643617,-1.091931622,-177.7802776,15.93016567,
205201733,-1.122836553,-178.5177168,15.49287316,-6.732112004,-87.06958381,2.708337343,-6.823105922,-96.04095375,2.675618401,-1.089739504,-177.8449457,15.96212659,
205401800,-1.123843952,-178.5644025,15.47902418,-6.728248989,-87.14936601,2.709746945,-6.81823956,-96.13328552,2.677344999,-1.095577724,-177.8729474,15.87728941,
205601867,-1.129726447,-178.6285675,15.39864981,-6.725026319,-87.25182796,2.710924188,-6.838425155,-96.18050418,2.670199956,-1.089475928,-177.9199309,15.96597819,
205801933,-1.126964577,-178.678994,15.43628146,-6.743897002,-87.22614057,2.704047506,-6.829464426,-96.22377895,2.673366283,-1.085568502,-177.956012,16.02329643,
206002000,-1.127638772,-178.7340766,15.42707824,-6.730360217,-87.25719022,2.708976354,-6.825218441,-96.36152452,2.674869679,-1.085671413,-177.9750158,16.02178153,
206202067,-1.12299842,-178.730656,15.49064627,-6.734771045,-87.23976028,2.707368053,-6.824800694,-96.3743746,2.675017698,-1.085885459,-178.0435908,16.01863158,
206402134,-1.120243259,-178.7800743,15.52863863,-6.751224241,-87.34362788,2.701388255,-6.826989348,-96.47129666,2.674242407,-1.085666274,-178.0909394,16.02185717,
206602200,-1.125465793,-178.8598935,15.45678045,-6.735246684,-87.26948162,2.707194755,-6.835869673,-96.53672686,2.671102062,-1.079410191,-178.1099192,16.11447656,
206802267,-1.121285063,-178.9076724,15.51425067,-6.745532779,-87.37204824,2.703453313,-6.835471955,-96.5553481,2.671242523,-1.082863357,-178.1338806,16.063221,
207002334,-1.117003018,-178.9256884,15.57356018,-6.759098196,-87.3984713,2.698537334,-6.840070109,-96.70586925,2.669619649,-1.081349086,-178.215841,16.08565706,
207202400,-1.113439604,-178.9535185,15.62326438,-6.76005529,-87.43798992,2.698191274,-6.839763828,-96.67423435,2.669727677,-1.08058999,-178.2326258,16.09692783,
207402467,-1.114849456,-179.0250967,15.60356106,-6.747911499,-87.45250913,2.702589787,-6.848651328,-96.7066578,2.666597117,-1.07809591,-178.2915741,16.13407088,
207602534,-1.118129985,-179.0206755,15.55790675,-6.770885777,-87.52835542,2.694282419,-6.852948817,-96.8373014,2.665086418,-1.0778727,-178.3345333,16.13740343,
207802600,-1.117818229,-179.0960638,15.56223384,-6.751212922,-87.54032591,2.701392359,-6.845730126,-96.93753542,2.667625147,-1.081985248,-178.4018133,16.07622376,
208002667,-1.118384829,-179.1171473,15.55437138,-6.759209563,-87.59232297,2.698497061,-6.856690207,-97.01294823,2.663772826,-1.077271726,-178.4080386,16.14638289,
208202734,-1.111711918,-179.1426774,15.64747781,-6.770233454,-87.5938345,2.694517479,-6.857341451,-96.95821704,2.66354433,-1.076525368,-178.4624583,16.15754858,
208402800,-1.109407804,-179.1921076,15.67988738,-6.770723848,-87.58763777,2.694340764,-6.857731483,-97.05330755,2.663407505,-1.074260058,-178.4635304,16.19153329,
208602867,-1.112591775,-179.2316348,15.63513725,-6.7710835,-87.67163292,2.69421118,-6.858116766,-97.10587774,2.663272362,-1.075744344,-178.537126,16.1692495,
208802934,-1.110304923,-179.2677649,15.66725253,-6.772429593,-87.6913084,2.693726306,-6.874349686,-97.17607723,2.657592925,-1.07416907,-178.6116292,16.19290131,
209003001,-1.110752993,-179.359904,15.66094966,-6.776592866,-87.73910797,2.692227938,-6.866967007,-97.29480059,2.660172414,-1.078960156,-178.627362,16.12118064,
209203067,-1.111563673,-179.3535298,15.64955898,-6.776340877,-87.83259302,2.692318574,-6.873733353,-97.27168005,2.657808047,-1.076539542,-178.7039337,16.15733639,
209403134,-1.107987062,-179.4304615,15.69993875,-6.771711714,-87.80387304,2.693984867,-6.879200819,-97.38290357,2.655901121,-1.07230899,-178.7105928,16.2209189,
209603201,-1.110416382,-179.4524204,15.6656842,-6.766151599,-87.87961902,2.695989425,-6.874379153,-97.49836473,2.657582641,-1.070027255,-178.7672837,16.25542091,
209803267,-1.108090954,-179.5176775,15.69847076,-6.78470088,-87.9167465,2.689315397,-6.881354385,-97.46945764,2.655150882,-1.073343608,-178.805158,16.2053229,
210003334,-1.108378768,-179.5733875,15.69440535,-6.800073708,-87.87221349,2.683813232,-6.876669181,-97.64460051,2.656783701,-1.069818108,-178.8941498,16.25859079,
210203401,-1.104672589,-179.6218856,15.74691772,-6.79716764,-87.99241199,2.684851354,-6.883824266,-97.64272377,2.654291055,-1.069797501,-178.9406219,16.25890319,
210403467,-1.104477577,-179.6322095,15.74969059,-6.789701657,-88.03692005,2.687522672,-6.886413809,-97.64485945,2.653390269,-1.071257396,-178.9692363,16.23680173,
210603534,-1.104681677,-179.6829238,15.74678853,-6.799471407,-88.08371719,2.684028313,-6.882410613,-97.75281899,2.654783104,-1.065218647,-179.0094761,16.32861625,
210803601,-1.103431169,-179.7678838,15.76458622,-6.800902909,-88.12563498,2.683517192,-6.88592964,-97.80974797,2.653558635,-1.068904769,-179.0359729,16.27244811,
211003667,-1.102468932,-179.7700344,15.77830865,-6.799863899,-88.10801813,2.68388815,-6.884738733,-97.87468887,2.653972872,-1.067082831,-179.0926526,16.30016175,
211203734,-1.105145277,-179.7916899,15.74020065,-6.79498323,-88.10367435,2.685632294,-6.892559708,-97.88685088,2.651255233,-1.064967437,-179.1246265,16.33245829,
211403801,-1.103984721,-179.829781,15.75670288,-6.817455251,-88.22561503,2.677623516,-6.896923425,-97.97588668,2.649741743,-1.065458666,-179.1860383,16.32494706,
211603867,-1.099153147,-179.8683836,15.82577927,-6.800789924,-88.24294039,2.683557525,-6.897274363,-98.09469012,2.649620113,-1.065143295,-179.2023625,16.3297685,
211803934,-1.099175941,-179.9183771,15.82545196,-6.810640575,-88.21365459,2.680046325,-6.907528199,-98.19623589,2.646072021,-1.063642587,-179.2552279,16.35275079,
212004001,-1.095650821,-179.9901226,15.87623296,-6.807880136,-88.28031296,2.681029188,-6.907502362,-98.15507674,2.646080948,-1.061843579,-179.3184905,16.38038706,
212204068,-1.099102251,179.9896214,15.82651016,-6.814608131,-88.37117745,2.678635128,-6.905904043,-98.22779358,2.646633282,-1.059579315,-179.3428576,16.41530411,
212404134,-1.099223638,179.9706386,15.8247671,-6.813342696,-88.3570345,2.679085036,-6.904871283,-98.33378864,2.646990319,-1.060711345,-179.3810697,16.39782851,
212604201,-1.096615195,179.8899645,15.86230822,-6.815964888,-88.37856889,2.678152947,-6.918867619,-98.41973707,2.642161172,-1.06015764,-179.4294743,16.40637161,
212804268,-1.099305599,179.848506,15.8235904,-6.812926743,-88.52268949,2.67923296,-6.900933595,-98.49704812,2.648352652,-1.059401566,-179.4629719,16.4180515,
213004334,-1.094333111,179.7980466,15.8952993,-6.815506091,-88.45522022,2.678315977,-6.900869849,-98.59724942,2.648374719,-1.058419354,-179.522568,16.43324975,
213204401,-1.09022566,179.7569613,15.95502737,-6.822954323,-88.43069733,2.675672149,-6.92175709,-98.64778864,2.641166778,-1.056300715,-179.5492647,16.46612883,
213404468,-1.093773658,179.7212701,15.9034081,-6.819274537,-88.51853524,2.676977569,-6.916621539,-98.67081462,2.64293475,-1.05518878,-179.5990871,16.48343781,
213604534,-1.094957753,179.6733578,15.88625544,-6.821459562,-88.57154997,2.676202244,-6.915046344,-98.75542664,2.643477582,-1.055058908,-179.6446804,16.48546184,
213804601,-1.093937012,179.5864458,15.90103956,-6.826608997,-88.64539919,2.674377102,-6.918218014,-98.76029525,2.64238485,-1.057251518,-179.6605901,16.45135703,
214004668,-1.089811065,179.5720395,15.96108121,-6.824808965,-88.63271466,2.675014768,-6.915489066,-98.84638152,2.643324988,-1.057009659,-179.7354373,16.45511206,
214204734,-1.095150152,179.5263012,15.88347187,-6.832642993,-88.61172502,2.672242119,-6.92268665,-98.8853966,2.640847062,-1.052299152,-179.7591454,16.52859055,
214404801,-1.091712167,179.5158258,15.93335952,-6.83459733,-88.66660213,2.671551473,-6.925186805,-99.003662,2.639987597,-1.050982412,-179.8020151,16.54924812,
214604868,-1.090319536,179.4446615,15.95365724,-6.831450729,-88.72436238,2.672663658,-6.932729659,-99.12257334,2.637398584,-1.049664474,-179.8330019,16.56997644,
214804934,-1.088327299,179.4039111,15.98278472,-6.840188857,-88.79538279,2.669577769,-6.935248046,-99.13908571,2.636535491,-1.051380346,-179.8826749,16.5429997,
215005001,-1.087726304,179.3343333,15.99159254,-6.839868633,-88.79449736,2.66969071,-6.933737213,-99.17148854,2.637053199,-1.050762841,-179.9012764,16.55269788,
215205068,-1.088480458,179.3300452,15.98054167,-6.838475594,-88.77867153,2.670182158,-6.93724403,-99.19299691,2.635851903,-1.052401083,-179.9763399,16.52699358,
215405135,-1.084958634,179.2540723,16.03227992,-6.836779702,-88.89219669,2.670780733,-6.929828299,-99.27126215,2.638393746,-1.05147735,179.9603989,16.54147725,
215605201,-1.086197732,179.2604035,16.01403833,-6.853321044,-88.95087833,2.664955663,-6.933678442,-99.38142866,2.637073343,-1.05065871,179.9558173,16.55433444,
215805268,-1.088086643,179.1983891,15.98631047,-6.84527628,-88.96041777,2.667784948,-6.922371925,-99.42553358,2.6409553,-1.047516182,179.8975476,16.60387639,
216005335,-1.090886715,179.1576279,15.9453843,-6.855879495,-89.02289277,2.664057337,-6.936616357,-99.49165497,2.636066825,-1.048686643,179.8335416,16.58538933,
216205401,-1.084245922,179.1257319,16.04279114,-6.85071652,-89.08177221,2.66587089,-6.944011517,-99.48441919,2.633537241,-1.048178402,179.8147645,16.59341177,
216405468,-1.079601532,179.0510487,16.11162787,-6.859554803,-89.07589199,2.662768093,-6.938695503,-99.58383802,2.63535506,-1.043721414,179.7816451,16.66409904,
216605535,-1.080326222,179.0320651,16.10084787,-6.870190266,-89.06730496,2.659045498,-6.946622423,-99.6469133,2.632645511,-1.042189734,179.7287272,16.68853104,
216805601,-1.083471704,178.9673181,16.05422515,-6.870828585,-89.07726547,2.658822461,-6.94200454,-99.72659497,2.634223185,-1.044298573,179.7004958,16.65491131,
217005668,-1.080629878,178.9424767,16.0963352,-6.858894302,-89.12137422,2.66299968,-6.956193042,-99.81933301,2.62938278,-1.043909546,179.6510878,16.66110306,
217205735,-1.07851776,178.9131772,16.1277764,-6.864532489,-89.16814003,2.661024307,-6.953130986,-99.83565959,2.630425641,-1.042350582,179.6013247,16.68596196,
217405801,-1.075798645,178.8752995,16.16843543,-6.873926634,-89.31937169,2.657740581,-6.945264885,-99.80068362,2.633109077,-1.042017203,179.56869,16.69128761,
217605868,-1.081188995,178.8323635,16.08803271,-6.869787023,-89.16893711,2.659186419,-6.953934914,-100.0662455,2.630151749,-1.041797812,179.53647,16.6947942,
217805935,-1.077519891,178.7493063,16.14267371,-6.873326854,-89.24039538,2.657949952,-6.953664124,-100.0370597,2.630243997,-1.041542254,179.4870806,16.69888071,
218006002,-1.074969936,178.7271812,16.1808681,-6.872170473,-89.35197593,2.65835373,-6.961363938,-100.14473,2.627623895,-1.040955482,179.431236,16.70827112,
218206068,-1.077088285,178.6547896,16.14912577,-6.87588061,-89.36631406,2.657058753,-6.959602961,-100.2059972,2.628222584,-1.040164277,179.3557573,16.72094997,
218406135,-1.076731079,178.6619322,16.15446954,-6.879345629,-89.43391464,2.655850658,-6.95963406,-100.2879361,2.628212008,-1.036376293,179.3150384,16.78191994,
218606202,-1.079050456,178.5878418,16.11983501,-6.873523793,-89.34396496,2.6578812,-6.96682435,-100.3951927,2.625769514,-1.038908642,179.2829197,16.74111089,
218806268,-1.074336235,178.53485,16.19038813,-6.875734554,-89.43959595,2.657109704,-6.962526694,-100.3527708,2.627228761,-1.037791369,179.2288897,16.75909126,
219006335,-1.071934181,178.530744,16.22657628,-6.880584686,-89.39845575,2.655418966,-6.96569587,-100.5545641,2.6261525,-1.039578994,179.1950155,16.73034141,
219206402,-1.074863348,178.4858345,16.18246859,-6.893800549,-89.51239329,2.650824661,-6.973221033,-100.5205127,2.623601061,-1.03669605,179.1492426,16.77675602,
219406468,-1.070066026,178.4667426,16.25483343,-6.888100609,-89.58288989,2.652803889,-6.980648309,-100.500118,2.621088492,-1.037089493,179.088343,16.77040647,
219606535,-1.074254471,178.3886869,16.19161728,-6.892559335,-89.66250761,2.651255363,-6.967521848,-100.6477807,2.625532861,-1.03483928,179.0483908,16.80678657,
219806602,-1.070684332,178.363604,16.2454702,-6.892733526,-89.61898383,2.651194909,-6.979484885,-100.6958053,2.621481694,-1.037154593,178.979031,16.76935632,
220006668,-1.072873037,178.3118284,16.21241263,-6.89742624,-89.72889854,2.649567479,-6.974840819,-100.856207,2.623052624,-1.034309493,178.9533274,16.81537491,
220206735,-1.072736841,178.2512497,16.21446575,-6.893716898,-89.70539348,2.650853683,-6.975314238,-100.8286047,2.622892382,-1.035400938,178.935508,16.79769119,
220406802,-1.06780711,178.1917273,16.28913334,-6.894219146,-89.74078223,2.650679445,-6.981720258,-100.8644135,2.620726328,-1.034043729,178.8426295,16.8196865,
220606868,-1.06864676,178.1598817,16.27636694,-6.900446211,-89.81893757,2.648521387,-6.986621738,-100.9430001,2.619071826,-1.029260736,178.8213198,16.89766399,
220806935,-1.064690091,178.1462662,16.33670217,-6.893893885,-89.83450151,2.65079228,-6.988613001,-101.0953942,2.61840037,-1.034866722,178.774281,16.80634195,
221007002,-1.062605983,178.1001425,16.3686636,-6.896384134,-89.9057399,2.649928679,-6.98479245,-101.2413136,2.619689019,-1.031805086,178.7237174,16.85609317,
221207069,-1.06629157,178.0772061,16.31222721,-6.905517846,-89.88454119,2.646766782,-7.004202528,-101.1711718,2.613157467,-1.034606133,178.6733286,16.81056503,
221407135,-1.067119986,178.0019415,16.29959564,-6.913749634,-89.93095682,2.643924641,-6.988027741,-101.2611517,2.618597679,-1.02865915,178.5987072,16.9075231,
221607202,-1.062409654,177.9655829,16.37168094,-6.910315216,-89.92814877,2.645109556,-6.999116434,-101.2534106,2.614865264,-1.033706639,178.5963252,16.82515845,
221807269,-1.06192616,177.90797,16.3791164,-6.914967909,-90.04533595,2.643504619,-7.003869351,-101.4318155,2.613269261,-1.031410949,178.520926,16.86251933,
222007335,-1.059855498,177.8778917,16.41103713,-6.923161697,-90.06750559,2.640683707,-7.003027558,-101.4291114,2.613551764,-1.029328964,178.501043,16.89654658,
222207402,-1.064281409,177.8261302,16.34295974,-6.915855646,-90.08624395,2.643198654,-6.988719611,-101.5274512,2.618364433,-1.032635014,178.461907,16.84257776,
222407469,-1.059145376,177.807831,16.42201294,-6.928038948,-90.09003912,2.639007928,-7.004815865,-101.5683956,2.612951699,-1.027450089,178.3849505,16.92737276,
222607535,-1.061357728,177.7057289,16.38786677,-6.921666692,-90.09018367,2.641197875,-6.998126205,-101.6581674,2.615198065,-1.027306501,178.3688847,16.92973323,
222807602,-1.063273958,177.6950546,16.35840602,-6.918490566,-90.25460073,2.642290997,-7.005821467,-101.7518378,2.612614412,-1.029800403,178.3014685,16.88882947,
223007669,-1.061891342,177.6242338,16.37965211,-6.918833781,-90.22449024,2.642172822,-7.018283613,-101.8404798,2.608442959,-1.029253589,178.2687342,16.89778105,
223207735,-1.059086574,177.6251267,16.42292245,-6.935206502,-90.26488779,2.636549723,-7.01305957,-101.7708572,2.6101897,-1.028138289,178.2334903,16.91606857,
223407802,-1.061452115,177.5922149,16.38641314,-6.92011616,-90.24642337,2.641731387,-7.015842755,-101.9448763,2.609258757,-1.028485441,178.1970187,16.91037208,
223607869,-1.055027407,177.522639,16.48595285,-6.923315789,-90.33435725,2.640630725,-7.019967121,-101.9494114,2.607880635,-1.023833791,178.1334455,16.98702322,
223807935,-1.056651496,177.4752709,16.46067595,-6.927127279,-90.36218702,2.639320981,-7.024123459,-102.0524578,2.606493554,-1.027075739,178.1104241,16.93352811,
224008002,-1.059530396,177.4260998,16.41606015,-6.946472287,-90.39888741,2.632696769,-7.015103712,-102.2039903,2.609505883,-1.024921099,178.0324443,16.96904389,
224208069,-1.056342821,177.3684792,16.4654741,-6.927567166,-90.37695109,2.63916992,-7.015206503,-102.1886497,2.609471507,-1.024854858,178.0060121,16.97013813,
