Frequency,S11_Magnitude,S11_Phase,S11_VSWR,S12_Magnitude,S12_Phase,S12_VSWR,S21_Magnitude,S21_Phase,S21_VSWR,S22_Magnitude,S22_Phase,S22_VSWR,
200000000,-27.18962308,148.752436,1.091402147,-0.4502754222,-26.60905119,38.58898046,-0.4381293477,-38.8801116,39.6582939,-28.25487358,132.5635644,1.080428336,
200200066,-27.13797961,151.9627822,1.091972278,-0.4586084272,-26.83837051,37.88812798,-0.4341419332,-39.03562659,40.02238525,-28.52228385,136.772505,1.077894967,
200400133,-27.18030286,154.7811634,1.091504766,-0.4552575829,-27.03662799,38.16686791,-0.4380717413,-39.24296034,39.66350675,-28.53610948,140.9877381,1.07776626,
200600200,-27.29676178,158.6586075,1.090231092,-0.4562790998,-27.21698228,38.08145914,-0.4410067729,-39.43908394,39.39964654,-28.51053776,145.3930334,1.078004488,
200800266,-27.07534021,162.7309302,1.092668789,-0.4548367132,-27.3937076,38.20216833,-0.4379037632,-39.61010178,39.67871507,-28.60574917,148.4348616,1.077121311,
201000333,-26.90481765,167.2836676,1.094592947,-0.4475445586,-27.59249192,38.82434072,-0.4370403805,-39.83627394,39.75706806,-28.54255781,152.5056923,1.077706307,
201200400,-26.87483257,169.9377958,1.094935588,-0.4508613703,-27.74981372,38.53885196,-0.4363411985,-40.05951263,39.82074692,-28.37064668,157.1607069,1.079321195,
201400466,-26.81672572,172.26995,1.095603278,-0.4562511613,-28.00347605,38.08378999,-0.439606882,-40.25872736,39.52505757,-28.2543046,161.5128138,1.080433816,
201600533,-26.61226155,177.1045877,1.09799203,-0.4516032788,-28.15672381,38.47556753,-0.4371579919,-40.43332017,39.74637647,-28.09632169,164.6678248,1.081970677,
201800600,-26.3577822,178.8165261,1.101052679,-0.4559056066,-28.3840631,38.11264242,-0.4390925822,-40.62692404,39.57133268,-27.82906768,168.0933703,1.084640412,
202000666,-26.20819795,-178.485715,1.102898343,-0.4555751641,-28.53155008,38.14027399,-0.4371814843,-40.80562795,39.74424156,-27.67388556,170.728264,1.086231972,
202200733,-25.90043762,-175.7297883,1.106807817,-0.4550518042,-28.73495818,38.18411943,-0.435224506,-41.06978838,39.92287549,-27.38386629,174.8358256,1.089290556,
202400800,-25.688729,-173.3744248,1.10958752,-0.4558572351,-28.92055012,38.11668473,-0.4392566836,-41.22816066,39.55655557,-27.00590688,177.5134386,1.093447284,
202600866,-25.43379988,-170.7105967,1.113036033,-0.4542251041,-29.07861864,38.25358365,-0.4377762353,-41.44805817,39.69026891,-26.80253571,-178.9824865,1.095767076,
202800933,-25.11351802,-168.8879777,1.117531414,-0.4534909659,-29.30906649,38.31548264,-0.4361985113,-41.61007763,39.83376742,-26.34944152,-177.3607784,1.101154672,
203001000,-24.91927741,-167.4592027,1.120349292,-0.4540032821,-29.50527587,38.2722655,-0.4402662793,-41.84557375,39.46588524,-26.13948483,-174.8437437,1.103757987,
203201067,-24.65683098,-165.6014698,1.124270568,-0.4546022503,-29.72274412,38.22186226,-0.4350633418,-42.0185431,39.93765827,-25.82224858,-172.5882286,1.107825695,
203401133,-24.43571409,-163.6749024,1.127679291,-0.4547615058,-29.87351371,38.20848324,-0.4377244738,-42.24199524,39.69496035,-25.55865172,-171.1671848,1.111333064,
203601200,-24.15223373,-162.0123279,1.132195067,-0.4589860407,-30.06702354,37.85697144,-0.4409428645,-42.44419125,39.40535451,-25.15557978,-168.5433531,1.116930444,
203801267,-23.73499365,-160.1451695,1.13915286,-0.4620181565,-30.22701797,37.60864106,-0.4423898029,-42.63899341,39.27652559,-24.81049449,-167.4508203,1.121958526,
204001333,-23.49696265,-158.5207093,1.143295984,-0.4573657292,-30.44213431,37.9910252,-0.4434179078,-42.83740676,39.18549878,-24.66166571,-165.4983691,1.124197122,
204201400,-23.22103692,-157.9152797,1.148264034,-0.4565387129,-30.63517025,38.05981389,-0.4401939638,-43.00038566,39.47236595,-24.220672,-164.38264,1.131089559,
204401467,-23.02437854,-156.4029695,1.151917081,-0.4565413772,-30.84736156,38.05959187,-0.4393544076,-43.25039593,39.5477609,-23.97247848,-163.068114,1.135146152,
204601533,-22.76120906,-155.3186683,1.156957134,-0.4569138667,-30.98882928,38.02857888,-0.4408405266,-43.39631903,39.41449824,-23.68114749,-161.8416131,1.140078792,
204801600,-22.5024713,-154.3504225,1.162087571,-0.465056798,-31.22108339,37.36302563,-0.4453893214,-43.62236061,39.01212865,-23.372885,-161.0709962,1.145507647,
205001667,-22.22246188,-153.1886885,1.167843628,-0.463855571,-31.39922931,37.4597369,-0.4461987448,-43.78868918,38.94139003,-23.0935348,-160.1342859,1.150621603,
205201733,-21.92779394,-152.1962742,1.174139681,-0.4661146186,-31.59331494,37.27827292,-0.4462339881,-44.02230083,38.93831581,-22.81139956,-159.1478905,1.155982259,
205401800,-21.75475654,-151.3272428,1.177955393,-0.4638043345,-31.77528376,37.46387312,-0.447544758,-44.20412243,38.82432343,-22.61915301,-158.1345765,1.159751972,
205601867,-21.53257074,-150.6742504,1.182988092,-0.4641939811,-32.01389519,37.43244071,-0.4554359065,-44.40234786,38.15193071,-22.32627663,-157.2253785,1.165684283,
205801933,-21.27534183,-150.1322136,1.189008034,-0.470457688,-32.15812411,36.93430131,-0.4502156696,-44.58325337,38.5940997,-22.0102208,-156.5830962,1.17235322,
206002000,-21.07147579,-149.6376384,1.193931949,-0.4700550136,-32.33658303,36.96592576,-0.4519011481,-44.79357982,38.4502179,-21.80352159,-155.8146008,1.176870992,
206202067,-20.85227304,-148.5886295,1.199382538,-0.4677614805,-32.51052985,37.14708926,-0.4506622389,-44.97908919,38.55587325,-21.53970566,-155.3443101,1.182824106,
206402134,-20.60519667,-148.1112326,1.205727331,-0.4739615338,-32.73695854,36.66139181,-0.4509151696,-45.1793745,38.5342559,-21.29842983,-154.3114547,1.188459019,
206602200,-20.41765278,-147.550556,1.210690689,-0.4661652954,-32.86083308,37.27422234,-0.455231074,-45.39425074,38.16908942,-21.0103239,-153.6928356,1.19543601,
206802267,-20.15567705,-146.7818655,1.217844856,-0.4737937221,-33.09843004,36.67437037,-0.4518425299,-45.52973493,38.45520385,-20.83323637,-153.3343383,1.199863716,
207002334,-20.02718854,-146.1707878,1.221450811,-0.4785240329,-33.26247145,36.31201711,-0.4575326822,-45.75328988,37.97716874,-20.56689366,-153.2641645,1.206730531,
207202400,-19.75969012,-145.8147942,1.22917054,-0.4791722877,-33.41959102,36.26291676,-0.459570732,-45.92861029,37.80883012,-20.40815627,-152.5256289,1.210945478,
207402467,-19.55567781,-145.8320361,1.235257617,-0.477492549,-33.62959103,36.39041905,-0.4642618066,-46.11890816,37.42697469,-20.15905699,-152.0620314,1.217750876,
207602534,-19.40347258,-145.4840067,1.239915314,-0.4812267091,-33.83210356,36.10818416,-0.4668853794,-46.34328066,37.21676138,-19.92336681,-151.6962118,1.224412467,
207802600,-19.27320096,-145.057515,1.243982967,-0.4822632037,-34.00802668,36.0306191,-0.4646888377,-46.5025656,37.39259713,-19.78940471,-151.5886177,1.228298544,
208002667,-19.05791357,-144.6331408,1.250873904,-0.4879539573,-34.20903451,35.61062979,-0.4706931714,-46.72769507,36.91583246,-19.58676747,-151.183089,1.234318578,
208202734,-18.8561923,-144.2938095,1.257527381,-0.492019596,-34.3934056,35.31652868,-0.4729909535,-46.86688714,36.73658392,-19.32819169,-150.9862912,1.242256668,
208402800,-18.66949564,-143.9232622,1.263860843,-0.4906806954,-34.52895593,35.41284401,-0.4728293193,-47.08611866,36.74913593,-19.1584204,-150.6547382,1.247630348,
208602867,-18.49473945,-143.6592673,1.269947169,-0.4931543686,-34.72680171,35.23530709,-0.4757194403,-47.25291309,36.52598581,-18.97166239,-150.3320469,1.253695075,
208802934,-18.31611214,-143.4092809,1.276331143,-0.4967059672,-34.91055008,34.98349974,-0.4826159855,-47.45651093,36.00429503,-18.78525865,-150.5126936,1.259913531,
209003001,-18.16506747,-143.0919709,1.28186161,-0.4971828464,-35.10910607,34.94996316,-0.4779738313,-47.66353878,36.3537952,-18.65241318,-149.9577298,1.26444897,
209203067,-18.01915157,-143.0191528,1.287322641,-0.4954419361,-35.27786799,35.07270528,-0.482825595,-47.8245927,35.9886725,-18.47115813,-149.7719152,1.270780404,
209403134,-17.82376237,-142.6868827,1.294822777,-0.4965626744,-35.44944693,34.9935894,-0.4853857966,-48.00433233,35.79894569,-18.30057957,-149.7529498,1.27689421,
209603201,-17.68729148,-142.3380736,1.300192318,-0.4992139163,-35.6467525,34.80784575,-0.489213361,-48.21001362,35.51900403,-18.12874412,-149.4999011,1.283210051,
209803267,-17.51909432,-142.3358323,1.306962904,-0.5051427081,-35.81687846,34.39953692,-0.4866826567,-48.32814811,35.70360217,-17.97515366,-149.0667171,1.288992587,
210003334,-17.35456039,-142.4483806,1.31375391,-0.5135842526,-35.98402074,33.83444906,-0.4893747803,-48.61045524,35.50729436,-17.73249258,-149.3732651,1.29840171,
210203401,-17.22224433,-141.9191697,1.319339046,-0.5120693386,-36.21222147,33.93448721,-0.490927431,-48.75674433,35.39505532,-17.58922559,-149.0236043,1.304119058,
210403467,-17.08059017,-142.1897305,1.325444094,-0.5163212207,-36.37353717,33.65520071,-0.4965881079,-48.95499996,34.99179813,-17.48586155,-148.8659665,1.308321016,
210603534,-16.94229539,-141.773574,1.33153303,-0.5162645033,-36.51370945,33.65889593,-0.4950500073,-49.11439168,35.10045713,-17.34005595,-148.4972176,1.314360701,
210803601,-16.80548751,-141.7705953,1.337684859,-0.5172683846,-36.71658314,33.59361139,-0.5000796787,-49.29738533,34.7476179,-17.19353427,-148.5803788,1.320565788,
211003667,-16.66643942,-141.4552812,1.34407167,-0.5147430336,-36.88586134,33.75832592,-0.4991911714,-49.490223,34.80943084,-17.02035077,-148.4653323,1.328080532,
211203734,-16.52260446,-141.4964013,1.350824567,-0.5199901259,-37.05047348,33.41787929,-0.5049974307,-49.65429161,34.40942739,-16.88311729,-148.5667298,1.334178226,
211403801,-16.42941257,-141.4509676,1.355281113,-0.5295996492,-37.25444062,32.81188119,-0.50788275,-49.84374094,34.2140553,-16.74703496,-148.2618881,1.340353034,
211603867,-16.2635946,-141.0498329,1.363372887,-0.5222271994,-37.41463083,33.27481222,-0.5089990255,-50.03819115,34.13906393,-16.61736773,-148.1076435,1.346358623,
211803934,-16.1262308,-140.9413446,1.37023742,-0.5313127744,-37.57134204,32.70615065,-0.5114861767,-50.24348823,33.97315462,-16.48015871,-148.4501597,1.352846352,
212004001,-15.9691922,-141.1701876,1.378269636,-0.5343024429,-37.78746411,32.52325905,-0.516468908,-50.3881298,33.64558248,-16.32354866,-148.4582943,1.36042291,
212204068,-15.89050225,-141.1379038,1.382370302,-0.5373687076,-37.96756072,32.33779631,-0.5177780617,-50.57036199,33.56056292,-16.20272207,-148.190389,1.366396594,
212404134,-15.77297549,-141.0550687,1.388591298,-0.5392506823,-38.11649086,32.2250101,-0.5208288849,-50.77994152,33.36409426,-16.07876044,-148.2697926,1.372644433,
212604201,-15.63304474,-140.8613457,1.3961523,-0.5411660124,-38.27684955,32.1110306,-0.5260303176,-50.95384836,33.03438585,-15.95418289,-148.0956459,1.379047845,
212804268,-15.53889124,-140.903569,1.401336279,-0.5457365867,-38.51823296,31.84227358,-0.523381937,-51.1502377,33.20144226,-15.82452463,-148.0667094,1.385848304,
213004334,-15.40785639,-140.8848026,1.408683289,-0.5477129107,-38.66655771,31.72745213,-0.5232297661,-51.34056665,33.21109239,-15.70497206,-148.1573015,1.392244607,
213204401,-15.26942704,-140.8668062,1.416616406,-0.5525583805,-38.80628038,31.44941431,-0.5327175845,-51.53823828,32.61995628,-15.57476601,-147.9272045,1.399351782,
213404468,-15.179092,-140.8074678,1.421890685,-0.5541822548,-38.99567219,31.35732292,-0.5340363336,-51.67685938,32.53945512,-15.43928991,-148.0277455,1.406906609,
213604534,-15.06110576,-140.6381262,1.428897962,-0.555722083,-39.17724159,31.27049516,-0.5355277438,-51.87673483,32.44889198,-15.35184505,-148.0262743,1.411871696,
213804601,-14.96005959,-141.0250749,1.435008206,-0.5656205918,-39.36629455,30.72362979,-0.5440201613,-52.00466593,31.94267243,-15.25994216,-148.097281,1.417166538,
214004668,-14.84609089,-140.8811627,1.44202342,-0.5630841741,-39.49190163,30.86192711,-0.5411775484,-52.18869244,32.11034655,-15.12803186,-148.1528861,1.424906535,
214204734,-14.7465144,-140.8637769,1.448262312,-0.5650005072,-39.66235677,30.75732497,-0.5472161783,-52.36437209,31.75623347,-14.99984378,-148.051837,1.432590306,
214404801,-14.64786422,-140.5589309,1.45454616,-0.5675309118,-39.84071003,30.62028663,-0.5484520528,-52.55820431,31.68472177,-14.90475131,-148.0853202,1.43839611,
214604868,-14.54445754,-140.7577309,1.46124539,-0.5695550019,-40.02993176,30.51154549,-0.5555853359,-52.76976567,31.27818658,-14.7919229,-148.0326981,1.445404452,
214804934,-14.44278406,-140.8615419,1.467946945,-0.5781554212,-40.21949445,30.05799494,-0.5607677919,-52.92959621,30.98932043,-14.69534267,-148.1992501,1.451508932,
215005001,-14.33510678,-140.7866062,1.475170921,-0.5804339633,-40.37240261,29.94008702,-0.5613092715,-53.08679544,30.95944665,-14.59613863,-148.1598501,1.457882682,
215205068,-14.23646702,-140.9200106,1.481905511,-0.5807316215,-40.51920065,29.92475243,-0.5653882842,-53.24716097,30.73624464,-14.48214933,-148.3600288,1.46533864,
215405135,-14.15000324,-140.7620043,1.487902711,-0.5829224167,-40.74311792,29.81237025,-0.5636878822,-53.39685951,30.82889723,-14.38782702,-148.2194811,1.471617499,
215605201,-14.0653966,-140.6906457,1.493857713,-0.5931055412,-40.91453247,29.30090424,-0.5666562494,-53.63259176,30.66751699,-14.26283358,-148.2293507,1.480094253,
215805268,-14.01493824,-140.6624839,1.497450651,-0.5904629368,-41.04882617,29.43193819,-0.5694523151,-53.75901828,30.51704356,-14.18696127,-148.3250302,1.485328419,
216005335,-13.92240837,-140.8509241,1.504121149,-0.5994152266,-41.24834557,28.99271199,-0.5787722621,-53.94545678,30.02598354,-14.07243953,-148.4769743,1.493358692,
216205401,-13.77585685,-140.9253208,1.514907435,-0.5965382276,-41.42464868,29.13242808,-0.5793879427,-54.11010331,29.99410035,-13.98185656,-148.282089,1.49982328,
216405468,-13.68126584,-140.9196756,1.522017108,-0.6032370211,-41.57382209,28.8091755,-0.578365166,-54.2875388,30.04710242,-13.8812605,-148.4328811,1.507121987,
216605535,-13.56826768,-141.0078329,1.530666284,-0.6094213039,-41.7219447,28.51706196,-0.5844511981,-54.46636441,29.73444696,-13.77236799,-148.4761325,1.515167583,
216805601,-13.50457546,-141.0379969,1.535617827,-0.6153911751,-41.89778699,28.24064768,-0.5869563818,-54.63260058,29.60763353,-13.71721,-148.5294697,1.519301603,
217005668,-13.41497875,-141.1198924,1.542678337,-0.6125232464,-42.07693983,28.37276447,-0.5996450848,-54.8430246,28.98160721,-13.60498923,-148.7591835,1.527836654,
217205735,-13.33025006,-141.2898171,1.549459383,-0.6161183968,-42.21145609,28.20734235,-0.5979302142,-54.98590187,29.06466089,-13.51551289,-148.716162,1.534763567,
217405801,-13.24486916,-141.190172,1.5563971,-0.6240736431,-42.44348104,27.84807853,-0.599769106,-55.08132643,28.97561911,-13.41588042,-148.6066916,1.542606722,
217605868,-13.17079041,-141.0384403,1.562503032,-0.6275060646,-42.53395798,27.69588252,-0.6045086455,-55.37211494,28.74862221,-13.34212196,-148.9291906,1.548503071,
217805935,-13.08199126,-141.2768284,1.569930359,-0.632839742,-42.71463674,27.46266085,-0.6092480495,-55.48580043,28.52516483,-13.26496725,-148.9621465,1.554754462,
218006002,-12.99728204,-141.3405458,1.577127559,-0.6322106618,-42.91231613,27.48996338,-0.6137568534,-55.65747165,28.31578455,-13.1799247,-149.0441583,1.56174574,
218206068,-12.88797334,-141.4268681,1.586579995,-0.6368313969,-43.04333734,27.29067776,-0.6120784216,-55.86710801,28.39336715,-13.09630245,-149.0135604,1.568725287,
218406135,-12.83958361,-141.3217567,1.590825062,-0.6386816762,-43.23616992,27.21168676,-0.6197832293,-56.0473918,28.04069007,-13.00847754,-148.9644522,1.57617,
218606202,-12.74942419,-141.3098382,1.598835577,-0.6412847857,-43.37069223,27.1013285,-0.6249087545,-56.21135905,27.81089513,-12.9455455,-149.2917483,1.581578012,
218806268,-12.69799505,-141.526638,1.603464827,-0.6495741025,-43.53341481,26.75580023,-0.6282236722,-56.31314996,27.66427357,-12.8675772,-149.3435407,1.588364699,
219006335,-12.58993699,-141.6042318,1.613335899,-0.6504391218,-43.66533636,26.72025084,-0.6316728932,-56.57745844,27.51334605,-12.76261326,-149.3668384,1.597655448,
219206402,-12.52448625,-141.6844063,1.619411786,-0.6627906475,-43.87871619,26.22277146,-0.6357922084,-56.68300902,27.33524387,-12.69300346,-149.3207711,1.603916473,
219406468,-12.44237454,-141.6066283,1.627139978,-0.6615120743,-44.06054391,26.27340583,-0.6431128771,-56.80254406,27.0243612,-12.61343362,-149.5329914,1.611172642,
219606535,-12.39854818,-141.7873599,1.631313707,-0.6678608217,-44.22557693,26.02389082,-0.6434964356,-56.99559584,27.00826794,-12.54957224,-149.5301763,1.617074266,
219806602,-12.30488995,-141.7876942,1.640349199,-0.6707863273,-44.36698795,25.91050462,-0.6523052811,-57.16385946,26.64387924,-12.46876545,-149.8144545,1.62464317,
220006668,-12.24310964,-141.7994578,1.646397357,-0.6741018856,-44.54811484,25.78319116,-0.6494136559,-57.37955256,26.76240446,-12.38748364,-149.6659786,1.632372859,
220206735,-12.19432423,-141.9756718,1.65122363,-0.6809427242,-44.68344759,25.52443105,-0.6584438606,-57.49507542,26.39571653,-12.32988928,-149.8261558,1.637921818,
220406802,-12.09728109,-142.0091019,1.660958206,-0.6825930056,-44.8702776,25.46278476,-0.6602022728,-57.67151508,26.32548038,-12.24580744,-149.9742437,1.646131768,
220606868,-12.02648727,-142.1880423,1.668174435,-0.6864112984,-45.03567925,25.32128929,-0.665207229,-57.83378982,26.12760127,-12.17056506,-149.9030171,1.653590339,
220806935,-11.95438504,-142.1357925,1.675625586,-0.6869336315,-45.19388225,25.30205543,-0.670804507,-58.06338773,25.90980311,-12.12066928,-150.0611237,1.658595585,
221007002,-11.90366486,-142.1079157,1.680929502,-0.6948330039,-45.32929584,25.01470443,-0.6725174413,-58.23281236,25.84387524,-12.05520493,-150.1172762,1.665235348,
221207069,-11.8281465,-142.354571,1.688923761,-0.6973942408,-45.49741765,24.92293399,-0.6868835449,-58.35758281,25.3038985,-11.9737132,-150.3401437,1.673618026,
221407135,-11.75984413,-142.3530998,1.69625593,-0.7061010153,-45.6662863,24.61594684,-0.6784566878,-58.49895564,25.61786344,-11.89970764,-150.3641452,1.681345508,
221607202,-11.6801303,-142.5653561,1.704937732,-0.7099278965,-45.82797869,24.48340049,-0.6895134854,-58.65677291,25.20748516,-11.8325154,-150.5533546,1.688458075,
221807269,-11.62103254,-142.4380452,1.711462414,-0.7138890163,-46.00400742,24.34770225,-0.6935069747,-58.85464315,25.0624832,-11.76690947,-150.6438052,1.695492939,
222007335,-11.5565229,-142.6525494,1.718671875,-0.7215621909,-46.15485768,24.08907884,-0.697975963,-58.9751621,24.90218449,-11.68828769,-150.7117975,1.704043053,
222207402,-11.49503376,-142.597527,1.725629961,-0.7195280199,-46.32374663,24.1571027,-0.6920960083,-59.1686438,25.11352354,-11.63688917,-150.7550495,1.709704312,
222407469,-11.4473307,-142.6791485,1.731086859,-0.7298612862,-46.43027909,23.81548373,-0.70646782,-59.31808414,24.60318008,-11.53839031,-150.9337259,1.720714942,
222607535,-11.38462015,-142.8840276,1.738339921,-0.7287099626,-46.61314431,23.85306674,-0.7086772964,-59.50080535,24.52655823,-11.50078058,-150.978504,1.724976052,
222807602,-11.31006702,-142.7755087,1.747081998,-0.7353276876,-46.79355569,23.63864917,-0.7115420466,-59.66519681,24.42792118,-11.4477218,-151.0516343,1.731041908,
223007669,-11.25103191,-142.9909413,1.754098013,-0.7396101127,-46.93207237,23.50194258,-0.7207630568,-59.8308149,24.11575653,-11.38269736,-151.1753181,1.738563748,
223207735,-11.18505636,-143.0289541,1.762038491,-0.7448469866,-47.09953944,23.33690523,-0.7220877646,-59.93873884,24.07156569,-11.3125136,-151.229891,1.746793032,
223407802,-11.14234519,-143.0324886,1.76723592,-0.7454948711,-47.22441771,23.31664875,-0.7290520222,-60.13384298,23.84188838,-11.27582806,-151.4430344,1.751140948,
223607869,-11.0503367,-143.2271872,1.778587041,-0.7506410875,-47.42572864,23.15699213,-0.7318836576,-60.29245526,23.74975328,-11.20692614,-151.5189066,1.759394597,
223807935,-11.00304467,-143.2408943,1.784505133,-0.7555290864,-47.52944028,23.00736173,-0.7376226504,-60.43132533,23.56519024,-11.14840924,-151.6125716,1.766495247,
