Frequency,S11_Magnitude,S21_Magnitude,S22_Magnitude,
10000000.0,-24.54606284229412,39.63124592455671,-18.976659763234707,
11488511.488511488,-24.54606284229412,39.63124592455671,-18.976659763234707,
12977022.977022978,-24.54606284229412,39.63124592455671,-18.976659763234707,
14465534.465534465,-24.54606284229412,39.63124592455671,-18.976659763234707,
15954045.954045955,-24.54606284229412,39.63124592455671,-18.976659763234707,
17442557.442557443,-24.54606284229412,39.62938198119435,-18.976659763234707,
18931068.93106893,-24.49372363162477,39.61217487406807,-19.006618255721342,
20419580.419580422,-24.34451325492443,39.59496776694179,-19.11652369947176,
21908091.90809191,-24.19530287822409,39.57776065981551,-19.226429143222177,
23396603.396603398,-24.04609250152375,39.56055355268923,-19.336334586972594,
24885114.885114886,-23.89688212482341,39.54334644556295,-19.446240030723008,
26373626.373626374,-23.74767174812307,39.52613933843667,-19.556145474473425,
27862137.86213786,-23.59846137142273,39.508932231310396,-19.666050918223842,
29350649.35064935,-23.44925099472239,39.491725124184114,-19.77595636197426,
30839160.83916084,-23.30004061802205,39.47451801705784,-19.842209803821586,
32327672.32767233,-23.15083024132171,39.45731090993156,-19.85188208326012,
33816183.81618382,-23.001619864621368,39.45115192655832,-19.86155436269865,
35304695.30469531,-22.856035294455566,39.45103690053656,-19.871226642137184,
36793206.793206796,-22.71102513651473,39.4509218745148,-19.880898921575717,
38281718.281718284,-22.5660149785739,39.45080684849304,-19.89057120101425,
39770229.77022977,-22.421004820633065,39.45069182247128,-19.900243480452783,
41258741.25874126,-22.27599466269223,39.45057679644951,-19.909915759891316,
42747252.74725275,-22.1309845047514,39.45046177042775,-19.91958803932985,
44235764.235764235,-21.985974346810565,39.45034674440599,-19.92926031876838,
45724275.72427572,-21.840964188869734,39.45023171838423,-19.938932598206915,
47212787.21278721,-21.6959540309289,39.450116692362464,-19.948604877645447,
48701298.7012987,-21.55209538797112,39.450001666340704,-19.95827715708398,
50189810.189810194,-21.411686889186438,39.449886640318944,-19.967949436522513,
51678321.67832168,-21.271278390401754,39.449771614297184,-19.977621715961046,
53166833.16683317,-21.130869891617074,39.449656588275424,-19.98729399539958,
54655344.65534466,-20.99046139283239,39.44954156225366,-19.996966274838112,
56143856.143856145,-20.850052894047707,39.4494265362319,-20.006638554276645,
57632367.63236763,-20.709644395263027,39.44931151021014,-20.016310833715178,
59120879.12087912,-20.569235896478343,39.44919648418838,-20.02598311315371,
60609390.60939061,-20.42882739769366,39.44908145816661,-20.035655392592243,
62097902.0979021,-20.28841889890898,39.44896643214485,-20.045327672030776,
63586413.586413585,-20.148010400124296,39.44885140612309,-20.05499995146931,
65074925.07492507,-20.007601901339612,39.44873638010133,-20.064672230907842,
66563436.56343657,-19.867193402554932,39.44862135407956,-19.99732728976933,
68051948.05194806,-19.72678490377025,39.4485063280578,-19.920578436351445,
69540459.54045954,-19.586376404985565,39.44839130203604,-19.84382958293356,
71028971.02897103,-19.445967906200885,39.448276276014276,-19.767080729515673,
72517482.51748252,-19.3055594074162,39.448161249992516,-19.690331876097787,
74005994.005994,-19.165150908631517,39.448046223970756,-19.613583022679904,
75494505.4945055,-19.024742409846837,39.44793119794899,-19.53683416926202,
76983016.98301698,-18.884333911062154,39.44781617192723,-19.460085315844132,
78471528.47152847,-18.743925412277473,39.44770114590547,-19.383336462426247,
79960039.96003996,-18.60351691349279,39.4475861198837,-19.36785154538019,
81448551.44855145,-18.463108414708106,39.44747109386194,-19.504265622813033,
82937062.93706293,-18.322699915923426,39.44735606784018,-19.64067970024588,
84425574.42557442,-18.182291417138742,39.44724104181842,-19.777093777678722,
85914085.91408591,-18.278224619549654,39.447126015796655,-19.91350785511157,
87402597.4025974,-18.50672280705502,39.447010989774896,-20.04992193254441,
88891108.89110889,-18.735220994560382,39.446895963753136,-20.186336009977257,
90379620.37962039,-18.963719182065752,39.446780937731376,-20.322750087410103,
91868131.86813188,-19.192217369571118,39.446665911709616,-20.459164164842946,
93356643.35664336,-19.42071555707648,39.44655088568785,-20.595578242275792,
94845154.84515485,-19.649213744581846,39.44643585966609,-20.731992319708635,
96333666.33366634,-19.877711932087212,39.44632083364433,-20.86840639714148,
97822177.82217783,-20.10621011959258,39.44620580762257,-21.004820474574323,
99310689.31068932,-20.334708307097944,39.4460907816008,-21.14123455200717,
100799200.7992008,-20.563206494603307,39.44597575557904,-21.277648629440012,
102287712.28771229,-20.791704682108673,39.44586072955728,-21.41406270687286,
103776223.77622378,-21.02020286961404,39.44574570353552,-21.5504767843057,
105264735.26473527,-21.248701057119405,39.44563067751376,-21.686890861738547,
106753246.75324675,-21.47719924462477,39.445515651491995,-21.823304939171393,
108241758.24175824,-21.705697432130137,39.445400625470235,-21.959719016604236,
109730269.73026973,-21.934195619635503,39.445285599448475,-22.09613309403708,
111218781.21878122,-22.056548532214734,39.44868863134515,-22.232547171469925,
112707292.7072927,-22.15978699662217,39.45883082212786,-22.33308381895017,
114195804.1958042,-22.26302546102961,39.46897301291057,-22.401267138492532,
115684315.68431568,-22.36626392543705,39.479115203693276,-22.4694504580349,
117172827.17282717,-22.469502389844486,39.489257394475985,-22.537633777577266,
118661338.66133866,-22.572740854251926,39.49939958525869,-22.60581709711963,
120149850.14985014,-22.675979318659362,39.5095417760414,-22.674000416661997,
121638361.63836165,-22.7792177830668,39.51968396682411,-22.742183736204364,
123126873.12687314,-22.88245624747424,39.52982615760682,-22.81036705574673,
124615384.61538462,-22.985694711881678,39.53996834838952,-22.878550375289095,
126103896.10389611,-23.088933176289117,39.55011053917223,-22.819966633672458,
127592407.5924076,-23.192171640696557,39.56025272995494,-22.73219859867141,
129080919.08091909,-23.295410105103993,39.570394920737655,-22.644430563670362,
130569430.56943057,-23.398648569511433,39.580537111520364,-22.55666252866931,
132057942.05794206,-23.342925117901157,39.59067930230307,-22.468894493668262,
133546453.54645355,-23.249541444652213,39.60082149308578,-22.381126458667215,
135034965.03496504,-23.156157771403265,39.61096368386849,-22.293358423666167,
136523476.52347654,-23.06277409815432,39.6211058746512,-22.20559038866512,
138011988.011988,-22.969390424905377,39.63124806543391,-22.11782235366407,
139500499.5004995,-22.87600675165643,39.64139025621662,-22.030054318663026,
140989010.989011,-22.782623078407486,39.651532446999326,-21.942286283661975,
142477522.4775225,-22.68923940515854,39.65733452898044,-21.854518248660927,
143966033.96603397,-22.595855731909595,39.65721950295868,-21.76675021365988,
145454545.45454547,-22.502472058660647,39.65710447693692,-21.67898217865883,
146943056.94305694,-22.44126382636092,39.656989450915155,-21.591214143657783,
148431568.43156844,-22.385594852452048,39.656874424893395,-21.503446108656735,
149920079.92007992,-22.32992587854318,39.656759398871635,-21.415678073655688,
151408591.40859142,-22.27425690463431,39.656644372849875,-21.32791003865464,
152897102.8971029,-22.21858793072544,39.656529346828115,-21.24014200365359,
154385614.3856144,-22.16291895681657,39.65641432080635,-21.152373968652544,
155874125.87412587,-22.1072499829077,39.65629929478459,-21.064605933651496,
157362637.36263737,-22.315130113936043,39.65618426876283,-20.976837898650448,
158851148.85114884,-22.562172575511372,39.65606924274107,-20.8890698636494,
160339660.33966035,-22.80921503708671,39.6559542167193,-20.801301828648352,
161828171.82817182,-23.05625749866204,39.65583919069754,-20.81515965291591,
163316683.31668332,-23.303299960237375,39.65572416467578,-21.00728408630043,
164805194.8051948,-23.550342421812704,39.65560913865402,-21.199408519684944,
166293706.2937063,-23.79738488338804,39.655494112632255,-21.391532953069465,
167782217.78221777,-24.04442734496337,39.655379086610495,-21.583657386453982,
169270729.27072927,-24.291469806538707,39.655264060588735,-21.775781819838503,
170759240.75924078,-24.53851226811404,39.655149034566975,-21.967906253223024,
172247752.24775225,-24.785554729689373,39.655034008545215,-22.16003068660754,
173736263.73626375,-25.032597191264706,39.65491898252345,-22.385739221070413,
175224775.22477522,-25.27963965284004,39.65480395650169,-22.64063401043375,
176713286.71328673,-25.526682114415372,39.65468893047993,-22.895528799797095,
178201798.2017982,-25.76254159383153,39.65457390445816,-23.150423589160432,
179690309.6903097,-25.99799275635983,39.6544588784364,-23.405318378523774,
181178821.17882118,-26.23344391888813,39.65434385241464,-23.66021316788711,
182667332.66733268,-26.468895081416438,39.654228826392874,-23.915107957250456,
184155844.15584415,-26.704346243944737,39.654113800371114,-24.170002746613793,
185644355.64435565,-26.93979740647304,39.653998774349354,-24.424897535977134,
187132867.13286713,-27.17524856900134,39.65388374832759,-24.679792325340472,
188621378.62137863,-27.410699731529643,39.65376872230583,-24.934687114703816,
190109890.1098901,-27.646150894057946,39.65365369628407,-25.189581904067154,
191598401.5984016,-27.88160205658625,39.65353867026231,-25.444476693430495,
193086913.08691308,-28.11705321911455,39.65342364424054,-25.699371482793833,
194575424.57542458,-28.352504381642852,39.65330861821878,-25.954266272157177,
196063936.06393605,-28.58795554417115,39.65319359219702,-26.209161061520515,
197552447.55244756,-28.779452132836482,39.65307856617526,-26.46405585088386,
199040959.04095903,-28.239198175835657,39.65296354015349,-26.718950640247193,
200529470.52947053,-27.698944218834825,39.65284851413173,-26.963757414915612,
202017982.01798204,-27.158690261833993,39.65273348810997,-27.183330309353998,
203506493.5064935,-26.618436304833168,39.65261846208821,-27.40290320379238,
204995004.995005,-26.078182347832335,39.65250343606645,-27.622476098230766,
206483516.48351648,-25.537928390831514,39.652388410044686,-27.84204899266915,
207972027.972028,-24.999522280013704,39.65227338402293,-28.06162188710754,
209460539.46053946,-24.529533089691757,39.65215835800117,-28.28119478154592,
210949050.94905096,-24.0595438993698,39.65204333197941,-28.500767675984306,
212437562.43756244,-23.58955470904785,39.65192830595764,-28.66176619109224,
213926073.92607394,-23.119565518725892,39.65181327993588,-28.754156077239607,
215414585.4145854,-22.649576328403942,39.65169825391412,-28.846545963386973,
216903096.9030969,-22.179587138081985,39.65158322789236,-28.938935849534342,
218391608.3916084,-21.65880587587713,39.65146820187059,-29.03132573568171,
219880119.8801199,-21.13115326607962,39.65135317584883,-29.123715621829074,
221368631.36863136,-20.603500656282122,39.65123814982707,-29.21610550797644,
222857142.85714287,-20.075848046484616,39.65112312380531,-29.30849539412381,
224345654.34565434,-19.548195436687116,39.651008097783546,-29.400885280271176,
225834165.83416584,-19.020542826889606,39.650893071761786,-29.49327516641854,
227322677.3226773,-18.49289021709211,39.650778045740026,-29.585665052565908,
228811188.81118882,-17.9652376072946,39.65066301971826,-29.678054938713277,
230299700.2997003,-17.437584997497105,39.6505479936965,-29.770444824860643,
231788211.7882118,-16.909932387699595,39.65043296767474,-29.862834711008013,
233276723.2767233,-16.56514134765466,39.65031794165297,-29.95522459715538,
234765234.76523477,-16.579834286034416,39.65020291563121,-30.047614483302745,
236253746.25374627,-16.594527224414175,39.65008788960945,-30.140004369450114,
237742257.74225774,-16.60922016279393,39.649972863587685,-30.214093433928454,
239230769.23076925,-16.623913101173688,39.649857837565925,-29.855082091238238,
240719280.71928072,-16.638606039553444,39.649742811544165,-29.49607074854803,
242207792.20779222,-16.653298977933204,39.649627785522405,-29.137059405857812,
243696303.6963037,-16.66799191631296,39.649512759500645,-28.778048063167603,
245184815.1848152,-16.682684854692717,39.64939773347888,-28.419036720477386,
246673326.67332667,-16.697377793072473,39.64928270745712,-28.060025377787177,
248161838.16183817,-16.712070731452233,39.64916768143536,-27.636135005347587,
249650349.65034965,-16.72676366983199,39.6490526554136,-27.20541069709558,
251138861.13886115,-16.741456608211745,39.64893762939183,-26.774686388843563,
252627372.62737262,-16.756149546591505,39.64882260337007,-26.343962080591552,
254115884.11588413,-16.77084248497126,39.64870757734831,-25.913237772339535,
255604395.6043956,-16.785535423351018,39.64859255132655,-25.48251346408753,
257092907.0929071,-16.800228361730777,39.64847752530479,-25.05178915583551,
258581418.58141857,-16.814921300110534,39.648362499283024,-24.6210648475835,
260069930.06993008,-16.82961423849029,39.648247473261264,-24.190340539331487,
261558441.55844155,-16.844307176870046,39.648132447239504,-23.759616231079477,
263046953.04695305,-16.859000115249806,39.648017421217745,-23.32889192282746,
264535464.53546456,-16.873693053629562,39.64790239519598,-22.898167614575442,
266023976.02397603,-16.88838599200932,39.64778736917422,-22.467443306323435,
267512487.51248753,-16.90307893038908,39.64767234315246,-22.19044775720918,
269000999.000999,-16.917771868768835,39.6475573171307,-21.96658110538493,
270489510.48951054,-16.932786428595676,39.64744229110893,-21.742714453560662,
271978021.978022,-16.953834653150654,39.64732726508717,-21.518847801736413,
273466533.4665335,-16.974882877705635,39.64721223906541,-21.294981149912154,
274955044.955045,-16.995931102260613,39.647097213043644,-21.071114498087894,
276443556.4435564,-17.01697932681559,39.646982187021884,-20.847247846263645,
277932067.93206793,-17.03802755137057,39.646867161000124,-20.73066484534279,
279420579.42057943,-17.05907577592555,39.64675213497836,-20.650972887607754,
280909090.90909094,-17.080124000480527,39.6466371089566,-20.571280929872717,
282397602.3976024,-17.101172225035505,39.64652208293484,-20.491588972137688,
283886113.8861139,-17.122220449590483,39.64640705691307,-20.41189701440265,
285374625.3746254,-17.143268674145464,39.64629203089131,-20.332205056667615,
286863136.8631369,-17.168332283692806,39.64617700486955,-20.25251309893258,
288351648.35164833,-17.19620781942576,39.64606197884779,-20.17282114119755,
289840159.84015983,-17.22408335515871,39.64594695282602,-20.093129183462512,
291328671.32867134,-17.251958890891665,39.64583192680426,-20.013437225727476,
292817182.81718284,-17.279834426624618,39.6457169007825,-19.933745267992443,
294305694.3056943,-17.307709962357567,39.64560187476074,-19.85405331025741,
295794205.7942058,-17.33558549809052,39.64548684873898,-19.774361352522373,
297282717.2827173,-17.363461033823473,39.645371822717216,-19.69466939478734,
298771228.7712288,-17.391336569556426,39.645256796695456,-19.614977437052303,
300259740.2597403,-17.41921210528938,39.645141770673696,-19.535285479317267,
301748251.74825174,-17.443629460629584,39.645026744651936,-19.455593521582237,
303236763.23676324,-17.444203599134756,39.64491171863017,-19.3759015638472,
304725274.72527474,-17.444777737639928,39.64479669260841,-19.296209606112164,
306213786.21378624,-17.4453518761451,39.64468166658665,-19.216517648377128,
307702297.7022977,-17.445926014650272,39.64456664056489,-19.136825690642098,
309190809.1908092,-17.446500153155448,39.64445161454313,-19.05713373290706,
310679320.6793207,-17.44707429166062,39.64433658852136,-18.977441775172025,
312167832.1678322,-17.447648430165792,39.6442215624996,-18.92886029089285,
313656343.65634364,-17.448222568670964,39.64410653647784,-19.031922696113526,
315144855.14485514,-17.443052722034764,39.643991510456075,-19.134985101334205,
316633366.63336664,-17.429459384832064,39.643876484434315,-19.238047506554885,
318121878.12187815,-17.41586604762937,39.643761458412555,-19.341109911775565,
319610389.6103896,-17.40227271042667,39.643646432390796,-19.444172316996237,
321098901.0989011,-17.388679373223972,39.64353140636903,-19.547234722216917,
322587412.5874126,-17.375086036021273,39.64341638034727,-19.650297127437597,
324075924.0759241,-17.361492698818573,39.64330135432551,-19.753359532658276,
325564435.56443554,-17.347899361615877,39.64318632830374,-19.798224187699994,
327052947.05294704,-17.334306024413177,39.64307130228198,-19.775188997279987,
328541458.54145855,-17.320712687210477,39.64295627626022,-19.752153806859976,
330029970.02997005,-17.30711935000778,39.642841250238455,-19.729118616439965,
331518481.51848155,-17.29352601280508,39.642726224216695,-19.70608342601996,
333006993.006993,-17.27993267560238,39.642611198194935,-19.683048235599948,
334495504.4955045,-17.266339338399685,39.642496172173175,-19.66001304517994,
335984015.984016,-17.252746001196986,39.64238114615141,-19.63697785475993,
337472527.4725275,-17.239152663994286,39.64226612012965,-19.61394266433992,
338961038.96103895,-17.22555932679159,39.64215109410789,-19.590907473919913,
340449550.44955045,-17.21196598958889,39.64203606808613,-19.567872283499906,
341938061.93806195,-17.198372652386194,39.64192104206436,-19.544837093079895,
343426573.42657346,-17.184779315183494,39.6418060160426,-19.521801902659885,
344915084.9150849,-17.171185977980794,39.64169099002084,-19.498766712239878,
346403596.4035964,-17.1575926407781,39.64157596399908,-19.475731521819867,
347892107.8921079,-17.1439993035754,39.64146093797732,-19.45269633139986,
349380619.3806194,-17.21621131654418,39.641345911955554,-19.42966114097985,
350869130.86913085,-17.320852767978028,39.641230885933794,-19.406625950559842,
352357642.35764235,-17.42549421941188,39.641115859912034,-19.383590760139832,
353846153.84615386,-17.530135670845738,39.641000833890274,-19.36055556971982,
355334665.33466536,-17.63477712227959,39.64088580786851,-19.337520379299814,
356823176.8231768,-17.739418573713444,39.64077078184675,-19.314485188879807,
358311688.3116883,-17.844060025147296,39.64065575582499,-19.291449998459797,
359800199.8001998,-17.948701476581153,39.64054072980323,-19.13894771788,
361288711.2887113,-18.053342928015006,39.64042570378147,-18.949674920920845,
362777222.7772228,-18.157984379448862,39.6403106777597,-18.76040212396169,
364265734.26573426,-18.262625830882712,39.64019565173794,-18.57112932700254,
365754245.75424576,-18.367267282316565,39.64008062571618,-18.381856530043382,
367242757.24275726,-18.47190873375042,39.63996559969442,-18.192583733084227,
368731268.73126876,-18.576550185184274,39.63985057367265,-18.003310936125068,
370219780.2197802,-18.681191636618127,39.63973554765089,-17.81403813916592,
371708291.7082917,-18.78583308805198,39.63962052162913,-17.631352058667325,
373196803.1968032,-18.890474539485837,39.639505495607374,-17.63428799117652,
374685314.6853147,-18.99511599091969,39.63939046958561,-17.637223923685713,
376173826.17382616,-19.09975744235354,39.63927544356385,-17.64015985619491,
377662337.66233766,-19.204398893787396,39.63916041754209,-17.643095788704102,
379150849.15084916,-19.30904034522125,39.63904539152033,-17.646031721213298,
380639360.63936067,-19.413681796655105,39.63893036549856,-17.64896765372249,
382127872.1278721,-19.497859406314653,39.6388153394768,-17.651903586231686,
383616383.6163836,-19.357708944323644,39.63870031345504,-17.65483951874088,
385104895.1048951,-19.217558482332638,39.63858528743327,-17.65777545125007,
386593406.5934066,-19.07740802034163,39.63847026141151,-17.660711383759267,
388081918.08191806,-18.937257558350627,39.63835523538975,-17.66364731626846,
389570429.57042956,-18.797107096359618,39.638240209367986,-17.666583248777656,
391058941.05894107,-18.65695663436861,39.638125183346226,-17.669519181286848,
392547452.54745257,-18.5168061723776,39.638010157324466,-17.672455113796044,
394035964.0359641,-18.36072435191646,39.6378951313027,-17.675391046305236,
