Frequency,S11_Magnitude,S21_Magnitude,S22_Magnitude,
10000000.0,-13.464240904854579,27.3652193996823,-13.04204618768295,
10989010.98901099,-13.464240904854579,27.3652193996823,-13.04204618768295,
11978021.978021977,-13.464240904854579,27.3652193996823,-13.04204618768295,
12967032.967032967,-13.464240904854579,27.3652193996823,-13.04204618768295,
13956043.956043955,-13.464240904854579,27.3652193996823,-13.04204618768295,
14945054.945054945,-13.464240904854579,27.3652193996823,-13.04204618768295,
15934065.934065934,-13.464240904854579,27.3652193996823,-13.04204618768295,
16923076.923076924,-13.464240904854579,27.3652193996823,-13.04204618768295,
17912087.91208791,-13.464240904854579,27.3652193996823,-13.04204618768295,
18901098.9010989,-13.464240904854579,27.3652193996823,-13.04204618768295,
19890109.89010989,-13.464240904854579,27.3652193996823,-13.04204618768295,
20879120.87912088,-13.464240904854579,27.3652193996823,-13.04204618768295,
21868131.86813187,-13.464240904854579,27.3652193996823,-13.04204618768295,
22857142.85714286,-13.464240904854579,27.3652193996823,-13.04204618768295,
23846153.846153848,-13.464240904854579,27.3652193996823,-13.04204618768295,
24835164.835164834,-13.464240904854579,27.3652193996823,-13.04204618768295,
25824175.824175823,-13.464240904854579,27.3652193996823,-13.04204618768295,
26813186.813186813,-13.464240904854579,27.3652193996823,-13.04204618768295,
27802197.802197803,-13.464240904854579,27.3652193996823,-13.04204618768295,
28791208.79120879,-13.464240904854579,27.3652193996823,-13.04204618768295,
29780219.78021978,-13.464240904854579,27.3652193996823,-13.04204618768295,
30769230.769230768,-13.464240904854579,27.3652193996823,-13.04204618768295,
31758241.758241758,-13.464240904854579,27.3652193996823,-13.04204618768295,
32747252.747252747,-13.464240904854579,27.3652193996823,-13.04204618768295,
33736263.73626374,-13.464240904854579,27.3652193996823,-13.04204618768295,
34725274.72527473,-13.464240904854579,27.3652193996823,-13.04204618768295,
35714285.71428572,-13.464240904854579,27.3652193996823,-13.04204618768295,
36703296.703296706,-13.464240904854579,27.3652193996823,-13.04204618768295,
37692307.692307696,-13.464240904854579,27.3652193996823,-13.04204618768295,
38681318.681318685,-13.464240904854579,27.3652193996823,-13.04204618768295,
39670329.67032967,-13.464240904854579,27.3652193996823,-13.04204618768295,
40659340.65934066,-13.464240904854579,27.3652193996823,-13.04204618768295,
41648351.64835165,-13.464240904854579,27.3652193996823,-13.04204618768295,
42637362.63736264,-13.464240904854579,27.3652193996823,-13.04204618768295,
43626373.62637363,-13.464240904854579,27.3652193996823,-13.04204618768295,
44615384.615384616,-13.464240904854579,27.3652193996823,-13.04204618768295,
45604395.604395606,-13.464240904854579,27.3652193996823,-13.04204618768295,
46593406.593406595,-13.464240904854579,27.3652193996823,-13.04204618768295,
47582417.58241758,-13.464240904854579,27.3652193996823,-13.04204618768295,
48571428.57142857,-13.464240904854579,27.3652193996823,-13.04204618768295,
49560439.56043956,-13.464240904854579,27.3652193996823,-13.04204618768295,
50549450.54945055,-13.464240904854579,27.3652193996823,-13.04204618768295,
51538461.538461536,-13.464240904854579,27.3652193996823,-13.04204618768295,
52527472.527472526,-13.391433066237092,27.3652193996823,-13.13388456485751,
53516483.516483516,-13.304093632966962,27.352991686920934,-13.269592567087368,
54505494.505494505,-13.218095910670833,27.337086898672244,-13.404222327951365,
55494505.494505495,-13.133405098070801,27.321182110423553,-13.536842944068976,
56483516.483516484,-13.049987692315202,27.305277322174863,-13.673229540070952,
57472527.472527474,-12.98151053321861,27.28937253392617,-13.81822610567365,
58461538.46153846,-12.919432021237046,27.27346774567748,-13.966976681686072,
59450549.450549446,-12.858048362323267,27.257562957428785,-14.121184113226317,
60439560.439560436,-12.79734644754643,27.24165816918009,-14.280126639542452,
61428571.428571425,-12.737313524165375,27.2257533809314,-14.444325606854001,
62417582.417582415,-12.671075974446557,27.209427279486896,-14.614594441217811,
63406593.406593405,-12.605570921226583,27.192071898679405,-14.78975962230402,
64395604.395604394,-12.540852599715306,27.174716517871918,-14.965538622154142,
65384615.384615384,-12.476905156640095,27.157361137064427,-15.146573976586575,
66373626.37362637,-12.413295054491487,27.14000575625694,-15.339857573997747,
67362637.36263737,-12.350226093805523,27.123450028655757,-15.542926226892943,
68351648.35164835,-12.28789752545155,27.107545240407067,-15.750405871128429,
69340659.34065934,-12.226294810958521,27.091640452158373,-15.959177633182001,
70329670.32967032,-12.166167039876745,27.075735663909683,-16.17510564971452,
71318681.31868131,-12.106997447461282,27.059830875660992,-16.40146265133787,
72307692.3076923,-12.048489466017182,27.0439260874123,-16.63628821133653,
73296703.2967033,-11.99063075502323,27.02802129916361,-16.87997864509839,
74285714.28571428,-11.93420644935465,27.012116510914918,-17.133147222884,
75274725.27472527,-11.878589618579166,26.996211722666228,-17.392543149992118,
76263736.26373626,-11.823565951218614,26.980412675086033,-17.648467817967184,
77252747.25274725,-11.769124921686416,26.96595847939614,-17.91460078627855,
78241758.24175824,-11.71646123681425,26.951504283706246,-18.191698085770327,
79230769.23076923,-11.664520299904355,26.937050088016353,-18.480601774548045,
80219780.21978022,-11.613104100557488,26.92259589232646,-18.782253482594275,
81208791.20879121,-11.562203839581628,26.90717353527858,-19.097710731082174,
82197802.1978022,-11.514066158667578,26.88981815447109,-19.423010790620324,
83186813.18681319,-11.468290768014477,26.872462773663603,-19.73265406963553,
84175824.17582417,-11.422928641256899,26.855107392856112,-20.05649856270619,
85164835.16483516,-11.37797359673951,26.837752012048625,-20.408015720282428,
86153846.15384614,-11.333419585074193,26.822121472620108,-20.793442627293736,
87142857.14285713,-11.293770579811602,26.807667276930214,-21.200567971284286,
88131868.13186812,-11.255416367829426,26.79321308124032,-21.54342392000009,
89120879.12087911,-11.21735686032586,26.778758885550427,-21.90095638135963,
90109890.1098901,-11.179588312445537,26.764304689860534,-22.27665845456378,
91098901.0989011,-11.142466170745484,26.751091254870623,-22.62968619771872,
92087912.08791208,-11.108796627212186,26.738087651739527,-22.994518395206885,
93076923.07692307,-11.075356694985206,26.72508404860843,-23.37791259989369,
94065934.06593406,-11.042143787968177,26.712080445477337,-23.711277281826916,
95054945.05494505,-11.009155361699781,26.699582366801273,-24.03432333015988,
96043956.04395604,-10.978794869626334,26.69093054134657,-24.371597433947606,
97032967.03296703,-10.952498946882052,26.68227871589187,-24.724332911983545,
98021978.02197802,-10.926344826838525,26.673626890437163,-25.074303908207707,
99010989.01098901,-10.90033124794398,26.66497506498246,-25.411913913152674,
100000000.0,-10.874456964689765,26.653588998716895,-25.764796599397037,
100989010.98901099,-10.853157941373414,26.637684210468205,-26.13432464130839,
101978021.97802198,-10.834206110299817,26.621779422219515,-26.51090448972269,
102967032.96703297,-10.815328670907062,26.605874633970824,-26.787624978742937,
103956043.95604396,-10.796525141716366,26.589969845722134,-27.07435765215522,
104945054.94505495,-10.77779504570458,26.584242127372775,-27.371821080295224,
105934065.93406592,-10.763788552102277,26.58429385727086,-27.680813919516698,
106923076.92307691,-10.750103059202445,26.584345587168947,-27.945807196297466,
107912087.9120879,-10.736456637589097,26.58439731706703,-28.12139366774744,
108901098.90109889,-10.722849103411061,26.584449046965116,-28.30090570450954,
109890109.89010988,-10.710129237718476,26.57146549503159,-28.48451610568949,
110879120.87912087,-10.700381809672777,26.557011299341696,-28.672409320272557,
111868131.86813186,-10.690654290682087,26.542557103651802,-28.79122749084435,
112857142.85714285,-10.680946613730866,26.52810290796191,-28.87201254288744,
113846153.84615384,-10.671258712126255,26.515498917350875,-28.9536132442195,
114835164.83516483,-10.664027197418388,26.512649462131364,-29.036045666714077,
115824175.82417582,-10.659197995156127,26.509800006911853,-29.119326361420505,
116813186.81318681,-10.654373699539725,26.50695055169234,-29.05516193405857,
117802197.8021978,-10.649554302352001,26.50410109647283,-28.980760285979223,
118791208.79120879,-10.64473979539546,26.502470872544023,-28.907036712268706,
119780219.78021978,-10.641188436371884,26.50252260244211,-28.833979365564915,
120769230.76923077,-10.637983877908434,26.502574332340195,-28.74800306330141,
121758241.75824176,-10.634781484154296,26.50262606223828,-28.61321421818612,
122747252.74725275,-10.631581252699348,26.502677792136364,-28.480641222080997,
123736263.73626374,-10.628383181137323,26.49482587678768,-28.350214809325447,
124725274.72527473,-10.625187267065781,26.483272866215383,-28.221868908116722,
125714285.71428572,-10.621993508086096,26.471719855643084,-28.084649325004868,
126703296.70329669,-10.618801901803474,26.460166845070788,-27.938725428276626,
127692307.69230768,-10.615612445826928,26.448613834498488,-27.79541042550795,
128681318.68131867,-10.613897492894077,26.442526006591553,-27.654615973792023,
129670329.67032966,-10.61496002098038,26.436775366254448,-27.516258136434484,
130659340.65934065,-10.61602278767008,26.431024725917343,-27.34383750240625,
131648351.64835164,-10.617085793051515,26.425274085580234,-27.164652543902346,
132637362.63736263,-10.618149037213065,26.42069961771528,-26.98941420914611,
133626373.62637362,-10.621547961220028,26.42075134761336,-26.817959007110318,
134615384.6153846,-10.626338956715578,26.420803077511447,-26.650798994811197,
135604395.6043956,-10.63113480311298,26.42085480740953,-26.498502733525726,
136593406.5934066,-10.635935508515452,26.420906537307616,-26.349086644233935,
137582417.58241758,-10.640741081045597,26.41625158530598,-26.202448292289414,
138571428.57142857,-10.64166899378301,26.406149167292476,-26.058490601718574,
139560439.56043956,-10.642203351639886,26.396046749278977,-25.92463021564322,
140549450.54945055,-10.642737769715872,26.385944331265478,-25.8077054788315,
141538461.53846154,-10.643272248022157,26.375841913251975,-25.692499129336174,
142527472.52747253,-10.643705970201815,26.36784094151653,-25.57896364699647,
143516483.51648352,-10.643705970201815,26.360639708620624,-25.46705345145613,
144505494.5054945,-10.643705970201815,26.353438475724722,-25.37279575957846,
145494505.4945055,-10.643705970201815,26.346237242828817,-25.289600869329586,
146483516.48351648,-10.643705970201815,26.339036009932915,-25.20728511878363,
147472527.47252747,-10.641699505054723,26.328976650737967,-25.1258310072903,
148461538.46153846,-10.637426781261981,26.31887423272447,-25.045221550267552,
149450549.45054945,-10.633157905096137,26.30877181471097,-24.992160917360387,
150439560.43956044,-10.628892870847423,26.298669396697466,-24.94254092565033,
151428571.42857143,-10.624631672818207,26.288923789285185,-24.89323639917094,
152417582.41758242,-10.621970326346489,26.280271963830483,-24.844243552216412,
153406593.4065934,-10.619842360200312,26.27162013837578,-24.79470029261129,
154395604.3956044,-10.617715350091967,26.26296831292108,-24.741504138436575,
155384615.3846154,-10.615589295313576,26.254316487466376,-24.688671352547452,
156373626.37362638,-10.613529361162069,26.241988908953118,-24.636197257076077,
157362637.36263737,-10.613529361162069,26.226084120704428,-24.584077263643607,
158351648.35164833,-10.613529361162069,26.210179332455734,-24.532306871092317,
159340659.34065932,-10.613529361162069,26.194274544207044,-24.480881663289328,
160329670.3296703,-10.613529361162069,26.178369755958354,-24.429797306998854,
161318681.3186813,-10.613529361162069,26.164691948954072,-24.37904954982077,
162307692.3076923,-10.613529361162069,26.15168834582298,-24.328634218192676,
163296703.29670328,-10.613529361162069,26.138684742691883,-24.275197303053343,
164285714.28571427,-10.613529361162069,26.125681139560786,-24.220950246737722,
165274725.27472526,-10.613529361162069,26.11267753642969,-24.16708371051708,
166263736.26373625,-10.613529361162069,26.099673933298593,-24.113592679540993,
167252747.25274724,-10.613529361162069,26.0866703301675,-24.060472237120262,
168241758.24175823,-10.613529361162069,26.073666727036404,-24.00771756218228,
169230769.23076922,-10.613529361162069,26.060663123905307,-23.955323926808056,
170219780.2197802,-10.613529361162069,26.047239942689817,-23.90328669384827,
171208791.2087912,-10.613529361162069,26.03278574699992,-23.85160131461495,
172197802.1978022,-10.613529361162069,26.018331551310027,-23.797708497010994,
173186813.18681318,-10.613529361162069,26.003877355620133,-23.738267237420125,
174175824.17582417,-10.613529361162069,25.989423159930237,-23.679285759498736,
175164835.16483516,-10.613529361162069,25.975766882335236,-23.620757404905305,
176153846.15384614,-10.613529361162069,25.96276327920414,-23.562675658367365,
177142857.14285713,-10.613529361162069,25.949759676073043,-23.507414869992893,
178131868.13186812,-10.613529361162069,25.936756072941947,-23.454262736131227,
179120879.1208791,-10.613529361162069,25.923752469810854,-23.401480128050185,
180109890.1098901,-10.613529361162069,25.908396350468987,-23.349062241048742,
181098901.0989011,-10.613529361162069,25.892491562220297,-23.297004363166522,
182087912.08791208,-10.613529361162069,25.876586773971603,-23.245301872812888,
183076923.07692307,-10.613529361162069,25.860681985722913,-23.193950236471387,
184065934.06593406,-10.613529361162069,25.844881203031303,-23.142945006476474,
185054945.05494505,-10.613529361162069,25.83042700734141,-23.092281818860098,
186043956.04395604,-10.613529361162069,25.815972811651516,-23.0419563912653,
187032967.03296703,-10.613529361162069,25.801518615961623,-22.991964520924387,
188021978.02197802,-10.613529361162069,25.78706442027173,-22.942302082699438,
189010989.010989,-10.613529361162069,25.773092570149412,-22.892965027182687,
190000000.0,-10.61564495711255,25.760088967018316,-22.843949378854592,
190989010.989011,-10.617771036898684,25.74708536388722,-22.79682864418262,
191978021.97802198,-10.619898072033306,25.734081760756126,-22.75214564525686,
192967032.96703297,-10.622026063224304,25.72107815762503,-22.707727055996617,
193956043.95604396,-10.624743209895822,25.710656611228146,-22.663569960677062,
194945054.94505495,-10.629004508309727,25.702004785773443,-22.619671491320446,
195934065.93406594,-10.633269643092174,25.69335296031874,-22.57857893298002,
196923076.92307693,-10.637538619941118,25.68470113486404,-22.538781976338388,
197912087.91208792,-10.641811444566645,25.676049309409336,-22.499195662707404,
198901098.9010989,-10.643705970201815,25.66120235601181,-22.459817916231472,
199890109.8901099,-10.643705970201815,25.64529756776312,-22.420646691445597,
200879120.87912086,-10.643705970201815,25.62939277951443,-22.388635098310367,
201868131.86813185,-10.643705970201815,25.61348799126574,-22.356874414100186,
202857142.85714284,-10.643705970201815,25.599417706459917,-22.32524846027557,
203846153.84615383,-10.647737344776038,25.599469436358003,-22.29375617303853,
204835164.83516482,-10.652554896049597,25.59952116625609,-22.261476912341898,
205824175.8241758,-10.657377342656831,25.599572896154175,-22.22679138265523,
206813186.8131868,-10.662204692807482,25.599624626052258,-22.192266848346783,
207802197.80219778,-10.666655727930879,25.594225225442788,-22.15790192026599,
208791208.79120877,-10.66826744548528,25.579771029752894,-22.123695227073682,
209780219.78021976,-10.66987970994225,25.565316834063,-22.098911574014814,
210769230.76923075,-10.671492521608004,25.550862638373104,-22.081923900790308,
211758241.75824174,-10.673105880788984,25.53640844268321,-22.064975038014882,
212747252.74725273,-10.676437476794625,25.529341871483314,-22.04806482068222,
213736263.73626372,-10.68236196882241,25.526492416263807,-22.031193084830623,
214725274.7252747,-10.688293849708455,25.523642961044295,-22.003258815271,
215714285.7142857,-10.694233134670046,25.520793505824784,-21.973099853627346,
216703296.7032967,-10.700179838969401,25.517944050605276,-21.943063243381623,
217692307.69230768,-10.704293716060853,25.51769818152925,-21.91314806298468,
218681318.68131867,-10.70754331158939,25.517749911427337,-21.884057576851916,
219670329.67032966,-10.710795124727692,25.517801641325423,-21.860964498417204,
220659340.65934065,-10.714049157974683,25.51785337122351,-21.83794337397793,
221648351.64835164,-10.717305413833335,25.515609695887186,-21.814993787281747,
222637362.63736263,-10.721607468452529,25.501155500197292,-21.79211532565808,
223626373.62637362,-10.72595652708947,25.4867013045074,-21.771827663835225,
224615384.6153846,-10.730309553354559,25.472247108817506,-21.755573940456898,
225604395.6043956,-10.73466655322715,25.45779291312761,-21.73935596554613,
226593406.5934066,-10.739421934634104,25.448201761709196,-21.723173593117217,
227582417.58241758,-10.745425286307018,25.44535230648969,-21.707026678071895,
228571428.57142857,-10.751436189948244,25.442502851270177,-21.678026430643822,
229560439.56043956,-10.757454661258901,25.439653396050666,-21.6427661452634,
230549450.54945055,-10.76348071598693,25.436803940831155,-21.607674025728763,
231538461.53846154,-10.76951436992729,25.435926926700503,-21.57274858749632,
232527472.52747253,-10.775555638922123,25.435978656598586,-21.53798836548182,
233516483.51648352,-10.781604538860964,25.43603038649667,-21.512327077599412,
234505494.5054945,-10.787661085680913,25.436082116394758,-21.48723758625337,
235494505.4945055,-10.793725295366823,25.436133846292844,-21.46223361161658,
236483516.48351648,-10.799797183951494,25.422539970641687,-21.43731461413661,
237472527.47252747,-10.805876767515862,25.408085774951793,-21.41248005932107,
238461538.46153846,-10.811964062189187,25.3936315792619,-21.38772941767458,
239450549.45054945,-10.818059084149244,25.379177383572006,-21.363062164636695,
240439560.43956044,-10.824161849622511,25.367061651935078,-21.338477780520773,
241428571.42857143,-10.830272374884382,25.364212196715567,-21.3139757504539,
242417582.4175824,-10.836390676259333,25.361362741496055,-21.283341169236877,
243406593.40659338,-10.842516770121138,25.358513286276548,-21.24689418829088,
244395604.39560437,-10.848650672893061,25.355663831057036,-21.21062824940658,
245384615.38461536,-10.85499566858019,25.34879048773484,-21.174541693227262,
246373626.37362635,-10.8617049631724,25.33723747716254,-21.13863288296416,
247362637.36263734,-10.8684236124543,25.32568446659024,-21.098204192998335,
248351648.35164833,-10.875151638018412,25.314131456017943,-21.056763232040268,
249340659.34065932,-10.881889061528804,25.302578445445643,-21.01555706632679,
250329670.3296703,-10.889361200247318,25.293123410928562,-20.97458324626792,
251318681.3186813,-10.897245636801232,25.28447158547386,-20.933632131174583,
252307692.3076923,-10.905142962237665,25.275819760019157,-20.8902316633855,
253296703.29670328,-10.913053211459394,25.267167934564455,-20.847089537037853,
254285714.28571427,-10.92097641950495,25.258516109109753,-20.804202924856536,
255274725.27472526,-10.930487579596589,25.24415497150264,-20.76156904541692,
256263736.26373625,-10.94014505892841,25.229700775812745,-20.71422698938678,
257252747.25274724,-10.949821823748545,25.21524658012285,-20.65813777888685,
258241758.24175823,-10.959517937906217,25.200792384432958,-20.602481414859156,
259230769.23076922,-10.969115680665658,25.18633818874306,-20.547251776585043,
260219780.2197802,-10.978277276164041,25.171883993053168,-20.492442871356417,
261208791.2087912,-10.987456178775798,25.157429797363275,-20.439763536138656,
262197802.1978022,-10.996652442729227,25.14297560167338,-20.388456011509277,
263186813.18681318,-11.005866122496887,25.128521405983488,-20.337513044966087,
264175824.17582417,-11.015659305565755,25.11480062579389,-20.286929897858172,
