Frequency,S11_Magnitude,S11_Phase,S11_VSWR,S12_Magnitude,S12_Phase,S12_VSWR,S21_Magnitude,S21_Phase,S21_VSWR,S22_Magnitude,S22_Phase,S22_VSWR,
20000000,-0.1023681853,-3.551044047,169.7009701,-23.13489674,-114.5218673,1.149852439,-63.43084198,57.42676784,1.001348281,-10.44557179,-6.541341168,1.858837166,
20106666,-0.1102947721,-3.993931494,157.5053139,-20.78400589,-94.89304622,1.201113968,-63.29022252,-72.238452,1.001370302,0.5386370771,179.239252,nan,
20213333,-0.1080701372,-4.550729389,160.7474907,-36.04578794,128.2402929,1.032036278,-57.90000363,-49.3981566,1.002550253,-12.34860188,72.30169437,1.636112339,
20320000,-0.1133752794,-5.125476602,153.2258708,5.847304733,-139.2845876,nan,-66.18750491,-175.3268597,1.000981449,-3.129692144,-153.2068738,5.610558809,
20426666,-0.1231653823,-5.675634486,141.046697,-9.632108055,47.70682394,1.984670715,-65.24755409,-87.47309102,1.001093679,13.96860065,-69.41938499,nan,
20533333,-0.1033553236,-6.358530862,168.0802076,-24.79935821,178.4992482,1.122124545,-63.78466112,-71.01431215,1.001294428,-20.40693671,-90.86293501,1.210978223,
20640000,-0.1072531301,-6.754289866,161.9719629,-9.156308405,-13.59567547,2.06977001,-67.73873338,-46.34308716,1.000820865,0.2048573534,73.49387039,nan,
20746666,-0.1078620751,-7.430113046,161.0575588,-20.23229536,-19.11922337,1.215725337,-80.50233717,-116.125244,1.000188779,-11.81222664,-179.467263,1.690624028,
20853333,-0.1109467036,-8.015817498,156.5798252,-16.29112211,-118.9344541,1.362014981,-71.47705633,114.2305937,1.000533695,-0.3194948724,-175.5178911,54.37876913,
20960000,-0.1150557844,-8.555217642,150.9879175,-21.36945297,-129.8781932,1.186780975,-66.46371024,0.133945064,1.000950716,-8.382947342,65.72839101,2.23068656,
21066666,-0.1122611496,-9.055625419,154.7465099,-25.67023681,-154.7193493,1.109833906,-60.77738909,162.859957,1.00183045,-7.808929458,54.6885096,2.372463402,
21173333,-0.1015233416,-9.636000444,171.1131329,-11.98484127,-85.43548832,1.672465574,-61.92294108,19.53668777,1.001604099,5.440447781,-148.9024498,nan,
21280000,-0.1137228852,-10.14365058,152.7575334,-24.1251891,70.91782834,1.132634653,-65.67331624,-158.953004,1.001041334,1.759244219,-68.26779646,nan,
21386666,-0.1139623176,-10.7907365,152.4366023,-22.17752566,-113.6828942,1.168787684,-57.42754226,-61.9543473,1.002693006,-0.7626385465,168.222773,22.79315427,
21493333,-0.1193468581,-11.30163271,145.5593625,-21.89676804,123.735568,1.174817286,-71.18066665,-89.19046739,1.000552226,-12.52125326,122.1262746,1.619713833,
21600000,-0.1101502185,-11.89291515,157.7120074,-18.13575672,122.3271795,1.282949156,-56.94961376,150.5356257,1.002845554,4.291254698,135.7696605,nan,
21706666,-0.1233733223,-12.39671161,140.8089772,-15.93029304,70.412415,1.380290328,-68.58429922,105.5496981,1.000744692,-1.106847632,1.930065082,15.71605713,
21813333,-0.1046905486,-12.9974451,165.9365608,-15.84779845,-67.48290131,1.38461725,-66.00344777,-12.55465355,1.001002479,-18.09037417,80.31749701,1.284642349,
21920000,-0.104891797,-13.46663259,165.6181978,-17.57328269,-97.32829166,1.304762918,-70.21654829,-141.9401777,1.000617073,-7.517104978,69.65021961,2.453437445,
22026666,-0.1129640115,-14.1174279,153.7837042,-20.69922395,-38.75559361,1.203287138,-62.54091901,-163.2180085,1.001493855,-13.36227549,-79.05395937,1.546884277,
22133333,-0.1107912736,-14.61293448,156.7994864,-20.66177258,141.9948004,1.204255264,-60.892116,117.1723094,1.00180641,-17.27009949,100.6317024,1.317306108,
22240000,-0.1125277174,-15.21974038,154.3799399,-45.19407708,-81.40896491,1.011059131,-84.5198627,-61.72627248,1.000118867,3.069386856,16.27837274,nan,
22346666,-0.1114612927,-15.68378844,155.8569549,-4.180194346,149.4038821,4.235637349,-68.4422248,156.4014579,1.000756978,9.063154214,-73.60859129,nan,
22453333,-0.1081590473,-16.27469348,160.6153547,-39.99376434,106.03829,1.020216675,-69.87728472,-5.170949458,1.00064166,-6.819148212,9.317705792,2.67702241,
22560000,-0.1140541147,-16.74855557,152.3139163,-7.346677478,113.8688702,2.503893144,-71.61876272,-72.62141799,1.000525056,-2.481293059,-116.283092,7.048646311,
22666666,-0.1103542231,-17.35969578,157.4204635,-30.13978493,71.82056314,1.06423472,-63.64950863,-17.25044895,1.00131474,-10.50816507,145.8131704,1.850049313,
22773333,-0.1151406839,-17.89269245,150.8765891,-24.8436815,61.37939402,1.12146519,-76.21246361,-135.8045436,1.000309367,-6.648147861,-56.85704421,2.739363045,
22880000,-0.1184304104,-18.40744085,146.6857063,-20.31355218,-89.51646944,1.213502197,-59.55965325,-69.24678369,1.002106223,-3.049995656,-55.70196791,5.754077487,
22986666,-0.1175736225,-19.03732155,147.7546082,-12.54904971,8.297360121,1.617122844,-69.24519248,-16.19782928,1.000690113,-6.326698595,8.604074163,2.866126917,
23093333,-0.1244544927,-19.536827,139.5857723,-2.692986455,-50.5467637,6.50233984,-69.85063717,-29.75306288,1.000643632,9.536726731,-0.02431621078,nan,
23200000,-0.12103909,-20.03405928,143.5243803,-10.56994119,169.8603522,1.841490311,-67.85143389,99.04109548,1.000810278,0.7889411735,66.30153614,nan,
23306666,-0.1210478403,-20.57273737,143.5140056,-10.74821521,-70.84618353,1.817408263,-67.38522177,141.520947,1.000854977,-12.31363868,-87.48559967,1.639498413,
23413333,-0.1290532027,-21.20137972,134.6119157,-24.74000466,140.8636139,1.123013424,-74.81891074,-167.8226064,1.000363215,-0.3146746542,0.422954116,55.21156223,
23520000,-0.1341477852,-21.69324212,129.4998986,-17.69421702,48.37779591,1.299917182,-62.48745546,-125.3265258,1.001503085,-1.866590921,-168.2896676,9.342476971,
23626666,-0.133499717,-22.28654009,130.1285249,-35.12771026,38.81769668,1.035671568,-78.36405238,9.771304786,1.000241479,-5.009338572,103.245554,3.56347043,
23733333,-0.1180374105,-22.69645355,147.1740743,-15.68360971,-37.76459604,1.393400483,-69.48426193,0.0511180523,1.000671371,-6.408774525,-137.5957783,2.832495585,
23840000,-0.135602287,-23.2969058,128.110908,-26.84417915,-172.6996151,1.095287209,-57.07110716,77.8886878,1.002805973,1.688634534,178.3554921,nan,
23946666,-0.1413799433,-23.84861956,122.8757234,-24.89897864,154.1297672,1.120647861,-73.54822671,-82.65420744,1.000420446,-40.83700289,128.8952352,1.01832913,
24053333,-0.145770602,-24.34158798,119.174832,-25.78554232,69.8314467,1.108307055,-65.76030558,-42.90059499,1.001030952,-12.19363837,38.12200222,1.651291799,
24160000,-0.1360922152,-24.91705699,127.649731,-21.64099338,-176.0605564,1.180513239,-77.63030768,-166.753402,1.000262768,-19.64827634,-23.89407131,1.232472927,
24266666,-0.1581100294,-25.59663834,109.8744907,-19.40060862,-83.19322913,1.240003928,-61.06170655,-110.2709635,1.001771451,5.015238726,-101.2858137,nan,
24373333,-0.1554013214,-26.19331919,111.7895427,-24.41345015,-0.4316589736,1.128027959,-69.53174395,44.61274545,1.00066771,-3.527667973,43.55971493,4.991941437,
24480000,-0.1605001916,-26.52798719,108.2383354,-16.93396353,169.301543,1.331904004,-62.97992582,-60.81688199,1.001420175,-0.5692849451,7.082511677,30.52600916,
24586666,-0.1676269038,-27.1478738,103.6368151,-19.08021936,-69.50369714,1.250149997,-68.17289059,-168.8178301,1.000780827,-4.600602039,-87.84131165,3.863846854,
24693333,-0.1772468783,-27.75007818,98.01234449,-20.10112166,98.74872466,1.219367978,-59.46257013,-43.91283479,1.002129922,-25.04413438,-175.4471879,1.118529889,
24800000,-0.1654125991,-28.22871172,105.0240694,-22.82986823,2.04992327,1.155625168,-64.17071319,-158.3129324,1.001238121,-7.37052975,99.33339871,2.496682692,
24906666,-0.190872309,-28.80937373,91.01623188,-11.96530463,92.81667468,1.674490481,-62.15071606,65.08117537,1.001562548,2.349464424,-37.77258977,nan,
25013333,-0.1808359584,-29.43499058,96.06721425,-16.76313266,37.54209134,1.339615824,-67.6947502,144.1461307,1.000825034,-9.860205135,61.47828359,1.947063943,
25120000,-0.2001906292,-29.88472221,86.78002725,-24.62429688,-10.92423258,1.124766004,-72.90278631,114.4746707,1.000452886,-1.538526234,-16.92164048,11.32068785,
25226666,-0.1948792814,-30.59558671,89.14497157,-33.0522858,-128.9890239,1.045518626,-67.90933856,-138.4095741,1.000804892,-6.17385862,-27.27927863,2.931243314,
25333333,-0.1853818671,-31.19666312,93.7116395,-19.43440915,60.5373182,1.238960411,-71.7884408,152.4559137,1.000514896,-14.02350071,-99.01564343,1.49683875,
25440000,-0.1948155387,-31.79108366,89.1741369,-13.44779707,-129.5873054,1.540079126,-71.86731013,-91.8540016,1.000510241,-3.123456263,129.8413995,5.621521592,
25546666,-0.2039920652,-32.36844777,85.16300732,-21.52323996,-98.61839369,1.183202788,-64.46037252,93.41460137,1.001197488,0.9464772387,173.7850676,nan,
25653333,-0.2196536727,-33.06007758,79.09134795,-1.461762401,-32.960059,11.9121687,-63.25197037,152.5191641,1.001376354,14.12044682,44.13320347,nan,
25760000,-0.2081390389,-33.57691081,83.46637243,-8.233388644,106.9593663,2.265586149,-69.34571669,171.2538426,1.000682169,4.354234748,-37.20724852,nan,
25866666,-0.2211616589,-34.19469667,78.5521229,-16.4371692,-60.77267455,1.354907708,-66.70923411,-147.3796646,1.000924206,-8.077095404,0.2520472945,2.303542167,
25973333,-0.2236665262,-34.76855206,77.67250416,-22.08955819,163.0517223,1.170652388,-58.92452146,-150.2601553,1.002266187,-24.01084306,17.73043818,1.134510485,
26080000,-0.239126915,-35.52295394,72.65128009,-9.743809838,177.438114,1.966011639,-69.17896857,41.7532578,1.000695397,1.897874503,178.412113,nan,
26186666,-0.2537712252,-36.26204118,68.45935728,-12.37118217,-157.6770081,1.633937335,-61.08532448,-69.69138279,1.001766637,-3.379494232,-129.1192925,5.205032265,
26293333,-0.2698504513,-36.98103145,64.38075773,-21.86330582,79.65988154,1.175551294,-62.4249595,81.67223759,1.001513947,-7.411194083,-108.6492253,2.484503351,
26400000,-0.2867565596,-37.65574661,60.58573553,-29.1184556,-112.3061642,1.072540448,-74.56943103,-28.85026431,1.0003738,-11.88808292,6.252341038,1.682569412,
26506666,-0.2899363619,-38.61399489,59.92139845,-21.07656905,-26.21492579,1.193807248,-65.14472512,-107.5122046,1.00110671,3.575505081,-6.928569127,nan,
26613333,-0.3262775527,-39.63950653,53.24859711,-12.8870375,50.7580032,1.586661737,-52.46762626,-146.4442221,1.004771815,14.2910342,117.7396814,nan,
26720000,-0.3784320769,-40.72432754,45.91187748,-20.06857977,-108.8298879,1.220282078,-61.79626444,130.7465237,1.001627684,-3.806961299,146.3038647,4.635977467,
26826666,-0.4386554505,-42.04048262,39.61074978,-28.62226327,-12.58514649,1.076969185,-67.01397438,141.7652867,1.000892329,-5.819401692,130.7724696,3.095986015,
26933333,-0.5969148347,-43.90105862,29.11406222,-10.49170908,-110.0588971,1.852348308,-68.47068714,-61.32212555,1.0007545,-23.67085115,37.54182359,1.140256593,
27040000,-0.9654275438,-46.50570707,18.01239263,-19.16202638,-160.923459,1.247514844,-68.3411196,-21.8504518,1.000765844,-2.871654423,-127.4694008,6.104399351,
27146666,-2.111340285,-48.09865707,8.268317368,-22.99624983,142.2618936,1.152447413,-59.6921791,-21.78493607,1.002074298,-0.2325136107,-43.73126267,74.71741793,
27253333,-3.012794145,-33.87066532,5.823697268,-11.7901818,23.23664628,1.692987171,-68.7701626,4.803406557,1.00072892,0.975680003,-31.14214357,nan,
27360000,-1.269480426,-30.22164495,13.70851512,-18.83553487,116.6825821,1.258219751,-70.50229427,137.7283667,1.000597097,-23.82921448,6.379251287,1.137548295,
27466666,-0.6260765333,-33.36505272,27.75906609,-13.80889875,-24.47542821,1.512451472,-62.7329187,80.90143676,1.001461172,0.8090299014,-22.80818274,nan,
27573333,-0.4451295232,-35.80510306,39.03488797,-11.82007007,55.21504177,1.689785678,-58.96672455,-57.73279419,1.00225519,-8.105302605,63.10967016,2.29657592,
27680000,-0.3644194481,-37.46799877,47.67672943,-25.83991249,-97.22611676,1.107594855,-66.06046006,-136.3292689,1.000995917,-11.26154798,-152.494889,1.752842112,
27786666,-0.322433558,-38.77199812,53.88326887,-13.91309966,175.8973053,1.504798144,-64.34212273,102.6758632,1.001213912,-6.937880868,-177.0028638,2.635633885,
27893333,-0.3054280097,-39.88374254,56.882698,-6.367510159,-179.8099827,2.849290838,-63.09670981,-53.92400041,1.001401195,-5.379534875,-135.6953155,3.331804131,
28000000,-0.2767127567,-40.74267107,62.78441478,-22.88810629,-60.7168873,1.154504867,-65.20331971,94.38826392,1.001099266,-11.15843359,-149.3972168,1.76527286,
28106666,-0.2871353017,-41.68445452,60.50583522,-20.11580938,145.4755286,1.218956767,-63.64593855,-44.36373464,1.001315281,-13.99066998,-135.7580526,1.499189854,
28213333,-0.2775662065,-42.430481,62.5914004,-25.94979921,25.33116694,1.106170423,-74.75914216,125.2651302,1.000365723,-12.62960272,-47.47562662,1.609689475,
28320000,-0.2673397916,-43.10863126,64.98527788,-10.50478737,-157.0961513,1.85052054,-63.92190068,63.90084307,1.001274124,-2.996414579,-106.5343601,5.854904056,
28426666,-0.2804242043,-43.76704911,61.95359708,-13.24939006,-154.0854205,1.556027087,-66.58847432,70.84268281,1.000937151,9.453793582,148.5796333,nan,
28533333,-0.2629065676,-44.29608229,66.08091118,-11.50732857,-133.6946174,1.72423189,-76.21167907,124.1494051,1.000309395,0.8519536374,-179.2531021,nan,
28640000,-0.2596222629,-45.05998689,66.91672901,-15.76377745,67.84352108,1.389083117,-66.8564258,-65.55858314,1.00090867,-5.788839669,-158.4146517,3.111172461,
28746666,-0.2752301947,-45.75112381,63.12255387,-16.71096806,80.43591868,1.342011418,-63.46908543,-89.73859787,1.001342354,-10.45136738,-118.1623322,1.858018542,
28853333,-0.2644849934,-46.32152123,65.68660586,-6.885369443,-164.0512946,2.653753471,-90.80288349,-168.4623865,1.000057663,7.528647719,-106.2058557,nan,
28960000,-0.2808720785,-46.78483525,61.85482403,-23.0066283,-124.8724052,1.152251509,-60.24323166,-129.1748244,1.001946664,-10.91832933,-83.55980986,1.79525131,
29066666,-0.2785717821,-47.40407916,62.36549936,-11.39610821,-24.48899767,1.737004411,-64.94425545,101.3852272,1.001132565,-5.588969518,140.6156267,3.21473531,
29173333,-0.2678516229,-47.97257657,64.86111869,-19.09447878,-24.34974906,1.249688441,-67.05886775,-169.4754724,1.000887727,0.8710806405,158.8188617,nan,
29280000,-0.2816958374,-48.63314425,61.67397446,-17.78213591,71.11947879,1.296449015,-79.0570376,-64.44907304,1.00022296,-8.844674584,-72.86894929,2.130945915,
29386666,-0.2636778027,-48.99955346,65.88765969,-11.79011068,-1.718112537,1.692994811,-76.7211457,44.37108896,1.000291767,-19.02475171,138.7283858,1.251954439,
29493333,-0.2757390504,-49.73088228,63.00608544,-7.90444534,-51.74137753,2.347341853,-65.5337811,-167.9721528,1.001058207,-9.108456023,-132.4879384,2.078867835,
29600000,-0.2874791413,-50.39059826,60.43348036,-23.28278343,34.68603682,1.147136523,-82.60234949,110.8954926,1.000148233,-6.922895302,-19.90232586,2.64077531,
29706666,-0.2626044515,-50.8806932,66.15692308,-22.27069038,6.645736026,1.16683673,-60.24754503,-125.819183,1.001945696,-6.072607067,-88.42352402,2.97626308,
29813333,-0.2722604108,-51.50861208,63.81097253,-20.77799012,100.6998836,1.201267328,-63.45022033,110.0409668,1.001345275,-16.41619005,55.83699723,1.355918691,
29920000,-0.2683308985,-51.8495705,64.74528625,-8.310197763,-92.70853332,2.247494017,-71.67255567,-103.3242028,1.000521814,-15.3714518,151.3613041,1.410752295,
30026666,-0.2543116672,-52.45743449,68.31389388,-9.036806234,-104.1963197,2.092686537,-64.57995095,-76.12898254,1.001181106,10.73771502,37.18868701,nan,
30133333,-0.2357847809,-52.93709801,73.68094732,-17.89209632,-7.071779369,1.292174925,-63.4531045,56.35465836,1.001344828,-9.229869421,133.3686278,2.055984992,
30240000,-0.2533989564,-53.40223673,68.55991674,-29.73831852,24.19563413,1.067375731,-65.50376997,71.54149773,1.001061872,-3.615491538,168.305695,4.873993422,
30346666,-0.2461125192,-53.95771066,70.58942624,-16.11002862,23.80193554,1.371056934,-66.57390349,115.9418781,1.000938725,-7.745792614,158.63259,2.389431988,
30453333,-0.2312851298,-54.40745732,75.11423544,-23.32956294,106.347618,1.146288415,-71.1613993,-52.55739633,1.000553452,0.8113359247,131.9194072,nan,
30560000,-0.2219954429,-54.78968948,78.25712397,-30.74154587,-63.77968471,1.059806605,-67.36974039,57.72440794,1.000856503,-4.864643063,179.1382085,3.663887971,
30666666,-0.3365894814,-56.96748519,51.61763531,-27.97272589,-72.14189449,1.083194282,-40.74820989,-133.743414,1.018519207,-17.88408373,108.1666069,1.29248401,
30773333,-0.2337402557,-55.89750593,74.3253555,-27.75849494,45.09355579,1.085360386,-67.07308575,112.8189251,1.000886274,-3.565658972,167.8246953,4.940196017,
30880000,-0.2440335087,-56.43894672,71.19072319,-18.66034176,169.3595194,1.264175817,-74.75687779,16.31361672,1.000365818,-15.50545493,-53.32856279,1.403196258,
30986666,-0.2280382727,-57.05705325,76.18360233,-14.78750074,126.9368804,1.445681819,-62.46454805,-65.63504934,1.001507057,-2.630811828,175.8639354,6.653604545,
31093333,-0.2382228217,-57.64199521,72.92696842,-16.00134248,-123.3315517,1.376608917,-68.68709604,26.17807852,1.000735927,-0.2331918873,-3.734691578,74.50011614,
31200000,-0.2204807841,-57.8051225,78.79467642,-20.47358953,38.38797513,1.209196742,-62.7359959,3.828942196,1.001460654,-26.47511866,8.366198077,1.099629207,
31306666,-0.2649931988,-58.89401127,65.56065121,-15.51014929,91.53358461,1.402934516,-60.28295265,-101.6288222,1.001937773,-12.94576358,19.32533152,1.581559164,
31413333,-0.2604097433,-59.35104103,66.71440266,-26.55936745,-15.42952379,1.098620104,-57.55071803,-42.80575084,1.002655035,-3.612977413,165.4484501,4.877289074,
31520000,-0.2746388964,-59.93586846,63.25843418,-21.87950311,104.5448848,1.175195585,-61.30602461,-54.34886755,1.001722275,-27.93014355,37.02018814,1.083620236,
31626666,-0.2582568202,-60.4260475,67.27047529,-13.63819458,37.68168169,1.52529366,-60.79287973,-89.30649787,1.001827185,1.737064053,12.43817993,nan,
31733333,-0.2660972992,-60.95621345,65.28866689,-22.16097698,86.05338637,1.169136793,-58.13601817,43.58869545,1.002481805,-13.58023109,17.07634088,1.529742416,
31840000,-0.2566210056,-61.43901548,67.69922377,-13.1566938,169.7425775,1.563674177,-60.02769432,9.167931344,1.001995623,1.351385046,-54.52940274,nan,
31946666,-0.2540045109,-62.04038217,68.39649103,-20.91144863,21.97743129,1.197894844,-59.55139808,-4.763936765,1.002108228,-16.03645691,-81.027729,1.374804727,
32053333,-0.2475478026,-62.47912467,70.18020331,-26.68765495,-131.3099437,1.097104024,-59.65211933,-9.865333388,1.002083897,-10.60679974,175.2676275,1.836436779,
32160000,-0.2476149989,-63.00490671,70.16116079,-4.643959263,-74.01919316,3.829413615,-67.29035681,133.5287824,1.00086437,2.260987481,68.50534934,nan,
32266666,-0.2541510398,-63.47143208,68.35706315,-19.78594216,-140.0296983,1.228399966,-65.94838239,122.8439309,1.001008858,-3.845756204,33.19041624,4.590682817,
32373333,-0.2398801775,-63.99775762,72.4231722,-5.806906088,67.26492114,3.102175121,-61.24518787,41.98740818,1.001734391,2.675104535,160.8216256,nan,
32480000,-0.2389725902,-64.54411686,72.69819122,-12.47076269,126.1008642,1.624454715,-67.4468959,-33.76240506,1.000848925,-18.99840097,2.73508557,1.252816733,
32586666,-0.2513998694,-65.05075359,69.10501597,-30.21232405,88.84620456,1.063683495,-67.64791015,-39.41141436,1.000829497,-17.60104645,-53.76206942,1.303642662,
32693333,-0.2660160856,-65.57245024,65.30859615,-21.1636177,-140.4869979,1.191689412,-77.72753252,-55.8002249,1.000259842,-18.6412266,-109.9532107,1.264834902,
32800000,-0.2292618421,-66.12774668,75.7770576,-34.68276774,-45.73386935,1.03758172,-66.95764628,-113.8687303,1.000898137,-13.56296265,-7.82725613,1.531076584,
32906666,-0.2480714926,-66.57643667,70.03206984,-11.46353657,40.07392314,1.729227207,-59.52347956,-73.1072782,1.002115023,7.358430569,-58.01703864,nan,
33013333,-0.2392615914,-67.10577212,72.61039104,-25.64241021,-155.9649782,1.11020576,-61.14933732,-59.31944703,1.001753653,-6.531942692,163.9825392,2.783682502,
33120000,-0.2497311667,-67.57339044,69.56671119,-12.79278749,-95.66533719,1.594966266,-63.07994533,-131.125033,1.001403904,-25.30185317,93.94004197,1.114865636,
