Frequency,S11_Magnitude,S11_Phase,S11_VSWR,S12_Magnitude,S12_Phase,S12_VSWR,S21_Magnitude,S21_Phase,S21_VSWR,S22_Magnitude,S22_Phase,S22_VSWR,
20000000,-0.106133807,-3.367266323,163.6801308,-20.41743702,-79.11148426,1.210696474,-65.43058179,62.2065399,1.001070862,-1.52975666,-19.47143767,11.38524834,
20106666,-0.1201090353,-3.888735702,144.635714,-31.14270093,-158.5065392,1.057030298,-59.51521392,-110.6612876,1.002117039,-10.84531347,165.0168155,1.804665546,
20213333,-0.1171658028,-4.374599361,148.2688828,-9.267400294,74.27011346,2.0490439,-66.88906661,28.59694974,1.00090526,-3.653814304,16.86584378,4.824327387,
20320000,-0.118233061,-5.029427873,146.93054,0.3355647601,96.37541454,nan,-71.60138955,124.9886676,1.000526108,2.157104896,177.6009148,nan,
20426666,-0.1204475689,-5.531799141,144.2292095,-14.51103317,122.3322715,1.463435814,-60.29165716,159.0437766,1.00193583,7.319301527,176.7035622,nan,
20533333,-0.1081485157,-6.15927022,160.6309951,-10.49967144,-69.44834881,1.851234915,-63.68312431,-51.22374448,1.001309659,-10.87418198,149.2370043,1.800926372,
20640000,-0.1137246665,-6.640765465,152.7551408,-17.18475682,-18.01282166,1.320941907,-64.4682888,-105.7216864,1.001196397,-7.383284113,12.38485832,2.492847342,
20746666,-0.1159663164,-7.307559331,149.8024414,-24.34333467,-37.84828414,1.129132626,-67.08538096,103.9139251,1.00088502,-4.73369177,142.8109762,3.760200907,
20853333,-0.1137299128,-7.806951766,152.7480944,-17.79825436,129.8291717,1.295818111,-65.19027082,-30.10588318,1.001100919,-7.377429869,-97.64130474,2.49460602,
20960000,-0.1108870354,-8.374252442,156.6640784,-17.81153457,-81.88782509,1.295299439,-66.12999322,-92.99733934,1.000987972,-6.7010206,-62.84430173,2.719730883,
21066666,-0.1172765258,-8.854841795,148.1289036,-16.78749136,-117.3970606,1.338503767,-61.28109541,-168.8980485,1.00172723,-6.062813669,54.43185086,2.980700579,
21173333,-0.1102816598,-9.393377215,157.5240404,-15.22169998,-3.276364799,1.419393284,-70.4858437,25.99220769,1.000598229,-5.941524918,-175.892689,3.036919287,
21280000,-0.1100573083,-10.00951635,157.8451441,-20.54280129,69.08479319,1.207364279,-67.06855158,-145.564078,1.000886737,-7.516635803,-73.12786332,2.453573016,
21386666,-0.1150589319,-10.59484779,150.9837873,-18.40520972,-129.6943304,1.273125985,-81.32397941,-25.9377927,1.000171739,2.535232104,19.26728842,nan,
21493333,-0.118525346,-11.11077671,146.5682187,-21.68147476,178.301477,1.179598526,-65.75165057,-44.08448619,1.001031981,-25.58036558,52.77439345,1.111039657,
21600000,-0.1067842506,-11.73701925,162.6831483,-20.84628953,173.0107924,1.199533643,-67.55701506,111.51967,1.000838226,-0.781831169,72.85346684,22.23434849,
21706666,-0.1215360392,-12.16982277,142.9375419,-43.00488863,9.138075966,1.014251787,-67.12103015,-179.9923674,1.000881393,-29.42036497,-58.72737448,1.069975658,
21813333,-0.1050598548,-12.80870846,165.353275,-10.60860471,124.2088621,1.836190318,-67.94412322,-20.21813351,1.000801674,1.602928644,-6.622146566,nan,
21920000,-0.1126606778,-13.274437,154.1977481,-15.51070533,64.0120552,1.402903526,-65.50109902,-18.40321414,1.001062198,-9.922202374,-11.60483515,1.937171861,
22026666,-0.117026813,-13.87089565,148.4449728,-18.40086496,91.2046352,1.273281312,-68.93703924,-0.1603551157,1.000715045,-19.91869183,-23.97766572,1.224546849,
22133333,-0.1091096517,-14.38319426,159.2160495,-16.76090219,147.1759083,1.339717861,-67.32940289,61.42886081,1.000860492,-10.02340427,-83.23454895,1.921315102,
22240000,-0.1164644857,-15.00311308,149.1616903,-38.19377731,-83.62577489,1.024929934,-72.6992115,-29.80761722,1.000463628,-0.2025149227,1.410606892,85.78412883,
22346666,-0.1288010219,-15.46818441,134.875464,-3.727882809,-172.5444771,4.731271274,-65.66687692,71.09047904,1.001042107,14.1653664,-53.89070103,nan,
22453333,-0.1182682684,-16.03912757,146.8868015,-26.24533178,122.6025803,1.102436889,-59.53166145,-15.94242247,1.002113029,-8.699124613,14.35952864,2.161152311,
22560000,-0.1141780136,-16.54001146,152.1486395,-12.7427899,-63.35387575,1.599430282,-78.26348777,14.34241066,1.000244292,0.6202524349,113.9551826,nan,
22666666,-0.1115266355,-17.04243128,155.7656417,-27.3715018,-120.8887975,1.08942344,-58.77329323,-18.71297406,1.002306034,-11.75611692,123.0726636,1.696658857,
22773333,-0.1214276533,-17.68035003,143.0651234,-28.5757705,-25.34035312,1.077398268,-64.01650863,-53.99308468,1.001260312,0.5363472394,-75.93663471,nan,
22880000,-0.1156296797,-18.21564818,150.2385536,-26.9169924,166.8205116,1.094454194,-67.03440878,-103.8459469,1.000890231,-5.477153969,-50.67385756,3.27608673,
22986666,-0.1226541415,-18.73979177,141.634581,-9.704114767,-33.05010517,1.97258825,-68.82346936,19.71892885,1.000724459,-4.896031847,-1.323943724,3.641586776,
23093333,-0.1220125698,-19.23901263,142.3793054,-18.95703102,107.4456974,1.254177141,-62.00249991,-38.5968972,1.001589461,-1.941185375,66.1362824,8.986274264,
23200000,-0.1198695858,-19.79215155,144.9246268,-16.8794579,179.9039147,1.334342587,-59.22796209,37.10165942,1.0021883,-16.78754136,67.47692175,1.338501488,
23306666,-0.1248923222,-20.33261563,139.0964494,-37.24479374,151.2155553,1.027848111,-65.54349812,-117.5707842,1.001057023,-23.97003879,147.4236807,1.135186683,
23413333,-0.134081414,-20.86248478,129.5639994,-8.139436546,-101.8186511,2.288215132,-67.59097224,13.84103276,1.000834954,-20.29348118,-2.53082472,1.214048981,
23520000,-0.1386123321,-21.45350923,125.3290215,-8.26226294,50.14288689,2.258742508,-61.42017992,-68.87575544,1.001699769,-0.8106022513,178.5439224,21.44625867,
23626666,-0.1465581131,-21.95403323,118.5344916,-12.52779052,-78.33939661,1.619103268,-70.56214207,54.97107769,1.000592996,-12.17937027,-77.18480972,1.652711983,
23733333,-0.1240072276,-22.36270317,140.0892084,-3.721589024,-61.9829131,4.739032323,-64.21763884,-47.89669674,1.001231446,-12.00922337,-88.30528397,1.669949111,
23840000,-0.1412857652,-23.07843533,122.9576262,-1.896185393,-90.42497572,9.19779056,-53.79922106,36.9713339,1.004092198,4.197033817,-138.6544702,nan,
23946666,-0.145348737,-23.57987707,119.5207128,-19.04831248,-136.300388,1.251186212,-66.22001482,99.31409326,1.000977781,-16.87931815,132.216294,1.334348866,
24053333,-0.139600427,-24.03873205,124.4419777,-18.57191297,44.0652574,1.267240268,-54.63590412,-50.65746659,1.003715702,-33.81616803,133.8851646,1.04160674,
24160000,-0.1459313146,-24.61268561,119.0435922,-16.95324114,2.14363357,1.331046393,-62.64184923,108.3986476,1.001476584,-21.88356759,-88.72178224,1.175106447,
24266666,-0.1629104386,-25.26204955,106.6370496,-20.97984345,113.4956871,1.196190431,-67.91300193,-37.24091801,1.000804553,-4.015687676,5.043632973,4.402759431,
24373333,-0.156603477,-25.88223849,110.9314441,-13.54564816,120.89882,1.532418394,-67.50811006,-11.02202725,1.000842961,2.408442108,-3.592796455,nan,
24480000,-0.1611089456,-26.28601522,107.8293776,-27.96971676,29.91791722,1.083224309,-71.26473682,-17.65482367,1.000546905,-1.204583358,75.8992265,14.44450709,
24586666,-0.1668122772,-26.86353283,104.1428934,-13.94397848,-43.10433305,1.502556605,-67.92822061,51.55409978,1.000803144,-7.097439267,166.8085903,2.582307581,
24693333,-0.1745886672,-27.43711011,99.50453502,-23.06976185,59.68920989,1.151065594,-61.94633512,-39.88790578,1.001599781,-11.82071111,-117.1941815,1.689717217,
24800000,-0.1722419203,-27.97534782,100.8601652,-24.01123039,-42.35219685,1.134504084,-66.1324783,-47.51198297,1.00098769,-10.26632027,112.7498336,1.884666545,
24906666,-0.1966377127,-28.57827004,88.3478605,-14.33678325,56.44203361,1.475057434,-63.21024461,84.25917375,1.001382987,-1.004938338,9.41961844,17.3056918,
25013333,-0.1933868676,-29.18545598,89.83286762,-21.43227429,134.1886638,1.185310225,-70.80429969,-40.28340236,1.000576687,-16.82702117,19.03334331,1.336707956,
25120000,-0.1958899861,-29.79680099,88.68506205,-21.31196111,69.39797079,1.188138062,-67.43544465,137.8494111,1.000850046,0.5828558123,-80.60437307,nan,
25226666,-0.2204606523,-30.49883513,78.80187094,-28.48764147,-153.3252084,1.078218434,-73.00800782,-107.3159619,1.000447432,-3.189492487,-25.42651207,5.507628905,
25333333,-0.2181081304,-31.14250545,79.65173988,3.983596452,81.54796768,nan,-59.15157217,-116.2243707,1.002207651,12.12952103,-179.4669581,nan,
25440000,-0.2417713549,-32.00661323,71.85673787,-10.46733747,-134.6808702,1.855768019,-67.07987726,-69.95822794,1.000885581,-3.906719271,139.7913142,4.521352713,
25546666,-0.2920787421,-32.82260455,59.48196047,-6.114099502,-123.332629,2.957626455,-62.19162651,21.41181322,1.0015552,3.528046218,-104.5749981,nan,
25653333,-0.4263236745,-34.11440251,40.75604446,-14.32628553,-25.42420575,1.475768598,-65.88573293,176.0773138,1.001016164,7.929147063,109.1474233,nan,
25760000,-0.8569339452,-34.77237175,20.28845709,-26.87130316,140.7437546,1.094976004,-65.08650837,-109.6417098,1.001114157,-3.554337452,-136.1063642,4.955499119,
25866666,-0.8096676153,-29.70239576,21.47097918,-18.40524657,-33.0300353,1.273124668,-58.92782396,-116.6487449,1.002265325,-6.293386116,-90.8210504,2.880038384,
25973333,-0.3577454975,-30.67392794,48.56590809,-35.88292491,-32.42667978,1.032652535,-65.09473988,-165.1788701,1.001113101,-14.75719846,93.34490189,1.447587947,
26080000,-0.2644332439,-32.06381413,65.69945871,-7.346290145,15.24477207,2.504010642,-75.53453839,10.60286878,1.000334484,-15.21756164,-53.67491707,1.419635084,
26186666,-0.2283293285,-33.14878712,76.08650077,-12.74192831,149.6388616,1.599507569,-62.44276708,-82.51791571,1.001510844,-6.056539973,-136.1722209,2.983551107,
26293333,-0.2368769148,-33.87720766,73.34127911,-25.14968387,150.4943394,1.117014488,-63.37561974,20.47099326,1.001356887,-2.945180702,16.36201472,5.954779426,
26400000,-0.2281834363,-34.48360913,76.13514213,-27.72092178,170.2748085,1.085746301,-65.13780503,-142.5546526,1.001107593,-3.257648438,64.82731463,5.394975651,
26506666,-0.2242332996,-35.2673645,77.47620041,-18.27307544,114.5656117,1.277894415,-61.32765206,-80.25598514,1.001717989,0.1781417797,-158.2729446,nan,
26613333,-0.2358748013,-35.94521824,73.65283083,-19.64287511,-24.68438144,1.232634353,-61.52809047,-145.5541885,1.001678765,0.9739343422,-10.78726439,nan,
26720000,-0.2273372128,-36.47886235,76.41850948,-30.69264767,27.61373581,1.060154398,-63.17223049,-179.0352953,1.001389057,5.390350209,122.275093,nan,
26826666,-0.2269640915,-37.04498949,76.54412461,-12.83386693,-137.2660537,1.591329054,-66.9603071,-142.9097353,1.000897862,-18.23076367,-130.4205203,1.279441033,
26933333,-0.2384708624,-37.61621016,72.85112441,-8.949845588,160.4868061,2.109781958,-68.78741812,-89.11032723,1.000727473,-27.80763277,-90.77458451,1.084858418,
27040000,-0.2310581713,-38.23078105,75.18800821,-25.51693739,-175.7872244,1.111899019,-77.61863269,-63.96574131,1.000263121,0.5953485404,-88.0491727,nan,
27146666,-0.241636214,-38.69080689,71.89692031,-24.00060415,165.0338982,1.134679823,-62.86012407,-35.10194308,1.001439913,-6.770235898,-57.96608309,2.694516598,
27253333,-0.2453806508,-39.31066984,70.79993699,-13.16519939,67.03025778,1.562967177,-68.50925183,15.52774421,1.000751157,-2.576285003,0.9959687448,6.792319072,
27360000,-0.2489766178,-39.81303803,69.77751114,-28.16824183,119.0844132,1.081267288,-60.97662699,123.708121,1.001788904,-12.21966706,-9.669103739,1.648710921,
27466666,-0.2371232344,-40.45288861,73.26510291,-13.20209522,-54.46757678,1.559912825,-60.52125891,81.29319185,1.001885282,-1.446360689,-54.15734928,12.03842294,
27573333,-0.2551842044,-41.00623536,68.0803454,-7.82855209,17.74855981,2.367249073,-67.03674385,78.63956999,1.000889992,1.499392434,27.2168904,nan,
27680000,-0.2602665325,-41.53857879,66.75110655,-23.18809057,-56.48507782,1.14886942,-61.42261688,161.182109,1.001699292,-1.417428163,113.523984,12.28303043,
27786666,-0.2633787936,-42.06733544,65.96244927,-20.93734179,2.252120765,1.197247691,-60.21241909,74.79995941,1.001953588,-7.571376571,176.8293274,2.437875686,
27893333,-0.253038367,-42.63275154,68.65760341,-12.19727576,78.24555258,1.650930366,-63.62536641,-20.09963442,1.001318402,-5.426374529,-154.9442408,3.304811506,
28000000,-0.2503780881,-43.05053896,69.38699102,-7.500402217,-134.502877,2.458274906,-68.3528974,-7.899360642,1.000764806,-0.3208073341,-123.8678523,54.15634926,
28106666,-0.2775556211,-43.59718218,62.5937871,-11.39380543,144.8351106,1.737271868,-70.8705107,26.9454641,1.000572307,-2.080014671,176.9388323,8.391631715,
28213333,-0.2607347793,-44.33807372,66.63124793,-26.48331027,-176.8793092,1.099530618,-62.29172955,-117.9385372,1.001537366,0.3311682333,-9.570939685,nan,
28320000,-0.2667898932,-44.73100685,65.11920224,-17.51180797,-19.04903116,1.307260092,-63.64357935,62.29688971,1.001315639,1.221479408,-173.9845213,nan,
28426666,-0.267866071,-45.23018599,64.85762077,-12.97983976,-21.1869858,1.578623294,-69.74934926,89.28066256,1.000651184,-5.720784694,-151.3435451,3.14559386,
28533333,-0.2598908499,-45.71208539,66.8475835,-10.48318351,175.9537703,1.853542554,-67.97545195,-158.767266,1.000798787,-0.2480841255,-177.2206925,70.02850416,
28640000,-0.2645122897,-46.29820803,65.67982837,-15.55322886,148.3149409,1.400541783,-62.53110981,-53.70890265,1.001495544,-9.095529961,52.42499848,2.081343281,
28746666,-0.2835842661,-46.93887281,61.26335077,-13.71428655,135.8710984,1.519521825,-69.85985678,-159.9650618,1.000642949,9.260691426,-93.35620017,nan,
28853333,-0.258147053,-47.41622242,67.2990753,-17.90565762,60.93653644,1.291652637,-71.46640115,126.4426906,1.00053435,-12.00101921,-150.5567622,1.67079454,
28960000,-0.2683996899,-47.88946928,64.72869455,-21.9538721,-130.8242932,1.173572329,-59.943759,-155.9458976,1.00201502,-8.694374475,-15.82870956,2.162156588,
29066666,-0.2857198557,-48.3602699,60.80552452,-16.24737496,63.4971617,1.364175737,-67.52343547,101.3800218,1.000841474,-9.734903866,135.4474422,1.967482021,
29173333,-0.2739880884,-48.87249211,63.40866788,-16.08553358,105.1671347,1.372299892,-72.43406072,-49.13645458,1.000478003,-7.871310551,-154.2605686,2.355982894,
29280000,-0.2748427723,-49.40470832,63.21151748,-25.64320222,-111.6312071,1.110195158,-61.23600282,-5.646146589,1.001736228,-17.71250101,-172.5601533,1.299192168,
29386666,-0.2728066703,-49.84149103,63.68322039,0.7105244221,-17.14503048,nan,-59.32512518,172.7186511,1.002163931,9.16092535,85.60026008,nan,
29493333,-0.2688522612,-50.46801785,64.61975112,-13.82295323,129.0017777,1.511411097,-70.66229604,111.4951984,1.000586195,-10.45864419,-124.1775237,1.856992132,
29600000,-0.306693076,-51.06377841,56.64811322,-12.02556371,-36.50708082,1.668269225,-63.41135594,-2.861223706,1.001351312,-2.810686841,44.92240907,6.234455302,
29706666,-0.2636165978,-51.49222787,65.90295474,-14.88818754,-85.45905443,1.439416771,-65.29373147,-153.3882632,1.001087876,-9.703740253,-79.082869,1.972650581,
29813333,-0.278421645,-52.06973011,62.3991238,-20.3470624,134.4975407,1.212592704,-67.14926104,94.21163841,1.000878532,-3.219257793,120.5462469,5.457837157,
29920000,-0.2778188704,-52.48540595,62.53448599,-24.88229231,173.4126938,1.120893882,-63.2514814,-18.41736543,1.001376432,-26.05287989,133.8889693,1.104852216,
30026666,-0.2500712295,-53.01454515,69.47212298,-8.440466527,63.61038177,2.217618437,-58.17731756,18.61146969,1.002470018,11.09346985,156.7911527,nan,
30133333,-0.2556898581,-53.45794627,67.94572872,-22.31459926,-100.9280458,1.165925672,-60.54487095,-29.75545827,1.001880159,-9.895027354,99.33362027,1.941490947,
30240000,-0.2641355494,-53.87524421,65.77349399,-20.47884597,107.2762576,1.209056952,-65.23945026,63.71290037,1.0010947,-4.688697214,19.02822146,3.794567075,
30346666,-0.2452626298,-54.41241591,70.83400157,-15.57674533,12.9320619,1.399242624,-65.98728719,144.9600879,1.001004347,-8.435880724,153.8946683,2.218653272,
30453333,-0.22537311,-54.91722107,77.08441299,-10.40094225,-33.37808137,1.865175225,-72.27857516,-47.9401131,1.000486639,-1.878472356,21.12524449,9.283839143,
30560000,-0.224383906,-55.23289106,77.42420419,-23.88718327,-48.73947699,1.136570891,-64.40489656,102.8653382,1.001205166,-4.749227955,114.3229119,3.748489532,
30666666,-0.7121157954,-57.43484613,24.4082617,-27.90842839,-146.8191054,1.083838327,-37.14120071,106.6438327,1.028186941,-22.62156948,77.86039348,1.159703986,
30773333,-0.2255207123,-56.38455709,77.03396727,-33.43315405,164.7542636,1.043523308,-63.11719979,53.9822329,1.001397891,-5.431824458,-42.38295094,3.301702039,
30880000,-0.2450428715,-56.81124053,70.89751817,-22.57367801,22.37414897,1.160657909,-60.49371631,-62.79836536,1.001891275,-8.40369535,61.773685,2.225950484,
30986666,-0.237580159,-57.46440902,73.12421376,-2.598092906,-125.800391,6.736136564,-67.04747082,27.84362871,1.000888893,11.07967255,128.049014,nan,
31093333,-0.2479630911,-58.00488002,70.06268143,-15.42753629,-170.6375814,1.407569886,-62.93114705,70.94565352,1.001428179,-14.11185978,-148.6989827,1.49057672,
31200000,0.07779192227,-57.90602585,nan,-24.06548822,0.641130378,1.133610546,-64.65413078,-55.17008027,1.001171056,-22.5076683,-167.5945001,1.161982767,
31306666,-0.2577940496,-59.19746739,67.39121594,-24.51992935,-120.2362474,1.1263695,-61.12644805,-122.8767219,1.001758285,-5.551726308,177.3377533,3.234886366,
31413333,-0.2704307074,-59.66357215,64.24263985,-23.54772368,80.83978194,1.142401541,-64.8072336,-86.57070164,1.001150583,-6.72608682,-81.73880443,2.710536656,
31520000,-0.2791614101,-60.15548375,62.23379729,-14.64301026,96.80129526,1.454858032,-60.21172306,-61.81953676,1.001953745,-2.374207134,51.03606133,7.362376187,
31626666,-0.2728484162,-60.72294061,63.67347843,-23.82840659,-10.11786316,1.137561969,-72.8606038,-40.40259038,1.000455091,-1.176626551,18.34906921,14.78662559,
31733333,-0.2671532355,-61.28763558,65.03065067,-22.83044688,110.6929543,1.155613994,-58.3840978,-37.34877258,1.00241184,-9.067087539,144.2108574,2.086817322,
31840000,-0.2575171118,-61.75688664,67.46367883,-19.60692472,139.624137,1.233711958,-67.44412374,85.54622338,1.000849196,9.55814791,-76.57486376,nan,
31946666,-0.2592770356,-62.33059319,67.00581537,-20.23366945,-23.0041074,1.215687532,-61.15355141,85.59038441,1.001752802,-13.95662699,112.1984882,1.501641883,
32053333,-0.246271288,-62.82604412,70.54392397,-32.07246348,-173.8898728,1.051093093,-58.60559187,5.144235494,1.002351043,-15.24703209,47.52654328,1.417916705,
32160000,-0.2432367216,-63.23051367,71.42389686,-12.62386443,-113.4943575,1.610215331,-63.90103884,108.5587728,1.001277189,-7.225728078,-7.441614876,2.54123174,
32266666,-0.2656927748,-63.79993357,65.3880551,-19.83426907,121.408776,1.226988888,-65.88690747,130.4504857,1.001016027,-9.683193019,-9.837040212,1.976078449,
32373333,-0.2441680924,-64.24310367,71.15148854,-5.048144096,14.2914846,3.537544836,-67.59334846,60.87793233,1.000834726,2.233126541,145.5123667,nan,
32480000,-0.2440766992,-64.80183304,71.17812731,-21.2592271,-15.99724673,1.189392258,-67.25081261,75.41410657,1.000868316,-11.66119465,-94.2111505,1.707020072,
32586666,-0.2481297384,-65.32647748,70.01563277,-14.45564363,134.5764642,1.467092974,-71.04353871,51.62260406,1.000561016,-4.613219917,158.9579182,3.853757705,
32693333,-0.2712860466,-65.92280156,64.04012166,-14.6915244,131.2131321,1.451752299,-67.22095124,-78.66475412,1.000871308,-2.193988807,-51.40704712,7.959951875,
32800000,-0.2369631341,-66.27239564,73.31459712,-22.41787392,7.114241757,1.163803886,-86.96892517,29.95293873,1.000089661,-8.465460236,-38.11940886,2.211999574,
32906666,-0.2521216893,-66.85214442,68.9071972,-16.85404067,-72.82106485,1.335486752,-79.98092647,75.89103229,1.00020046,1.175156499,-14.48021701,nan,
33013333,-0.2461473653,-67.28232143,70.57943449,-5.145901309,-164.1966997,3.474015534,-67.00226294,-46.69812369,1.000893533,3.154020708,-172.8877448,nan,
33120000,-0.2479957532,-67.7896514,70.05345513,-17.20335233,-12.13610563,1.320145674,-59.76154371,-129.6444716,1.002057782,-10.16309175,164.5489085,1.900002707,
