Frequency,S11_Magnitude,S21_Magnitude,S22_Magnitude,
10000000,-5.083768395,37.9944054,-4.568853148,
11980000,-15.68269207,37.18194443,-19.69926877,
13960000,-15.17394086,37.15699618,-22.08801629,
15940000,-15.07190054,37.19468376,-24.36266145,
17920000,-14.70266645,37.18736927,-21.91277154,
19900000,-18.12038053,37.09582672,-17.02049943,
21880000,-15.16640549,37.18217542,-22.93830696,
23860000,-15.35220398,37.16628235,-19.93662549,
25840000,-15.89145993,37.16765653,-20.547795,
27820000,-15.36894888,37.17639766,-22.49355588,
29800000,-15.26277247,37.27634078,-21.45153187,
31780000,-16.08544893,37.14994729,-20.94387618,
33760000,-16.95232142,37.15396015,-19.60653363,
35740000,-16.53615877,37.12556385,-20.91240121,
37720000,-15.43712494,37.13510575,-21.75849238,
39700000,-16.67634499,37.1150869,-19.75258856,
41680000,-16.28108467,37.11951004,-19.47239403,
43660000,-17.02309575,37.09640496,-18.93069891,
45640000,-16.18355703,37.07916284,-19.66177124,
47620000,-16.60216145,37.12006676,-19.46044463,
49600000,-14.89852531,37.17746158,-22.29494346,
51580000,-16.51510692,37.11043288,-19.65764987,
53560000,-15.14263369,37.10375301,-22.53719718,
55540000,-18.31582353,37.081101,-17.49647302,
57520000,-16.33507073,37.06160081,-19.2160355,
59500000,-15.9532984,37.10745572,-20.64929291,
61480000,-17.01686058,37.1397817,-19.72999036,
63460000,-16.08692442,37.09134726,-20.57342735,
65440000,-15.91233531,37.10066227,-20.40664391,
67420000,-16.2950571,37.11424185,-19.87716877,
69400000,-15.70704157,37.11590697,-21.13502529,
71380000,-16.0706599,37.11187457,-19.68032382,
73360000,-16.20952601,37.12428425,-19.69975025,
75340000,-16.28842197,37.12311759,-19.86436618,
77320000,-16.0208032,37.12665521,-19.69319462,
79300000,-15.85415074,37.11284689,-19.00615118,
81280000,-16.02728128,37.13874013,-19.48627256,
83260000,-15.89808574,37.151809,-19.39153596,
85240000,-16.73552915,37.15637008,-18.37404863,
87220000,-15.97961285,37.14933143,-19.1933234,
89200000,-16.79442745,37.1385353,-18.5302043,
91180000,-16.45228901,37.16628014,-18.71327896,
93160000,-16.01094012,37.15841955,-19.65964625,
95140000,-15.98851762,37.15420955,-19.83624042,
97120000,-15.96124012,37.14790069,-19.13339802,
99100000,-15.9468062,37.15757958,-19.98363089,
101080000,-16.67989538,37.16518565,-17.97714281,
103060000,-16.57863456,37.16815184,-17.96022017,
105040000,-15.82832182,37.15971267,-20.80625522,
107020000,-16.20495735,37.14956655,-18.56243384,
109000000,-16.26367941,37.19072507,-17.72794094,
110980000,-15.9337118,37.15484124,-18.28823107,
112960000,-15.70728031,37.16462462,-19.4815448,
114940000,-15.77922004,37.19693044,-19.97235163,
116920000,-16.3657994,37.20717702,-17.94772856,
118900000,-15.55619701,37.19713802,-19.12706149,
120880000,-15.69114362,37.21062664,-18.87950148,
122860000,-15.8566039,37.18881488,-20.11367645,
124840000,-16.14807941,37.22665694,-18.03108439,
126820000,-16.75333122,37.23263548,-16.92581242,
128800000,-15.7203653,37.21603303,-19.38253489,
130780000,-15.88181021,37.24365468,-17.92898952,
132760000,-16.09127606,37.25451931,-17.9757637,
134740000,-16.28260905,37.23864919,-17.89607274,
136720000,-16.25027051,37.2629539,-17.75761909,
138700000,-15.93943794,37.25616576,-18.14153967,
140680000,-16.00212927,37.27433831,-17.7287219,
142660000,-15.9592946,37.26950682,-18.32517832,
144640000,-16.59247786,37.29738838,-16.44769156,
146620000,-15.99706567,37.29538227,-17.81664276,
148600000,-15.89461052,37.25024718,-18.18276963,
150580000,-16.16889153,37.29023,-17.98332685,
152560000,-16.08557863,37.28214611,-17.497025,
154540000,-15.68305888,37.29574051,-18.85910656,
156520000,-16.20588021,37.30307782,-18.01135166,
158500000,-15.95136392,37.27279871,-18.60349922,
160480000,-16.02320522,37.29331851,-17.80702831,
162460000,-16.48935962,37.29476374,-17.4288161,
164440000,-15.81935696,37.31182549,-18.45409513,
166420000,-16.16874891,37.317134,-17.97639738,
168400000,-15.50690434,37.3004864,-18.55280929,
170380000,-16.03197692,37.30264669,-18.28696183,
172360000,-15.9507773,37.28020618,-18.46477304,
174340000,-16.62188821,37.28718018,-16.80423559,
176320000,-16.76184529,37.29723607,-17.01389821,
178300000,-16.23170219,37.2956766,-17.65000897,
180280000,-15.97791785,37.30198381,-18.01752279,
182260000,-16.27446777,37.33410065,-17.35341648,
184240000,-16.11219925,37.32632307,-17.68339428,
186220000,-16.23906391,37.30792501,-17.45768345,
188200000,-15.43527452,37.33736548,-19.52863452,
190180000,-16.05120666,37.34376709,-17.79808369,
192160000,-15.90173309,37.33402698,-17.78880052,
194140000,-16.10965228,37.31723376,-17.27085388,
196120000,-15.76909993,37.34179107,-17.4710668,
198100000,-15.86518797,37.34620541,-18.32853771,
200080000,-16.03833032,37.3325146,-17.70015827,
202060000,-15.87665422,37.35009718,-17.64231075,
204040000,-15.79833415,37.33637993,-17.97774076,
206020000,-15.97812201,37.35274386,-17.4599083,
208000000,-16.69338993,37.36107402,-17.00894191,
209980000,-15.07101982,37.36994785,-18.71702818,
211960000,-15.89568519,37.37233735,-16.94363852,
213940000,-17.34409129,37.34374881,-15.72302534,
215920000,-15.52212626,37.37708797,-17.48606701,
217900000,-15.19403408,37.36985601,-18.65835825,
219880000,-16.56172669,37.35884978,-16.97803627,
221860000,-15.95128742,37.38468315,-17.37632108,
223840000,-15.03471113,37.39878612,-18.74220593,
225820000,-15.69861847,37.39141048,-18.22119152,
227800000,-15.87958976,37.38660837,-16.61292992,
229780000,-16.13421497,37.40280151,-17.5315586,
231760000,-15.08860793,37.41883899,-18.94568768,
233740000,-15.52082467,37.42241762,-18.39425622,
235720000,-15.11075799,37.44415443,-18.03104945,
237700000,-15.0400353,37.43066752,-18.82353262,
239680000,-16.47513164,37.44998439,-17.42705233,
241660000,-15.68082603,37.456714,-18.19880814,
243640000,-15.82049726,37.43783817,-16.73108029,
245620000,-14.92552033,37.45900112,-18.03920438,
247600000,-15.87592793,37.46140454,-17.39501769,
249580000,-15.8952681,37.47969366,-18.23465104,
251560000,-15.441777,37.46193759,-18.08214494,
253540000,-15.20866184,37.47039006,-17.77078384,
255520000,-14.69056791,37.48440584,-17.90115435,
257500000,-15.6809703,37.4945279,-17.86280887,
259480000,-15.59387092,37.45316415,-16.90031267,
261460000,-15.08320836,37.47959566,-18.23681716,
263440000,-15.34568863,37.47782335,-17.11924693,
265420000,-15.40283776,37.52501018,-18.32122034,
267400000,-16.82052537,37.47998753,-15.55248585,
269380000,-15.76068175,37.49657873,-16.89824919,
271360000,-16.06752308,37.5128082,-17.16820697,
273340000,-15.72336168,37.49839235,-16.80053398,
275320000,-14.65198206,37.51062834,-17.40293754,
277300000,-15.74190994,37.53088519,-17.73565448,
279280000,-16.25945071,37.56761291,-17.60871373,
281260000,-16.80744205,37.49790534,-15.62925355,
283240000,-15.35714058,37.51310381,-16.96844689,
285220000,-16.04709622,37.53299596,-16.59064566,
287200000,-16.20750282,37.54476434,-16.94846148,
289180000,-14.48989146,37.52364428,-17.62636027,
291160000,-15.86932704,37.55383009,-18.11285474,
293140000,-14.96985825,37.54179872,-17.5302443,
295120000,-16.76526937,37.52043917,-15.59242962,
297100000,-15.60861012,37.53551968,-15.58234038,
299080000,-14.57718066,37.54601036,-17.8133837,
301060000,-16.70810238,37.5680554,-16.74456814,
303040000,-16.36473217,37.54539366,-15.45396435,
305020000,-15.90034591,37.54690988,-16.30096848,
307000000,-16.42035791,37.58474766,-16.58177822,
308980000,-15.8045918,37.61608283,-18.00001603,
310960000,-14.81098734,37.62063588,-18.71434775,
312940000,-15.37104251,37.6062231,-16.58854492,
314920000,-15.1067751,37.59514396,-16.05038684,
316900000,-15.02448165,37.61811806,-16.33568126,
318880000,-16.15800488,37.64958379,-17.80372237,
320860000,-15.67117605,37.61353389,-15.49688053,
322840000,-15.40847376,37.62274722,-16.07512108,
324820000,-16.18425371,37.67444291,-16.89731245,
326800000,-16.28821244,37.67565086,-17.6324865,
328780000,-15.91034827,37.64789486,-15.08277679,
330760000,-15.26840214,37.68813356,-17.34492791,
332740000,-14.4493548,37.64910656,-16.99343611,
334720000,-15.69004084,37.68695909,-16.8442817,
336700000,-14.63613923,37.64144367,-16.23964682,
338680000,-15.37607413,37.70117919,-16.24351102,
340660000,-17.68352435,37.7301835,-16.18466488,
342640000,-15.51413618,37.72735214,-16.8356499,
344620000,-16.38839995,37.72574911,-16.14458759,
346600000,-15.27325542,37.75224725,-16.74998441,
348580000,-16.58607725,37.73725749,-17.16245944,
350560000,-15.68092305,37.74438893,-16.14195417,
352540000,-15.31945286,37.72931973,-17.83247073,
354520000,-15.31575034,37.73518145,-17.62453771,
356500000,-15.53180456,37.81520373,-15.57915673,
358480000,-15.60683428,37.7599238,-16.34305851,
360460000,-16.23523673,37.78318653,-14.92368973,
362440000,-15.91778599,37.78220318,-15.24118624,
364420000,-15.78944499,37.77146326,-15.38732323,
366400000,-16.53380878,37.80231767,-16.66556386,
368380000,-16.38442929,37.82716679,-15.76344284,
370360000,-16.46806086,37.81420213,-16.60694369,
372340000,-16.42624652,37.81644569,-16.52434813,
374320000,-16.71920821,37.82475284,-15.9551938,
376300000,-16.02785975,37.81683033,-15.71317668,
378280000,-15.68587356,37.8217607,-15.26131977,
380260000,-16.18808587,37.79953081,-14.98236101,
382240000,-16.29653463,37.82338688,-15.29262925,
384220000,-16.19033159,37.77882282,-15.54870717,
386200000,-16.00532962,37.79479942,-16.51049824,
388180000,-17.02814265,37.84218982,-15.40455374,
390160000,-16.63271015,37.7916956,-16.1097505,
392140000,-16.68666359,37.79122614,-16.03056215,
394120000,-15.64676459,37.82956471,-17.12660608,
396100000,-16.27390964,37.81420492,-15.81898339,
398080000,-15.98361499,37.82592768,-15.84690321,
400060000,-16.79577205,37.81324192,-15.3549133,
402040000,-15.82652372,37.81362539,-15.85898343,
404020000,-16.65709835,37.79376186,-15.81818538,
406000000,-16.50169529,37.83468407,-15.23950595,
407980000,-15.53419068,37.81490505,-15.98469592,
409960000,-16.04367419,37.79904847,-15.99257414,
411940000,-16.69623086,37.79603355,-14.99959572,
413920000,-16.46262874,37.79493893,-16.27420761,
415900000,-16.48125104,37.81765616,-15.88566704,
417880000,-16.25786359,37.81794404,-15.84415969,
419860000,-16.74079969,37.83596001,-14.9258805,
421840000,-16.4402596,37.82008004,-16.0737878,
423820000,-17.27074986,37.80886772,-16.08953565,
425800000,-16.78888115,37.82858619,-15.64194749,
427780000,-17.05288051,37.81299757,-15.92791148,
429760000,-16.67837151,37.80613486,-16.17196304,
431740000,-16.48393004,37.82755013,-17.01706805,
433720000,-16.83391942,37.82179041,-16.83864922,
435700000,-16.987889,37.81303172,-15.68698634,
437680000,-17.46324922,37.8179009,-15.15665517,
439660000,-16.83624266,37.82560374,-16.34008744,
441640000,-16.16811612,37.8295094,-17.00307723,
443620000,-16.78930937,37.81342469,-17.25138837,
445600000,-16.62386838,37.82299796,-16.31126127,
447580000,-16.77572642,37.81744168,-16.64573282,
449560000,-16.47522502,37.82271835,-16.92078756,
451540000,-16.1318737,37.81950952,-16.72929719,
453520000,-17.0508188,37.83202896,-16.16051528,
455500000,-16.62818313,37.81491598,-17.24987013,
457480000,-16.68247895,37.81582959,-17.06735669,
459460000,-16.40079078,37.78033802,-17.3697877,
461440000,-16.30496824,37.77218621,-17.41315545,
463420000,-16.38831068,37.82400498,-16.4297402,
465400000,-17.2139389,37.77973013,-16.27764523,
467380000,-16.43066252,37.77533646,-17.1515358,
469360000,-15.83617157,37.8041097,-17.30571166,
471340000,-16.03387907,37.76756106,-17.23220668,
473320000,-16.16019695,37.75668502,-17.22276831,
475300000,-15.44011064,37.76522814,-18.58643019,
477280000,-15.97053611,37.794458,-17.42902975,
479260000,-15.66607113,37.7553463,-18.13200961,
481240000,-16.42495499,37.73249084,-16.61759368,
483220000,-16.81031951,37.7727399,-17.18841599,
485200000,-16.38015367,37.76602391,-16.91752973,
487180000,-16.91124091,37.76797547,-16.79585704,
489160000,-16.03172783,37.77942505,-16.99487625,
491140000,-17.25099682,37.73999342,-16.54186872,
493120000,-16.71302555,37.78402866,-16.94228559,
495100000,-17.68801561,37.69195276,-16.78833222,
497080000,-17.42677841,37.76217729,-16.25496637,
499060000,-16.96840963,37.76065033,-16.91866505,
501040000,-16.24201187,37.75516068,-16.59228955,
503020000,-16.13041041,37.80085772,-17.49209546,
505000000,-17.7084022,37.76856039,-16.14102087,
506980000,-15.57615942,37.81236594,-18.14872415,
508960000,-17.16149883,37.79003214,-17.00268629,
510940000,-16.23244171,37.83356264,-18.21981795,
512920000,-16.35748667,37.82143898,-17.90574447,
514900000,-15.92356218,37.81216287,-18.47019018,
516880000,-16.06676027,37.82006232,-18.65510543,
518860000,-16.30485106,37.80103697,-18.56746624,
520840000,-17.14315429,37.82224907,-17.34396062,
522820000,-16.18893718,37.81378952,-18.33074693,
524800000,-16.48934521,37.82954094,-18.41765746,
526780000,-16.90013196,37.80812018,-17.74381391,
528760000,-16.05027595,37.79940179,-18.74621086,
530740000,-16.00003269,37.83561325,-19.07563642,
532720000,-16.76534483,37.83307483,-17.98449377,
534700000,-17.79917753,37.82224157,-17.50475113,
536680000,-16.71617085,37.82764719,-18.36262044,
538660000,-16.81513948,37.82423247,-18.23786105,
540640000,-17.36095638,37.81532938,-18.16179575,
542620000,-16.7809855,37.82009534,-18.99541623,
544600000,-17.83635767,37.82767777,-17.49243758,
546580000,-15.45940145,37.81365905,-19.16176831,
548560000,-16.39784627,37.82808343,-18.154633,
550540000,-17.69393803,37.83380936,-18.21334827,
552520000,-17.07814453,37.78965082,-17.99348716,
554500000,-18.05029322,37.84916611,-17.77653984,
556480000,-17.35353093,37.84231619,-18.3914616,
558460000,-16.17131217,37.79104828,-19.12344277,
560440000,-15.43760755,37.79304173,-19.60117196,
562420000,-16.74238361,37.7826952,-20.03763543,
564400000,-17.3656782,37.57121307,-18.7167937,
566380000,-16.90696333,37.81369871,-19.34832688,
568360000,-17.41787944,37.79458724,-19.05675705,
570340000,-17.94559402,37.786457,-17.97379608,
572320000,-15.95082365,37.74393342,-18.61652796,
574300000,-16.21908127,37.78979341,-20.37599647,
576280000,-17.93539716,37.76865578,-18.13275149,
578260000,-16.88671885,37.77383207,-18.60196084,
580240000,-17.29003662,37.7641838,-18.77764176,
582220000,-17.26662307,37.7674941,-18.57712608,
584200000,-17.57776449,37.78675327,-18.62830755,
586180000,-17.39085642,37.78802069,-18.69580939,
588160000,-17.27545852,37.74075426,-17.9511295,
590140000,-18.27828765,37.77315871,-17.79393987,
592120000,-16.61038581,37.79505408,-19.20314926,
594100000,-15.99228443,37.71402039,-19.61907285,
596080000,-16.4047387,37.73565271,-19.89785453,
598060000,-17.04152517,37.75514857,-19.29340344,
600040000,-16.04461922,37.72292257,-19.95068466,
602020000,-16.06795434,37.6963358,-19.80599065,
604000000,-16.78144859,37.68589243,-19.50850586,
605980000,-17.76686255,37.73690808,-18.40013018,
607960000,-17.79949999,37.71423388,-18.8065809,
609940000,-15.81931153,37.68456514,-19.93804511,
611920000,-16.25450798,37.67800067,-19.4610991,
613900000,-19.78593758,37.72488824,-16.7785929,
615880000,-18.55903118,37.67369758,-18.12513249,
617860000,-16.09187293,37.65736307,-21.10004013,
619840000,-16.82077664,37.64309984,-20.08018666,
621820000,-16.68034478,37.65759902,-19.61212524,
623800000,-17.56074311,37.6434026,-18.37450795,
625780000,-17.2569983,37.64100618,-19.28373632,
627760000,-18.47666003,37.64731145,-17.59156145,
629740000,-17.50826793,37.60978883,-19.7239874,
631720000,-17.22894897,37.65538755,-18.56856409,
633700000,-17.00501889,37.62651462,-19.69700636,
635680000,-16.68001821,37.5885425,-20.78729874,
637660000,-18.41409805,37.59882151,-18.53301827,
639640000,-16.40961465,37.55244157,-21.66112944,
641620000,-17.08293947,37.55172083,-20.70075163,
643600000,-16.93956449,37.55707188,-20.60951303,
645580000,-17.60694714,37.52950493,-19.49051449,
647560000,-17.90238849,37.53552617,-19.78358982,
649540000,-17.20802907,37.51123972,-20.83972584,
651520000,-17.60584322,37.49451821,-19.84886136,
653500000,-16.40279586,37.49921194,-21.24093188,
655480000,-17.11666673,37.47224991,-20.07084053,
657460000,-18.10178442,37.44739433,-19.69822945,
659440000,-16.57392459,37.38297767,-21.89145271,
661420000,-17.23923859,37.42115268,-20.45287909,
663400000,-17.09010208,37.41967404,-19.86308722,
665380000,-17.17140112,37.38491886,-20.27260636,
667360000,-16.87157519,37.35702649,-20.89456425,
669340000,-17.09386903,37.37404975,-20.60042713,
671320000,-16.45020777,37.39185227,-20.14461335,
673300000,-16.12859625,37.34403729,-21.69789138,
675280000,-17.13975307,37.34202963,-20.02924955,
677260000,-17.40177659,37.32673286,-19.55234295,
679240000,-16.94636526,37.3139825,-20.87397277,
681220000,-16.02709356,37.30398679,-21.47688313,
683200000,-16.72396894,37.28964006,-20.68305715,
685180000,-18.22342778,37.27664798,-18.41272291,
687160000,-15.90919734,37.2734739,-21.94925125,
689140000,-16.88938258,37.27115297,-20.36943586,
691120000,-16.63756706,37.26346241,-20.43446451,
693100000,-17.69730383,37.24982028,-18.95993795,
695080000,-16.38978022,37.21421832,-20.42832739,
697060000,-17.99441371,37.22249573,-18.60006785,
699040000,-17.71200255,37.2014431,-19.00982055,
701020000,-17.03270459,37.20659781,-20.42646026,
703000000,-16.44403811,37.1974193,-20.79428581,
704980000,-15.89197789,37.17635516,-21.95497759,
706960000,-17.53142484,37.17185606,-19.1379748,
708940000,-16.82347247,37.19560696,-20.3440179,
710920000,-16.23684604,37.19478041,-21.11494031,
712900000,-16.14712736,37.16039684,-21.22349589,
714880000,-17.18383623,37.17113536,-19.48265235,
716860000,-16.78606522,37.11702027,-19.30074354,
718840000,-17.33465311,37.09332612,-18.89585042,
720820000,-16.58132667,37.13168096,-20.06571059,
722800000,-17.13899639,37.14671529,-19.30476716,
724780000,-17.18372235,37.13467564,-19.43999608,
726760000,-16.70144274,37.12259576,-19.50845993,
728740000,-15.54319766,37.119093,-21.9782496,
730720000,-16.2139606,37.09556356,-20.4845646,
732700000,-16.80903424,37.08542101,-19.09609841,
734680000,-15.89865192,37.13857155,-20.80786003,
736660000,-16.80141927,37.09322094,-19.53599545,
738640000,-15.88100617,37.10976044,-21.50039796,
740620000,-15.86269818,37.0994158,-20.81057569,
742600000,-15.93042888,37.06228575,-20.79854858,
744580000,-15.78143573,37.09013247,-20.83575801,
746560000,-15.61676252,37.06715849,-21.31259065,
748540000,-15.89533917,37.06987297,-21.08981792,
750520000,-15.51058745,37.04589668,-20.30095182,
752500000,-15.89533029,37.05915881,-21.28055478,
754480000,-15.08927479,37.0477305,-20.9672681,
756460000,-16.26168031,37.04480303,-20.48599354,
758440000,-15.44339949,37.01824512,-21.17337803,
760420000,-15.65144628,37.00806103,-20.5213794,
762400000,-15.69342749,37.00838042,-20.4610933,
764380000,-15.70208251,36.9810316,-19.89911466,
766360000,-15.48068904,36.99795927,-21.3690164,
768340000,-15.37726853,36.99562792,-20.88749189,
770320000,-15.3593127,36.95684339,-21.59547529,
772300000,-17.01941372,36.91867319,-17.33841514,
774280000,-16.05405749,36.92368181,-19.68735801,
776260000,-15.66364904,36.91334725,-21.47448811,
778240000,-15.72850543,36.8999732,-20.30897337,
780220000,-15.71153344,36.89966189,-19.55748935,
782200000,-15.70693972,36.90241628,-19.95053855,
784180000,-15.72591835,36.88532897,-21.24761553,
786160000,-15.98157534,36.86245676,-19.43139682,
788140000,-15.77217744,36.84268277,-20.82238081,
790120000,-15.62344469,36.84494129,-19.18537368,
792100000,-15.40121015,36.83640705,-19.92612445,
794080000,-15.56841565,36.81909007,-20.57487556,
796060000,-15.89286206,36.81150528,-20.42294053,
798040000,-15.73651068,36.79155056,-20.43220762,
800020000,-15.45241835,36.79822993,-21.22874418,
802000000,-15.57547419,36.77895943,-20.47964192,
803980000,-14.97814244,36.79474027,-20.25559558,
805960000,-16.06317945,36.77080623,-19.5428151,
807940000,-15.69904167,36.78129327,-19.2075107,
809920000,-15.78101158,36.77803427,-20.03072315,
811900000,-15.59610338,36.75816579,-19.97483665,
813880000,-15.65112631,36.73681768,-20.36023948,
815860000,-15.58817615,36.71143968,-19.63616624,
817840000,-15.62995144,36.70944309,-20.35108423,
819820000,-15.78169033,36.69482112,-20.63647978,
