Frequency,S11_Magnitude,S12_Magnitude,S21_Magnitude,S22_Magnitude,
1000000,0.2189961094,-40.18156546,-32.6790232,0.5718102111,
6993006,0.05610807408,-70.10770579,-1.82687851,-3.094397943,
12986013,-0.02903586474,-49.78675015,10.67461159,-3.311852458,
18979020,-0.328825642,-39.8283858,18.07235084,-2.916373106,
24972027,-1.395033985,-34.41486225,22.84704211,-3.016640883,
30965034,-3.39692939,-33.46095411,25.54111191,-4.168281933,
36958041,-6.450461839,-30.53376123,26.76304136,-6.016053801,
42951048,-9.649342722,-30.15734645,27.22125625,-8.390860162,
48944055,-12.57214127,-29.70529858,27.35739194,-10.74567039,
54937062,-14.37419468,-29.52000917,27.35834207,-13.2701245,
60930069,-14.99334347,-30.49604486,27.31559085,-15.47806007,
66923076,-14.97963076,-29.63356356,27.23807179,-17.62079221,
72916083,-14.48325374,-29.61944062,27.1631572,-19.61064825,
78909090,-13.91712906,-29.32017428,27.08754666,-21.41213725,
84902097,-13.44088482,-29.81441129,27.01082564,-21.89228475,
90895104,-13.157024,-29.56534223,26.94517857,-22.73339627,
96888111,-12.81445138,-29.36523458,26.86326731,-22.75666853,
102881118,-12.51130071,-29.7078048,26.80561266,-21.97183231,
108874125,-12.3059958,-29.47833547,26.73869633,-21.59557776,
114867132,-12.14917954,-29.6647249,26.66802062,-21.0818856,
120860139,-11.96707279,-29.45034569,26.60445036,-20.20647951,
126853146,-11.88207436,-29.61516335,26.53647276,-19.80080744,
132846153,-11.77174875,-29.43311746,26.46840681,-19.22413136,
138839160,-11.73924529,-29.36392402,26.40763413,-18.53923713,
144832167,-11.69880819,-29.53748547,26.34172952,-18.37751421,
150825174,-11.62373547,-29.26509481,26.28590499,-17.95975237,
156818181,-11.60104501,-29.14658004,26.23671444,-17.80978956,
162811188,-11.67048021,-29.73755965,26.17924641,-17.8136767,
168804195,-11.65821337,-29.44609459,26.11904135,-17.52728223,
174797202,-11.64725974,-29.44251819,26.07045684,-17.34638043,
180790209,-11.69773416,-29.22438938,26.01515152,-17.045901,
186783216,-11.79429837,-29.33227447,25.95277591,-17.09214318,
192776223,-11.74465764,-29.47021226,25.90112343,-16.87651104,
198769230,-11.76049036,-29.58337915,25.83709938,-16.55212546,
204762237,-11.87822777,-29.45234248,25.77667274,-16.55576408,
210755244,-11.96606825,-29.38948717,25.72161453,-16.54118932,
216748251,-11.99735753,-29.27568936,25.65839871,-16.33044633,
222741258,-12.0455258,-29.33841303,25.59721817,-16.26635108,
228734265,-12.08435341,-29.76683163,25.53068798,-16.04551737,
234727272,-12.14732663,-29.45663267,25.46774921,-15.90838828,
240720279,-12.18393268,-29.39550912,25.40824015,-15.66698921,
246713286,-12.12243362,-30.01614573,25.34145447,-15.40050068,
252706293,-12.3643872,-29.25659184,25.26733533,-15.47259152,
258699300,-12.31257184,-29.60430407,25.2086174,-15.13671051,
264692307,-12.4283377,-29.40293992,25.13866462,-15.07833555,
270685314,-12.52250464,-29.03934741,25.06705622,-15.03311799,
276678321,-12.6061897,-29.13761237,24.99239416,-14.77253259,
282671328,-12.59801253,-29.23186274,24.92103797,-14.79081626,
288664335,-12.70628505,-29.11844968,24.84777691,-14.5748169,
294657342,-12.69315596,-29.09803473,24.77316761,-14.30707366,
300650349,-12.79277794,-29.15440383,24.70581224,-14.23011042,
306643356,-12.75295525,-29.16191332,24.62177982,-14.03820912,
312636363,-12.67076948,-29.67113161,24.54443187,-13.89542939,
318629370,-12.81581764,-29.30766028,24.47614861,-13.74520531,
324622377,-12.76607663,-29.07571475,24.40103158,-13.5663708,
330615384,-12.83296262,-29.42968878,24.32229949,-13.57884076,
336608391,-12.83569652,-29.24502068,24.24805809,-13.42618343,
342601398,-12.88968504,-29.06431199,24.16974935,-13.25819531,
348594405,-12.96137567,-29.12001453,24.09440732,-13.19707867,
354587412,-12.92532641,-29.08207862,24.01853085,-13.07238114,
360580419,-13.01414244,-28.89432312,23.95296024,-12.9610384,
366573426,-13.01774463,-29.00352808,23.88142451,-12.83590118,
372566433,-12.98353285,-28.97377282,23.80300601,-12.82682419,
378559440,-13.07105883,-29.17368938,23.74606151,-12.7666752,
384552447,-13.08509037,-28.99283882,23.6832115,-12.68110723,
390545454,-13.02093899,-28.71379452,23.62946573,-12.55745346,
396538461,-13.12427984,-28.88402881,23.55870035,-12.51250128,
402531468,-13.13716042,-28.74400544,23.49849519,-12.41156434,
408524475,-13.11705506,-28.76881734,23.43893349,-12.39716482,
414517482,-13.18984417,-28.61744322,23.38191149,-12.24348711,
420510489,-13.23479899,-28.49905284,23.32923806,-12.14939318,
426503496,-13.22501004,-28.62702189,23.26266558,-12.197656,
432496503,-13.20906893,-28.39904741,23.19909487,-12.12678664,
438489510,-13.29745588,-28.33778384,23.12656665,-12.10107123,
444482517,-13.3512735,-28.36508582,23.06795675,-12.02849691,
450475524,-13.39860576,-28.31258673,23.01312536,-11.98321764,
456468531,-13.49445611,-28.4704211,22.94171994,-11.91802115,
462461538,-13.60374574,-28.44352408,22.87590786,-11.86599274,
468454545,-13.59914779,-28.5509805,22.79306524,-11.81144686,
474447552,-13.71873206,-28.26893284,22.72518194,-11.83994853,
480440559,-13.77716047,-28.11319134,22.65601357,-11.74348482,
486433566,-13.79520034,-28.17096663,22.57493441,-11.70164813,
492426573,-13.85221741,-28.32003741,22.49918458,-11.58760159,
498419580,-13.99769261,-28.20290754,22.41737026,-11.6052088,
504412587,-14.02111943,-28.3838635,22.35230666,-11.4639199,
510405594,-14.16686974,-28.06739434,22.27999537,-11.48800188,
516398601,-14.20138286,-28.09328617,22.1990009,-11.43945135,
522391608,-14.37204961,-27.90760726,22.12440065,-11.35886124,
528384615,-14.35350228,-27.97622801,22.03591243,-11.27584257,
534377622,-14.48713243,-28.01487456,21.96271175,-11.16102918,
540370629,-14.50160258,-27.80862637,21.88247625,-11.13362068,
546363636,-14.63111409,-27.80121952,21.80125088,-11.06670945,
552356643,-14.6395513,-27.98304444,21.73071085,-10.9718736,
558349650,-14.79924263,-27.63466684,21.64998479,-10.91618724,
564342657,-14.81094434,-27.74815154,21.56558898,-10.81537299,
570335664,-14.80621597,-27.71267661,21.49432495,-10.72240078,
576328671,-14.86884742,-27.78271929,21.41970281,-10.64889249,
582321678,-14.89736167,-27.81329735,21.34516148,-10.59228962,
588314685,-14.90645309,-27.78003896,21.27549809,-10.50186516,
594307692,-14.99402076,-27.63085894,21.21296494,-10.42529541,
600300699,-15.06208371,-27.6697395,21.15324194,-10.33439653,
606293706,-15.12819511,-27.4563351,21.09523807,-10.25968796,
612286713,-15.1019968,-27.35148654,21.03394622,-10.19058658,
618279720,-15.14865926,-27.39911563,20.98297698,-10.12718375,
624272727,-15.09306047,-27.20749852,20.93002288,-10.01988204,
630265734,-15.21870569,-27.16379809,20.87460226,-10.00748784,
636258741,-15.13279296,-27.23253687,20.82089077,-9.913298523,
642251748,-15.18556931,-27.18938255,20.79129567,-9.909120976,
648244755,-15.17088346,-27.32972417,20.73600292,-9.899558615,
654237762,-15.11108403,-27.20480668,20.70473279,-9.799257087,
660230769,-15.09791778,-26.89702051,20.66062153,-9.695214459,
666223776,-15.10601776,-27.08399812,20.62701234,-9.694815281,
672216783,-15.08179666,-26.77929856,20.58111262,-9.631754752,
678209790,-15.1483324,-27.06628749,20.53965173,-9.635775521,
684202797,-15.14501026,-26.96545776,20.50473438,-9.626059884,
690195804,-15.2429612,-26.85640555,20.4789574,-9.561427134,
696188811,-15.19959221,-26.81737919,20.44469667,-9.543650602,
702181818,-15.22277206,-26.86840174,20.41008623,-9.515274597,
708174825,-15.3047523,-26.81191623,20.3667474,-9.501645707,
714167832,-15.27876116,-26.72934734,20.31515611,-9.466093641,
720160839,-15.32302341,-26.63854417,20.26094921,-9.432511178,
726153846,-15.35578728,-26.74571955,20.20638671,-9.434883671,
732146853,-15.38981098,-26.53254538,20.15173022,-9.407241557,
738139860,-15.43666664,-26.28160122,20.08081847,-9.34501528,
744132867,-15.51593937,-26.56852347,20.01770892,-9.395178505,
750125874,-15.52821971,-26.61687238,19.9550893,-9.411439095,
756118881,-15.66468879,-26.59781751,19.87919669,-9.388807519,
762111888,-15.68455553,-26.34007235,19.80616714,-9.379851668,
768104895,-15.73802695,-26.18417595,19.73691502,-9.393479691,
774097902,-15.80919711,-26.35170764,19.65910805,-9.34503468,
780090909,-15.90815935,-26.33572095,19.57541348,-9.369104205,
786083916,-16.00761132,-26.3613978,19.50306727,-9.293736445,
792076923,-16.05887566,-26.50370131,19.42710311,-9.300196271,
798069930,-16.21522705,-26.2097882,19.35447303,-9.316558776,
804062937,-16.24577375,-26.12413836,19.26676584,-9.255802358,
810055944,-16.41434383,-26.08415062,19.19242387,-9.215694456,
816048951,-16.45831232,-26.10849192,19.11350462,-9.185186037,
822041958,-16.56484196,-26.18292895,19.02986768,-9.137086912,
828034965,-16.63835667,-26.05289871,18.94598762,-9.114275672,
834027972,-16.76371217,-25.90678258,18.86581399,-9.097925387,
840020979,-16.77947724,-25.95683733,18.79213495,-9.00183379,
846013986,-16.87212296,-26.03256845,18.7227514,-8.971093259,
852006993,-16.89428013,-25.81917201,18.66417823,-8.940869427,
858000000,-16.94926418,-25.94595929,18.60033525,-8.876508758,
863993006,-17.0154878,-25.95776944,18.5425729,-8.839865236,
869986013,-17.07827152,-25.69085135,18.48990075,-8.780284034,
875979020,-17.0381501,-25.95735785,18.44192904,-8.652396283,
881972027,-17.16936166,-25.60748038,18.41180657,-8.651538707,
887965034,-17.1281972,-25.75090093,18.35713153,-8.573876665,
893958041,-17.19654317,-25.66322233,18.32408289,-8.552921982,
899951048,-17.11177702,-25.64296124,18.28387229,-8.456892108,
905944055,-17.27451408,-25.605925,18.27445746,-8.420861492,
911937062,-17.20386367,-25.60167914,18.24715698,-8.355075923,
917930069,-17.16070326,-25.53043663,18.2256123,-8.302966018,
923923076,-17.22232477,-25.65959026,18.20255138,-8.244447442,
929916083,-17.22827125,-25.42771483,18.19117655,-8.191631805,
935909090,-17.21745604,-25.46949911,18.17617587,-8.129715042,
941902097,-17.16675345,-25.4681904,18.17125089,-8.02204391,
947895104,-17.30585032,-25.36743823,18.15792203,-8.00278633,
953888111,-17.19803819,-25.5332533,18.14164282,-7.966578867,
959881118,-17.18368215,-25.27570887,18.12279492,-7.861616936,
965874125,-17.14563621,-25.38643201,18.10723652,-7.856697745,
971867132,-17.14415493,-25.43950451,18.08581896,-7.797907122,
977860139,-17.14555839,-25.31584214,18.08109354,-7.727973626,
983853146,-17.07908609,-25.10659384,18.04618376,-7.696420472,
989846153,-17.02511509,-25.30052623,18.01617731,-7.66711309,
995839160,-17.11845597,-25.1764864,17.97730338,-7.639267873,
1001832167,-17.07544647,-25.13414158,17.91415777,-7.617229029,
1007825174,-17.05653243,-25.21299863,17.85423335,-7.594162568,
1013818181,-16.96831681,-25.15033937,17.76795978,-7.615112883,
1019811188,-16.9628681,-25.25154456,17.67364293,-7.644302671,
1025804195,-16.87762928,-25.11597274,17.58209031,-7.679134704,
1031797202,-16.79952585,-25.06017271,17.45909259,-7.768722955,
1037790209,-16.78954799,-25.03711732,17.3366789,-7.845103886,
1043783216,-16.66786968,-25.0155789,17.20238106,-7.975050522,
1049776223,-16.70906681,-25.32093682,17.05859324,-8.149733282,
1055769230,-16.49977364,-25.37022812,16.9264006,-8.409623052,
1061762237,-16.32801737,-25.21327288,16.80538069,-8.667704566,
1067755244,-16.33153794,-25.35531547,16.71834294,-8.933623734,
1073748251,-16.15720644,-25.15473109,16.66681991,-9.088829946,
1079741258,-16.27573316,-25.09759741,16.65015181,-9.225409667,
1085734265,-16.28867864,-24.92790064,16.66331045,-9.197776917,
1091727272,-16.38608247,-25.00085196,16.67024518,-9.086882953,
1097720279,-16.6099569,-24.82282934,16.67264088,-8.88454866,
1103713286,-16.79188844,-24.65786117,16.65441631,-8.738961352,
1109706293,-16.88935739,-24.91062001,16.63620034,-8.537807215,
1115699300,-17.15011993,-24.80599203,16.58996705,-8.377024583,
1121692307,-17.33757735,-24.49737233,16.54067501,-8.260600694,
1127685314,-17.41531368,-24.67863395,16.49706354,-8.111070966,
1133678321,-17.59539066,-24.51600647,16.44486401,-7.996313119,
1139671328,-17.76870018,-24.3679425,16.38924367,-7.907366464,
1145664335,-17.82858991,-24.37115509,16.33465604,-7.813447335,
1151657342,-18.02569999,-24.38635052,16.2861151,-7.727419197,
1157650349,-18.13009257,-24.153948,16.24094325,-7.688054204,
1163643356,-18.16993048,-24.31635932,16.2102033,-7.594764476,
1169636363,-18.19061381,-24.26166227,16.1655344,-7.515481405,
1175629370,-18.36404857,-24.03153499,16.13804007,-7.480160055,
1181622377,-18.35814235,-24.15440758,16.12423501,-7.41206314,
1187615384,-18.50457511,-24.1040206,16.12477653,-7.387120869,
1193608391,-18.48111755,-24.01072258,16.11815956,-7.321311806,
1199601398,-18.4998186,-24.11352486,16.11628398,-7.287670879,
1205594405,-18.52095423,-24.12240263,16.13360443,-7.244454627,
1211587412,-18.49441262,-23.94699656,16.15173321,-7.204099569,
1217580419,-18.51890292,-23.86291868,16.171451,-7.137735874,
1223573426,-18.73768003,-23.99823155,16.20194911,-7.122150211,
1229566433,-18.72164088,-23.89020646,16.21819632,-7.096790217,
1235559440,-18.83030567,-23.7919543,16.25107749,-7.038235578,
1241552447,-18.59209488,-23.90176042,16.27653797,-7.005529644,
1247545454,-18.71872284,-23.74928012,16.30913123,-6.948105434,
1253538461,-18.61442366,-23.79580396,16.34504148,-6.927494824,
1259531468,-18.60524261,-23.78519258,16.37305335,-6.864898207,
1265524475,-18.57228561,-23.59012822,16.38396239,-6.781709411,
1271517482,-18.55974789,-23.82369331,16.39748171,-6.771807961,
1277510489,-18.52015517,-23.56035331,16.40633231,-6.687578425,
1283503496,-18.5813373,-23.72323193,16.40817853,-6.684043967,
1289496503,-18.53630824,-23.60036931,16.40329801,-6.61117872,
1295489510,-18.40188132,-23.43279969,16.38579293,-6.591747637,
1301482517,-18.32975201,-23.41014257,16.34911736,-6.530447809,
1307475524,-18.4350421,-23.5158524,16.30294362,-6.502201907,
1313468531,-18.31174968,-23.3980796,16.2491757,-6.469720167,
1319461538,-18.31369028,-23.42942318,16.18591741,-6.471198212,
1325454545,-18.42012299,-23.50262379,16.10949626,-6.454226523,
1331447552,-18.31499415,-23.40556548,16.02716356,-6.463478121,
1337440559,-18.3197573,-23.40390499,15.93925173,-6.445348925,
1343433566,-18.40869332,-23.33352104,15.85444542,-6.408890883,
1349426573,-18.506502,-23.41942591,15.74631527,-6.412588776,
1355419580,-18.6172901,-23.49032368,15.64385323,-6.406941235,
1361412587,-18.69799852,-23.27257688,15.51940889,-6.401108722,
1367405594,-18.68153704,-23.17279746,15.4151387,-6.379631154,
1373398601,-18.95464886,-23.2322505,15.3051083,-6.365505583,
1379391608,-18.98650106,-23.31182906,15.18499589,-6.368675189,
1385384615,-19.01778997,-23.22647276,15.08423518,-6.325063053,
1391377622,-19.20510068,-23.31350485,14.97461002,-6.30925726,
1397370629,-19.17391008,-23.31664664,14.88080993,-6.261112904,
1403363636,-19.32009621,-23.2209829,14.78136969,-6.223807984,
1409356643,-19.45307667,-23.14210514,14.67724425,-6.220204084,
1415349650,-19.6793747,-23.22541197,14.57239337,-6.18732351,
1421342657,-19.7700643,-23.08513731,14.47669238,-6.166094236,
1427335664,-19.84201862,-23.19013982,14.39494934,-6.135791794,
1433328671,-19.78140322,-23.37078012,14.31079504,-6.096871779,
1439321678,-19.88387569,-23.15303837,14.23165505,-6.068841824,
1445314685,-20.03806878,-23.0914629,14.16610613,-6.051377383,
1451307692,-20.16170247,-23.02226199,14.10849087,-6.053718546,
1457300699,-20.24781202,-23.10156163,14.07291675,-6.003838721,
1463293706,-20.32525404,-23.18637334,14.05972477,-5.971752453,
1469286713,-20.31172246,-22.92839037,14.0455867,-5.983381581,
1475279720,-20.30267977,-23.1433541,14.06905582,-5.943271411,
1481272727,-20.31105755,-23.16007158,14.11857213,-5.904189928,
1487265734,-20.22993088,-22.96649429,14.15117871,-5.893027293,
1493258741,-20.08494133,-23.11456922,14.19990828,-5.879457115,
1499251748,-20.18109588,-22.99896967,14.28241892,-5.849601624,
1505244755,-20.09566788,-22.82167802,14.34031791,-5.81775078,
1511237762,-19.93596967,-22.86179295,14.43569484,-5.781815556,
1517230769,-19.99161516,-22.79282386,14.51781352,-5.768169898,
1523223776,-20.53884402,-22.76123415,14.59532316,-5.731260665,
1529216783,-20.73929456,-22.60378326,14.67331173,-5.71036411,
1535209790,-20.48204891,-22.79962227,14.74689287,-5.66095363,
1541202797,-20.52459021,-22.66726153,14.81008776,-5.623058451,
1547195804,-20.27688742,-22.63942668,14.86050403,-5.570357466,
1553188811,-20.05923502,-22.50743946,14.9136319,-5.521744858,
1559181818,-20.00759295,-22.53373388,14.95276728,-5.484153186,
1565174825,-19.858488,-22.57755674,14.98232323,-5.453045684,
1571167832,-19.94070042,-22.59243214,14.99986051,-5.390663937,
1577160839,-19.77183766,-22.56174217,14.9984256,-5.365368029,
1583153846,-19.63040346,-22.53030858,14.98074166,-5.34017853,
1589146853,-19.48326175,-22.50876579,14.94613422,-5.336965111,
1595139860,-19.39019823,-22.4012888,14.89473956,-5.326584294,
1601132867,-19.51684112,-22.43788757,14.82152539,-5.320564568,
1607125874,-19.44284212,-22.32537382,14.72886477,-5.31847603,
1613118881,-19.4872441,-22.31657795,14.6396866,-5.36076125,
1619111888,-19.34381274,-22.3180638,14.51498726,-5.351753552,
1625104895,-19.42180544,-22.34493932,14.37303033,-5.417672732,
1631097902,-19.35189907,-22.25351277,14.24573947,-5.419600223,
1637090909,-19.51909541,-22.37601558,14.09066435,-5.457585689,
1643083916,-19.39392229,-22.23104079,13.93364263,-5.459279995,
1649076923,-19.57977094,-22.20170106,13.76733625,-5.509868914,
1655069930,-19.73246878,-22.4044777,13.61143579,-5.521141222,
1661062937,-19.86786402,-22.13397526,13.44339493,-5.541935086,
1667055944,-19.98287779,-22.27838804,13.29338818,-5.573250351,
1673048951,-19.99367456,-22.21783816,13.1375274,-5.542725332,
1679041958,-19.97429044,-22.38049766,12.98864447,-5.501943561,
1685034965,-20.39563802,-22.27068157,12.83104964,-5.518282181,
1691027972,-20.17554413,-22.27612881,12.69100247,-5.473664796,
1697020979,-20.39784554,-22.18357225,12.53713514,-5.454057497,
1703013986,-20.42660849,-22.17020058,12.41482403,-5.451065507,
1709006993,-20.52723542,-22.38743061,12.29009518,-5.378695843,
1715000000,-20.59141592,-22.30154011,12.18577944,-5.352613955,
1720993006,-20.62736741,-22.26647537,12.06004673,-5.313916898,
1726986013,-20.5329032,-22.29633155,11.97520014,-5.291888976,
1732979020,-20.62627368,-22.12033315,11.904881,-5.249219678,
1738972027,-20.64609341,-22.07415078,11.85083703,-5.280891853,
1744965034,-20.75560171,-22.13478282,11.8204817,-5.253084401,
1750958041,-20.64869056,-22.22279124,11.80356591,-5.236057575,
1756951048,-20.72353565,-22.13677108,11.83175205,-5.222522148,
1762944055,-20.55121979,-22.15281427,11.88909283,-5.227845111,
1768937062,-20.50873792,-22.17125601,11.95337844,-5.221299518,
1774930069,-20.37242524,-22.10749032,12.05973052,-5.207680009,
1780923076,-20.22863777,-22.03813078,12.17194862,-5.183929775,
1786916083,-20.25715641,-21.98309564,12.2940878,-5.170306079,
1792909090,-20.15084283,-22.08632802,12.42838312,-5.152337287,
1798902097,-19.99621939,-22.12887665,12.55800533,-5.110657315,
1804895104,-20.14071915,-22.07305235,12.671625,-5.086709199,
1810888111,-20.58630789,-22.14189189,12.7887517,-5.036895287,
1816881118,-21.62151453,-22.04458606,12.919361,-4.990114598,
1822874125,-22.63545302,-22.06465663,13.08082122,-4.966836386,
1828867132,-23.08245354,-21.89425631,13.24267137,-4.953393768,
1834860139,-23.12890235,-21.93023317,13.39028382,-4.932985606,
1840853146,-22.77450389,-21.8365485,13.50389355,-4.897705318,
1846846153,-22.52882487,-21.83263911,13.58261783,-4.819415887,
1852839160,-22.24212896,-21.8403069,13.63544847,-4.773095491,
1858832167,-21.64498271,-21.66810827,13.64706145,-4.712820154,
1864825174,-21.73066285,-21.80108232,13.6437562,-4.685803025,
1870818181,-21.29193993,-21.63008006,13.5977426,-4.637061193,
1876811188,-21.30908846,-21.68028448,13.53295556,-4.643828777,
1882804195,-21.30792308,-21.64498008,13.4387906,-4.649438916,
1888797202,-21.06112471,-21.63027445,13.33584572,-4.63645722,
