Frequency,S11_Magnitude,S12_Magnitude,S21_Magnitude,S22_Magnitude,
10000000,-9.148279802,-30.31410351,38.64865105,-12.73239351,
10220000,-19.13669065,-48.83503682,37.88012272,-21.67352664,
10440000,-18.92992527,-51.2304103,37.85550363,-22.02883201,
10660000,-19.13286747,-48.7656539,37.8598907,-21.54278933,
10880000,-19.11665957,-49.9640608,37.84718387,-22.09481928,
11100000,-17.8015449,-47.32217427,37.86690859,-24.93249782,
11320000,-19.27199377,-52.75348842,37.83611105,-22.41837168,
11540000,-19.15793098,-53.06965266,37.82598411,-22.41018146,
11760000,-18.49611591,-50.71896789,37.8368214,-23.96513757,
11980000,-18.92422018,-49.43620322,37.8338775,-23.11471183,
12200000,-18.55884752,-49.27753521,37.83402075,-23.96079776,
12420000,-18.738603,-47.22422116,37.85154301,-23.91385757,
12640000,-19.23445875,-50.49813602,37.82186494,-22.63939145,
12860000,-19.48573561,-52.18038631,37.83682029,-22.88439021,
13080000,-19.19200859,-51.02560025,37.83188134,-23.39439912,
13300000,-18.76893162,-49.15382259,37.83052442,-23.76882169,
13520000,-18.65545116,-48.96528704,37.83756559,-24.19797347,
13740000,-19.24273059,-50.42591907,37.83730864,-23.34716831,
13960000,-18.64888844,-49.21912342,37.82902528,-24.11484142,
14180000,-18.90179818,-49.62351152,37.82997468,-24.0858104,
14400000,-19.67713131,-52.94664065,37.80392683,-22.65940994,
14620000,-18.88388045,-50.15778423,37.83336643,-23.90943109,
14840000,-19.04719589,-51.30450895,37.83819601,-24.55089473,
15060000,-19.35119356,-54.6491606,37.81612163,-24.00707961,
15280000,-18.94608818,-52.46285005,37.83307195,-25.05681622,
15500000,-19.55954936,-51.24180924,37.80312836,-23.19834518,
15720000,-19.08885855,-50.45100515,37.81673328,-24.1249492,
15940000,-18.60496864,-49.12833689,37.82906516,-24.88973974,
16160000,-18.51108056,-48.76279884,37.82844341,-25.94583637,
16380000,-18.92642977,-50.65378674,37.82459447,-24.55433555,
16600000,-18.73731409,-49.20328603,37.82751325,-24.56837115,
16820000,-18.8716802,-49.61260645,37.81782977,-25.29527488,
17040000,-19.2515986,-50.6385707,37.81737249,-24.40473884,
17260000,-18.82281577,-50.33724476,37.82561604,-25.25614412,
17480000,-18.6193764,-49.47209068,37.81838887,-25.91529893,
17700000,-18.96197869,-51.35307757,37.81432934,-25.03514617,
17920000,-18.61782885,-50.32397708,37.81940712,-25.88483249,
18140000,-15.8754496,-41.84093133,37.84373386,-37.96450155,
18360000,-18.87706292,-51.31640622,37.80932758,-25.51184571,
18580000,-18.43166884,-48.95379177,37.82828147,-26.94263158,
18800000,-18.22390459,-48.55891384,37.81870071,-27.31024041,
19020000,-18.92495084,-51.61262851,37.81741926,-25.84535229,
19240000,-18.94915978,-50.91990432,37.82051362,-25.28073676,
19460000,-18.64172988,-50.17839653,37.81968006,-26.41443995,
19680000,-18.62673032,-50.0986465,37.82858806,-25.99666872,
19900000,-18.9684999,-51.98485533,37.82491197,-25.9527974,
20120000,-18.79951866,-50.5616161,37.82640872,-26.07577298,
20340000,-19.07900769,-52.89934743,37.82039367,-25.05785808,
20560000,-19.16814552,-52.50264092,37.82719177,-25.8038182,
20780000,-19.07343881,-52.58552937,37.83294632,-25.61799618,
21000000,-14.78362007,-39.48493855,37.89182798,-25.0279923,
21220000,-18.2437177,-48.76400125,37.84613101,-27.92254234,
21440000,-18.53105492,-49.26147502,37.85357252,-27.46580336,
21660000,-18.88016208,-51.54694884,37.83625012,-25.69673166,
21880000,-18.68323631,-50.55954625,37.84551973,-26.90327176,
22100000,-18.76943375,-50.90551284,37.85265223,-25.9807393,
22320000,-18.8549013,-51.00851528,37.86016801,-26.18659533,
22540000,-19.15106108,-52.91787223,37.84807534,-25.72417552,
22760000,-18.73182319,-50.9330389,37.85264905,-27.11358592,
22980000,-19.00465869,-52.48913407,37.85135231,-25.79465125,
23200000,-18.93039698,-51.73872267,37.84713249,-26.04659269,
23420000,-18.50713784,-49.82088117,37.86131375,-28.25052798,
23640000,-18.57682441,-50.10140876,37.85986388,-26.81664451,
23860000,-18.4008225,-49.26789586,37.86727614,-27.54946631,
24080000,-18.56860182,-50.0808505,37.86379186,-26.005664,
24300000,-18.68575106,-50.57016768,37.85786772,-27.37092464,
24520000,-19.09897766,-52.56115762,37.86489534,-26.01740517,
24740000,-19.12253965,-52.78846195,37.86325952,-26.10097838,
24960000,-18.4303166,-49.52754016,37.86543072,-27.79931475,
25180000,-19.0943946,-52.44963654,37.82052397,-26.6769277,
25400000,-18.78145523,-50.78327646,37.83625954,-26.61436442,
25620000,-18.89565845,-51.59083279,37.84130495,-26.48211904,
25840000,-18.61953492,-50.36102452,37.84633252,-27.37556651,
26060000,-18.89745862,-51.53080338,37.83353239,-26.70473352,
26280000,-18.36271088,-49.37311308,37.83753453,-27.87051711,
26500000,-18.5925697,-50.38773913,37.83179095,-26.83241962,
26720000,-18.86638886,-51.6829716,37.83766251,-26.21722961,
26940000,-18.49596119,-49.73736159,37.84019293,-27.75756906,
27160000,-18.20200259,-48.43289151,37.84227049,-27.99443778,
27380000,-18.70503174,-50.82146669,37.85585339,-27.33733033,
27600000,-18.30190627,-48.80426585,37.84385039,-28.78864123,
27820000,-18.76609107,-51.16578844,37.85823146,-27.44440885,
28040000,-18.18064715,-48.47985284,37.85116896,-28.78383291,
28260000,-18.37700432,-49.20518046,37.84356285,-27.6701775,
28480000,-18.75343869,-50.91819852,37.86281634,-27.44894181,
28700000,-18.40200991,-49.4357448,37.85932937,-27.64184788,
28920000,-18.40242824,-49.26051366,37.85858002,-27.48468786,
29140000,-18.75686657,-51.34186631,37.86305362,-27.11647888,
29360000,-18.72150259,-51.25866327,37.86335873,-27.81578661,
29580000,-18.74499834,-51.203906,37.86457865,-27.35256669,
29800000,-18.57168303,-50.65352116,37.85008664,-27.81958558,
30020000,-19.00114615,-53.31110918,37.87645944,-26.65204952,
30240000,-18.75477073,-52.11806755,37.86836581,-27.7082491,
30460000,-19.2506552,-54.23376478,37.87645339,-26.71851384,
30680000,-20.12447552,-57.02874944,37.89346034,-24.61142145,
30900000,-8.625682498,-29.8025246,37.25430125,-3.998715471,
31120000,-18.69844306,-51.72554448,37.86678534,-27.63133413,
31340000,-18.80904318,-52.49099294,37.87202379,-27.23502652,
31560000,-18.89527013,-52.00397423,37.8650622,-26.67171732,
31780000,-18.48289713,-50.44181803,37.86896979,-28.14997096,
32000000,-18.57831983,-50.74920554,37.86272953,-27.40378427,
32220000,-18.33613274,-49.05656994,37.87470204,-27.64407187,
32440000,-18.70068842,-51.45742295,37.87733739,-27.11910261,
32660000,-18.52322251,-50.43139701,37.87796056,-28.16507029,
32880000,-17.98129611,-47.94357268,37.8712163,-29.08751168,
33100000,-18.65427171,-50.25121931,37.86029637,-27.09479,
33320000,-18.42539628,-49.34286481,37.85540787,-27.23551583,
33540000,-18.85547142,-51.9602069,37.84703391,-26.79603128,
33760000,-19.00091907,-51.46192568,37.84989644,-26.16742851,
33980000,-18.56928084,-50.06090171,37.86317771,-27.41785088,
34200000,-18.69162831,-50.60255696,37.85963992,-27.49523033,
34420000,-18.70814567,-50.55697589,37.847093,-27.08044534,
34640000,-18.37708573,-49.81864843,37.85413347,-28.24521369,
34860000,-18.15075208,-47.8825504,37.85423393,-27.97378742,
35080000,-18.5165923,-50.03591249,37.84825504,-27.32761431,
35300000,-18.95790504,-52.32628713,37.84287933,-26.55837764,
35520000,-18.54619125,-50.01537436,37.85813456,-27.41639433,
35740000,-18.60022675,-50.53657755,37.85576574,-27.34960718,
35960000,-18.5104963,-49.16816014,37.83478144,-27.13586734,
36180000,-18.95745301,-52.96901395,37.84472019,-26.55832202,
36400000,-18.4865125,-50.13502368,37.83867056,-27.58609078,
36620000,-18.38657954,-48.51271124,37.83848828,-27.35292335,
36840000,-18.61651828,-50.93393145,37.8451565,-27.35194453,
37060000,-18.26035654,-48.56482952,37.84529748,-27.84507558,
37280000,-18.4356224,-49.97169448,37.73978873,-27.63860131,
37500000,-18.99833334,-51.00492809,37.83565845,-25.73286014,
37720000,-18.79098669,-49.78411649,37.82994011,-26.3467565,
37940000,-18.41572969,-50.22278982,37.82689716,-27.4132131,
38160000,-18.83886392,-51.80657006,37.82958486,-27.03774876,
38380000,-18.74272132,-51.80721163,37.82208718,-26.93314455,
38600000,-18.81741883,-51.34508853,37.82778371,-26.55192169,
38820000,-18.43915986,-49.78935884,37.82505047,-27.68351519,
39040000,-18.64465117,-49.57782796,37.82134463,-26.88640524,
39260000,-18.40547739,-50.03668114,37.82760843,-27.85046333,
39480000,-18.19998942,-48.00989557,37.82269045,-28.04651455,
39700000,-18.19100762,-49.25532142,37.8261101,-28.58010857,
39920000,-18.2582913,-49.22629409,37.82708935,-28.08943236,
40140000,-18.41882615,-50.20251147,37.82654231,-27.91138142,
40360000,-19.0143612,-52.38732668,37.81308226,-26.63826254,
40580000,-18.65174425,-49.52469658,37.81065711,-26.96100558,
40800000,-19.44409726,-57.17893987,37.8194101,-25.11927705,
41020000,-18.67718214,-50.60335211,37.81109561,-26.73248794,
41240000,-18.74237101,-51.03449803,37.81985114,-26.97958795,
41460000,-18.93146988,-51.96829462,37.81779138,-26.44451738,
41680000,-18.81453098,-51.21115856,37.81449603,-26.37383901,
41900000,-19.61793136,-53.36680897,37.80812387,-25.2060143,
42120000,-18.54610587,-50.07785632,37.81901471,-27.14498559,
42340000,-18.63583626,-49.35611151,37.81052559,-26.39175606,
42560000,-18.52353017,-50.39921705,37.81907248,-27.07355594,
42780000,-18.36607016,-48.7672389,37.81515059,-27.70781844,
43000000,-19.69570409,-57.98454008,37.77643953,-24.6318183,
43220000,-18.84831877,-51.08488759,37.80665231,-26.33489013,
43440000,-18.60099751,-50.3657772,37.81156884,-27.18649515,
43660000,-18.77649842,-52.0585195,37.81687919,-26.80190674,
43880000,-18.86098781,-50.05388238,37.80850827,-26.16730945,
44100000,-18.58360135,-50.39908253,37.82094845,-26.55178788,
44320000,-18.88556758,-49.9267319,37.79772958,-26.25474353,
44540000,-18.70807385,-50.16888602,37.80166871,-26.58246791,
44760000,-18.70109794,-50.9939942,37.81906046,-26.90506315,
44980000,-18.81244328,-51.52665393,37.80610526,-26.39857876,
45200000,-18.80718395,-49.05935715,37.80635725,-26.11708831,
45420000,-18.33075159,-48.79755292,37.8049549,-27.47878463,
45640000,-19.10650107,-52.61473067,37.8108553,-25.97045316,
45860000,-18.86728894,-51.28322016,37.80863682,-26.32399884,
46080000,-18.98787931,-54.37796792,37.80956432,-26.12211743,
46300000,-18.97180654,-52.52105007,37.81883472,-26.74871301,
46520000,-18.67905667,-49.92988895,37.80350276,-26.85423,
46740000,-18.82210152,-50.76065003,37.81257792,-26.69487078,
46960000,-18.64000598,-49.09492316,37.79131643,-26.64788776,
47180000,-18.66811419,-49.01727206,37.80613562,-26.25303539,
47400000,-18.68317578,-49.60724838,37.80670226,-26.6803397,
47620000,-18.78468349,-50.43681153,37.81862744,-26.50240065,
47840000,-18.36883562,-49.41492943,37.80688583,-27.41086733,
48060000,-18.94377561,-52.28955925,37.80898132,-26.15934505,
48280000,-18.58834056,-49.72942323,37.8114383,-26.78807766,
48500000,-19.38255397,-55.0411672,37.81769883,-25.50335762,
48720000,-18.69523075,-50.62601926,37.81083854,-27.02491396,
48940000,-19.00261586,-52.37403999,37.81984372,-26.51862505,
49160000,-18.34599347,-48.08712117,37.80572941,-27.04586594,
49380000,-18.62027107,-49.627786,37.80378167,-27.10711837,
49600000,-19.33004601,-49.96072698,37.82144047,-25.39737214,
49820000,-18.92700509,-50.60235932,37.80385797,-25.78120437,
50040000,-18.54032932,-50.61080772,37.80378044,-26.89340484,
50260000,-18.78704876,-49.64279242,37.80492794,-26.45058841,
50480000,-18.49999179,-48.65115369,37.80282451,-26.80547,
50700000,-19.13731185,-53.56149158,37.8004772,-26.13371835,
50920000,-18.98414979,-52.2723174,37.79979935,-26.12039756,
51140000,-18.87695642,-52.72885691,37.8029227,-26.5146427,
51360000,-18.82762672,-51.27953191,37.80556665,-26.48123158,
51580000,-18.34554916,-49.60530068,37.80704013,-27.00272822,
51800000,-18.65789069,-50.4318372,37.80053652,-26.63362386,
52020000,-19.37627535,-50.63043754,37.79197011,-25.05661957,
52240000,-18.73737016,-51.09144691,37.79530494,-26.50802244,
52460000,-18.79247583,-50.62371161,37.80157803,-26.71358333,
52680000,-18.98527687,-51.53681399,37.80110009,-25.91160292,
52900000,-18.81646308,-50.88771739,37.80618922,-26.66130809,
53120000,-18.5381033,-49.24806811,37.80850711,-26.82448281,
53340000,-18.24221546,-48.80887616,37.80427229,-27.3566385,
53560000,-19.43461155,-51.76666097,37.79817363,-24.93521884,
53780000,-18.89078851,-50.96147456,37.78681166,-25.98681636,
54000000,-18.6425357,-49.57836055,37.79955428,-26.50214614,
54220000,-18.6620923,-49.69176289,37.78704033,-26.50258811,
54440000,-18.26671666,-49.63785339,37.79784823,-27.49196783,
54660000,-18.30777306,-47.80287921,37.79463828,-27.01788718,
54880000,-19.01601432,-52.45620183,37.8027577,-25.73277061,
55100000,-18.75695256,-49.90619597,37.79655587,-26.01822629,
55320000,-18.85004324,-51.26009051,37.79932397,-26.36975123,
55540000,-17.59487666,-47.01994512,37.80891717,-29.28722827,
55760000,-19.06810025,-49.97767279,37.78396909,-25.80505061,
55980000,-19.06404729,-49.94188717,37.78880623,-25.27033875,
56200000,-18.68572864,-50.66528942,37.81098837,-26.47381192,
56420000,-18.6634649,-48.66563118,37.79956269,-26.4418747,
56640000,-18.90871808,-49.3197203,37.79429739,-25.60524438,
56860000,-18.56270287,-49.21394016,37.79748065,-26.31520355,
57080000,-18.70231176,-51.0769988,37.79630268,-26.46426151,
57300000,-19.15942084,-50.02249985,37.78833263,-25.10276493,
57520000,-19.05881956,-50.99563358,37.7968098,-25.65094982,
57740000,-18.98398371,-51.34321016,37.79769848,-25.88919718,
57960000,-18.20300579,-48.50211162,37.79428932,-26.88042423,
58180000,-18.69477769,-51.44974404,37.80652906,-26.4772703,
58400000,-18.92859224,-50.53554542,37.7900195,-25.4713131,
58620000,-18.39522707,-49.34664983,37.79533336,-26.58737204,
58840000,-19.11848233,-51.60919972,37.79561047,-25.61405586,
59060000,-18.93631027,-50.54008042,37.80180572,-26.04154156,
59280000,-18.93606043,-50.17747557,37.79714091,-25.46422608,
59500000,-18.91640323,-51.50716637,37.80390565,-25.88569998,
59720000,-19.23341144,-52.47166786,37.80362337,-25.41107457,
59940000,-18.49469558,-50.10131802,37.81450576,-26.75370239,
60160000,-18.75867961,-54.4868797,37.8180394,-26.28916365,
60380000,-18.8002275,-50.59417842,37.79998775,-26.29596493,
60600000,-18.59714523,-52.92246075,37.81782233,-26.48651239,
60820000,-18.98875046,-54.32961775,37.8073959,-25.91140229,
61040000,-18.71549664,-53.31010701,37.8110178,-26.85082547,
61260000,-19.04611856,-52.4850802,37.80561918,-26.1698309,
61480000,-18.75909413,-53.03584226,37.77894913,-26.83884569,
61700000,-18.77514365,-51.87158945,37.64873536,-26.58570269,
61920000,-18.57503001,-52.42705703,37.62825042,-26.52018539,
62140000,-18.41767462,-51.4587795,37.6704039,-27.442197,
62360000,-18.83933047,-53.49236009,37.76688218,-25.84373026,
62580000,-18.73570008,-52.41900946,37.79277553,-26.42210451,
62800000,-18.83539613,-49.30174935,37.93684643,-25.18878587,
63020000,-18.91629313,-51.58667063,37.79245503,-25.72753927,
63240000,-18.90414042,-52.43335393,37.80219266,-25.86288075,
63460000,-18.73389283,-49.97916729,37.79800435,-25.86535301,
63680000,-18.94810578,-52.51345152,37.81141392,-25.50468855,
63900000,-18.67545798,-51.36260252,37.80326892,-26.41913561,
64120000,-18.93544979,-52.43010957,37.81072353,-25.86157766,
64340000,-18.69681719,-49.98640634,37.80298475,-25.50600634,
64560000,-19.33937465,-50.81599448,37.80227956,-25.153449,
64780000,-18.81897174,-49.63208564,37.80485473,-25.87051049,
65000000,-19.21036097,-50.99073528,37.79596726,-24.83362728,
65220000,-19.20026445,-49.94243884,37.80038009,-24.95925383,
65440000,-18.77903618,-49.78380203,37.80321634,-25.53864787,
65660000,-19.46081546,-51.50986477,37.80420087,-24.66568064,
65880000,-18.91668164,-51.02696408,37.81391752,-25.33547579,
66100000,-18.91088133,-49.33347857,37.81259728,-25.37564506,
66320000,-18.49228345,-49.02768123,37.81109446,-25.56964443,
66540000,-19.09682922,-49.71458145,37.80344665,-24.8737229,
66760000,-18.70234989,-49.45492277,37.81308224,-25.649961,
66980000,-18.63629747,-50.4990488,37.81689271,-25.89558888,
67200000,-19.12102454,-50.46123787,37.81164744,-24.96707617,
67420000,-18.29084725,-48.52557116,37.81410493,-26.12860503,
67640000,-18.49859592,-49.45044553,37.81832867,-25.92090688,
67860000,-19.3927388,-51.89057608,37.80643497,-24.71014535,
68080000,-19.01170032,-49.76855134,37.82182499,-24.84410588,
68300000,-18.77629732,-48.72172865,37.81437033,-25.31355958,
68520000,-19.03392949,-50.36776287,37.82360692,-24.8865436,
68740000,-18.72616698,-48.21905788,37.8160443,-25.25377861,
68960000,-19.13707854,-50.13071665,37.81901804,-24.69899191,
69180000,-18.70342735,-51.60868903,37.82190809,-25.78698344,
69400000,-18.92644005,-49.86370105,37.81747914,-24.78340825,
69620000,-19.20312242,-50.15284253,37.82349395,-24.65133481,
69840000,-18.80320774,-50.10901476,37.82481075,-25.48763265,
70060000,-18.95199704,-51.06094323,37.82129567,-24.71385284,
70280000,-19.0107744,-48.65637764,37.81870617,-24.60913379,
70500000,-19.34906928,-51.64945592,37.82278151,-24.7504114,
70720000,-18.77402236,-50.67488162,37.82617759,-25.11635498,
70940000,-18.86599856,-50.26435309,37.82342889,-24.57700027,
71160000,-18.46744388,-49.03412648,37.82991521,-25.36488863,
71380000,-18.93417373,-52.01951989,37.82678445,-25.20253324,
71600000,-19.12299229,-51.79551483,37.8266427,-24.82387158,
71820000,-18.71397376,-52.14720389,37.83497375,-25.41405082,
72040000,-18.92300684,-51.3852767,37.83004565,-25.04446098,
72260000,-18.52262559,-48.99240986,37.82461996,-25.23200959,
72480000,-19.16915481,-50.67158044,37.83000605,-24.78404845,
72700000,-18.29185321,-49.95398022,37.83161837,-26.19882205,
72920000,-18.63712378,-50.3691548,37.83206486,-25.42163862,
73140000,-18.76413781,-50.96602297,37.83348546,-25.29093818,
73360000,-19.28873102,-50.89314394,37.83342815,-24.23905857,
73580000,-18.85564258,-51.4472856,37.82818996,-24.91738154,
73800000,-18.66456621,-51.0560517,37.83652931,-25.51040994,
74020000,-18.76525476,-50.10960471,37.83813533,-25.05066269,
74240000,-18.71057424,-47.82556719,37.81224047,-24.50276846,
74460000,-18.84089374,-49.16706772,37.83237984,-24.49590442,
74680000,-18.54345427,-49.38996194,37.82775752,-25.67956784,
74900000,-18.68368075,-50.96974517,37.828375,-25.57746783,
75120000,-19.11593531,-49.29316387,37.8364155,-24.68251662,
75340000,-18.96587104,-49.98731624,37.83968479,-24.44350918,
75560000,-18.53026784,-48.65116876,37.83344812,-25.02604138,
75780000,-18.68253155,-49.36381678,37.8320168,-24.99659627,
76000000,-18.13693227,-50.291403,37.82385558,-25.95799952,
76220000,-18.79948613,-50.8881764,37.83839784,-24.85963822,
76440000,-19.0482609,-55.21673922,37.83842038,-24.97673516,
76660000,-18.78067163,-51.39153149,37.83339911,-24.42670291,
76880000,-19.03410205,-50.89962401,37.8366593,-24.61729632,
77100000,-18.46291414,-50.13176848,37.83329123,-24.99484794,
77320000,-18.86510802,-50.76970928,37.83725388,-24.37469841,
77540000,-18.72314609,-49.49739167,37.82679515,-24.87655833,
77760000,-18.87291508,-50.58456303,37.83806209,-24.75841909,
77980000,-19.02918608,-50.33658287,37.84091119,-24.80623939,
78200000,-18.63608313,-49.470048,37.83716173,-24.82912912,
78420000,-19.12899139,-50.48375646,37.8496587,-24.4796734,
78640000,-18.90720481,-51.45432629,37.8345968,-24.49991592,
78860000,-19.06221788,-49.96145868,37.84769116,-24.36851762,
79080000,-18.73328003,-50.01999942,37.84722353,-24.54651977,
79300000,-18.82764129,-49.82397554,37.84291218,-24.38187401,
79520000,-18.65902222,-49.8071518,37.84077131,-24.75290242,
79740000,-18.43214422,-48.49833683,37.83620939,-24.84691377,
79960000,-18.86078567,-51.39970321,37.83628252,-24.57330577,
80180000,-18.72763469,-50.00390794,37.84382153,-24.62696605,
80400000,-18.74748864,-49.63499035,37.84001516,-24.55080547,
80620000,-19.06013265,-51.7203958,37.83878581,-24.22674538,
80840000,-18.97819345,-52.53537034,37.84790095,-24.4808416,
81060000,-18.86499613,-51.1787788,37.83994662,-24.2661543,
81280000,-18.9463923,-50.79863906,37.83395616,-24.21684755,
81500000,-19.09708755,-52.0262224,37.833413,-24.56357689,
81720000,-19.13296325,-49.13562084,37.84259959,-24.00939312,
81940000,-18.67964402,-51.82650876,37.84587592,-24.63002552,
82160000,-18.45149824,-50.98870227,37.83804527,-25.1234924,
