Frequency,S11_Magnitude,S21_Magnitude,S22_Magnitude,
2000000000,0.1442174563,23.99664234,-15.90096344,
2004000000,0.1645986553,24.14268985,-15.46065481,
2008000000,0.2999166261,24.27063889,-15.71705678,
2012000000,0.3314867445,24.40650599,-15.78983684,
2016000000,0.3989313294,24.55527169,-15.43127247,
2020000000,0.4401335124,24.69264702,-15.29083326,
2024000000,0.5166632731,24.83574683,-15.18795785,
2028000000,0.5729750508,25.00629485,-15.03467671,
2032000000,0.7119134391,25.17530519,-15.17942181,
2036000000,0.7122089962,25.37282951,-14.55656741,
2040000000,0.779944453,25.56236666,-14.44355846,
2044000000,0.8542026394,25.79417481,-14.29611881,
2048000000,0.9326447729,26.00773752,-14.22249334,
2052000000,1.002320907,26.23205038,-13.72569449,
2056000000,0.9934842444,26.42569855,-13.47932417,
2060000000,1.186850113,26.67851463,-14.32796891,
2064000000,1.102730213,26.86736251,-13.04666466,
2068000000,1.165783595,27.09081354,-12.91407385,
2072000000,1.189296409,27.28706043,-12.65947437,
2076000000,1.234407947,27.48988695,-12.45590517,
2080000000,1.175722367,27.6675445,-12.62747708,
2084000000,1.209032146,27.81249608,-11.99361072,
2088000000,1.224805177,27.95090625,-11.86218664,
2092000000,1.236494375,28.0652864,-11.73646845,
2096000000,1.094184651,28.15355181,-11.52755676,
2100000000,1.073546811,28.21788635,-11.41395151,
2104000000,1.051047392,28.25959243,-11.24493608,
2108000000,0.9364712543,28.26259079,-11.16897842,
2112000000,0.9309738747,28.26812954,-11.25436975,
2116000000,0.8053204767,28.23944498,-11.21649457,
2120000000,0.7014663511,28.19583409,-11.13251382,
2124000000,0.6098165855,28.13760428,-11.22555694,
2128000000,0.5477883425,28.09533359,-11.32476212,
2132000000,0.4047430052,28.05088746,-11.51831912,
2136000000,0.3588155042,28.01040722,-11.46179225,
2140000000,0.2084389061,27.96431076,-11.64171886,
2144000000,0.1756982421,27.91201082,-11.73145725,
2148000000,0.1156202435,27.85080235,-11.89936576,
2152000000,0.01362327915,27.77874507,-12.16987238,
2156000000,-0.1139824361,27.68617636,-12.27805732,
2160000000,-0.1076173693,27.57651256,-12.64516698,
2164000000,-0.2114051776,27.50095615,-13.36312827,
2168000000,-0.2727079082,27.3839797,-13.35192869,
2172000000,-0.3690590627,27.32565132,-13.91826126,
2176000000,-0.3728734035,27.28563779,-14.74073989,
2180000000,-0.4331801944,27.22974245,-14.78469582,
2184000000,-0.5104072302,27.13570385,-14.72896786,
2188000000,-0.4978014101,27.12856534,-15.8878716,
2192000000,-0.5549169498,27.11454915,-15.98990479,
2196000000,-0.5487965723,26.98722325,-17.6496217,
2200000000,-0.4866459301,26.87735254,-18.40989472,
2204000000,-0.529643116,26.75367122,-19.32416544,
2208000000,-0.5336120991,26.6451987,-20.72718998,
2212000000,-0.5142613977,26.51538592,-22.26641246,
2216000000,-0.527515446,26.39037742,-23.40538406,
2220000000,-0.5427944223,26.25164693,-25.74380053,
2224000000,-0.5514367505,26.16452509,-27.86332349,
2228000000,-0.526231943,26.05123038,-33.49947096,
2232000000,-0.4693611323,25.97702796,-34.35440797,
2236000000,-0.4905485204,25.91828999,-30.79892669,
2240000000,-0.4582847233,25.88644508,-27.22463258,
2244000000,-0.5006797724,25.85342105,-25.00172452,
2248000000,-0.4349651523,25.78862954,-23.00835237,
2252000000,-0.4407393328,25.72806431,-21.1666645,
2256000000,-0.4193577951,25.66977174,-19.68374304,
2260000000,-0.3718708342,25.63219049,-18.37822248,
2264000000,-0.3647332505,25.6187928,-17.11885361,
2268000000,-0.4241755381,25.60784196,-17.73546401,
2272000000,-0.3810260167,25.62752051,-15.19597297,
2276000000,-0.3302621033,25.65695339,-14.50015204,
2280000000,-0.2848255342,25.70279087,-13.87225315,
2284000000,-0.2682465318,25.74772322,-12.95132335,
2288000000,-0.2518434144,25.82472819,-12.56033081,
2292000000,-0.2353886721,25.86115969,-12.02073285,
2296000000,-0.2135331071,25.91327748,-11.84857297,
2300000000,-0.2394976236,25.94967634,-11.60791487,
2304000000,-0.1614571007,26.0186222,-11.22448732,
2308000000,-0.149768152,26.06175168,-10.99757543,
2312000000,-0.1309079224,26.13053155,-10.79650134,
2316000000,-0.05738566449,26.19100906,-10.33418453,
2320000000,-0.04926949572,26.26903752,-10.13039788,
2324000000,-0.05674104181,26.37198778,-10.00258655,
2328000000,-0.02907810132,26.54425703,-9.899692034,
2332000000,0.02674924114,26.72514698,-9.64930509,
2336000000,0.03032776872,26.90767753,-9.460324443,
2340000000,0.05828743937,27.0855042,-9.321341216,
2344000000,0.05519887752,27.25319759,-9.107013171,
2348000000,0.1060149263,27.41906834,-9.0700822,
2352000000,0.07516527578,27.57688758,-9.005548126,
2356000000,0.09735168474,27.72768344,-8.897473407,
2360000000,0.1587803579,27.89965342,-9.095161896,
2364000000,0.1507840558,28.08159436,-8.954385389,
2368000000,0.2059304829,28.30224464,-9.03086704,
2372000000,0.144716985,28.53137194,-9.209006221,
2376000000,0.1998533831,28.78417826,-9.057772223,
2380000000,0.1634042617,29.03660973,-9.16843918,
2384000000,0.1351753323,29.31506171,-9.385705561,
2388000000,0.2237188796,29.568405,-9.390262665,
2392000000,0.2163088235,29.80201627,-8.763462773,
2396000000,0.111400575,30.03591853,-9.451951461,
2400000000,-0.006857509306,30.17394212,-9.660981596,
2404000000,-0.07244141585,30.2762314,-9.54126484,
2408000000,0.003376968146,30.38849753,-10.26180492,
2412000000,-0.214021291,30.45627565,-10.36285488,
2416000000,-0.3139850076,30.51864885,-10.35019655,
2420000000,-0.2821005663,30.55002243,-10.69565609,
2424000000,-0.4228968184,30.5478378,-11.29387675,
2428000000,-0.588613299,30.53213684,-11.27532452,
2432000000,-0.6479765017,30.49133423,-11.82707841,
2436000000,-0.8330257112,30.4339961,-12.14029928,
2440000000,-0.9195806448,30.36214349,-12.84361225,
2444000000,-1.002535088,30.27573548,-13.13986821,
2448000000,-1.167497923,30.15278267,-13.55637266,
2452000000,-1.206010717,29.98243686,-14.60935867,
2456000000,-1.398277751,29.78745294,-15.09356329,
2460000000,-1.488949471,29.57345339,-15.7025566,
2464000000,-1.566148699,29.35960025,-17.07389982,
2468000000,-1.694156854,29.15388989,-18.03426608,
2472000000,-1.817170217,28.96908182,-19.49818731,
2476000000,-1.884424641,28.78588981,-23.01532527,
2480000000,-1.884902336,28.62675059,-24.41055885,
2484000000,-1.981081905,28.4750088,-27.58930281,
2488000000,-2.035737435,28.29776138,-32.67342961,
2492000000,-2.062219953,28.1018598,-40.78999309,
2496000000,-1.968329169,27.87953069,-33.12582899,
2500000000,-2.134122781,27.67846658,-30.83910643,
2504000000,-2.173079406,27.45074384,-26.81990944,
2508000000,-2.150078297,27.23391516,-24.5454399,
2512000000,-2.149123353,27.00197212,-21.5534688,
2516000000,-2.165528219,26.81449311,-20.82488937,
2520000000,-2.220883632,26.623332,-18.8821723,
2524000000,-2.181849789,26.46397387,-17.90490003,
2528000000,-2.207692414,26.29805654,-16.61512817,
2532000000,-2.233153269,26.15499933,-16.06231623,
2536000000,-2.199953892,26.02967636,-15.17796855,
2540000000,-2.204724503,25.91143736,-14.35326887,
2544000000,-2.252698248,25.81699583,-14.3564253,
2548000000,-2.202016155,25.69130264,-13.88696565,
2552000000,-2.147603706,25.58577648,-13.3958848,
2556000000,-2.183147684,25.45778798,-13.0181818,
2560000000,-2.196778234,25.367144,-12.81014169,
2564000000,-2.183248274,25.31713914,-12.44259552,
2568000000,-2.129097606,25.29191429,-12.04120239,
2572000000,-2.097800387,25.30308136,-11.79492386,
2576000000,-2.088568066,25.31131684,-11.57968806,
2580000000,-2.145997932,25.30907318,-10.46765252,
2584000000,-2.035280368,25.41239064,-11.09577757,
2588000000,-2.020997405,25.48526975,-10.85403635,
2592000000,-1.94031742,25.55035006,-10.76434831,
2596000000,-2.006916189,25.59619105,-10.78811781,
2600000000,-2.053974216,25.65712378,-10.81129528,
2604000000,-1.878672783,25.78240895,-10.57155732,
2608000000,-1.849984273,25.87071284,-10.43602757,
2612000000,-1.807736189,25.98762961,-10.35512728,
2616000000,-1.833465439,26.11227889,-10.75101555,
2620000000,-1.774316478,26.25899017,-10.59072502,
2624000000,-1.755777481,26.39941951,-10.58695112,
2628000000,-1.683950332,26.54914601,-10.61872982,
2632000000,-1.662356902,26.70953127,-10.66867354,
2636000000,-1.629574887,26.8829579,-10.7161756,
2640000000,-1.574370609,27.07491263,-10.66364006,
2644000000,-1.543319328,27.23280436,-10.97635647,
2648000000,-1.509132967,27.42506753,-11.01889329,
2652000000,-1.403742823,27.62461242,-11.05874363,
2656000000,-1.388980596,27.83091466,-11.2252251,
2660000000,-1.346253363,28.03829623,-11.41253317,
2664000000,-1.390696693,28.25225703,-11.73772,
2668000000,-1.262938152,28.46882532,-11.82546131,
2672000000,-1.247820003,28.68484304,-12.17794443,
2676000000,-1.252809703,28.91621654,-12.26157374,
2680000000,-1.26614136,29.13820822,-12.65497467,
2684000000,-1.251107611,29.34329852,-12.9592838,
2688000000,-1.250557009,29.55301805,-13.09417698,
2692000000,-1.269949104,29.74573451,-13.44581226,
2696000000,-1.308160125,29.9246253,-13.58090392,
2700000000,-1.314105298,30.05996255,-14.32594599,
2704000000,-1.374002531,30.15705842,-15.30004882,
2708000000,-1.487649787,30.29084916,-14.75479548,
2712000000,-1.528663703,30.35624908,-15.11875362,
2716000000,-1.533169401,30.40672325,-15.15501215,
2720000000,-1.821526402,30.41170922,-15.91130132,
2724000000,-1.870937229,30.39516947,-15.68289787,
2728000000,-2.039142307,30.32775654,-16.31348264,
2732000000,-2.297375712,30.24639128,-16.52014194,
2736000000,-2.432802393,30.14564677,-16.82212144,
2740000000,-2.583670454,29.99882437,-16.95432006,
2744000000,-2.754667226,29.85686575,-16.84357981,
2748000000,-3.014528456,29.66142229,-17.11016834,
2752000000,-3.149272913,29.46205065,-17.0508828,
2756000000,-3.285489615,29.24495244,-17.02238948,
2760000000,-3.450688446,29.02666361,-16.98332588,
2764000000,-3.591615278,28.78669498,-16.51508906,
2768000000,-3.871324476,28.55678412,-16.81998527,
2772000000,-3.94389228,28.31668453,-16.36435093,
2776000000,-4.053730917,28.09647491,-16.32001197,
2780000000,-4.250731425,27.8576579,-16.36694854,
2784000000,-4.172121667,27.63618201,-15.94874315,
2788000000,-4.354523168,27.39337844,-14.619788,
2792000000,-4.309144013,27.22445715,-15.88469641,
2796000000,-4.372859513,27.02860207,-15.84390675,
2800000000,-4.338250754,26.8519227,-15.93357136,
2804000000,-4.385857398,26.68789289,-15.68040403,
2808000000,-4.39011228,26.53019007,-15.01911532,
2812000000,-4.318802624,26.37671395,-15.422356,
2816000000,-4.325541973,26.23447984,-15.8341534,
2820000000,-4.30790114,26.103353,-15.62121212,
2824000000,-4.289484957,25.98722926,-15.60060611,
2828000000,-4.204513751,25.88336807,-15.51799168,
2832000000,-4.185910428,25.80004693,-15.57986519,
2836000000,-4.122377815,25.70455023,-15.63813489,
2840000000,-4.178469481,25.5172328,-16.07234948,
2844000000,-3.966841683,25.57364113,-15.95486747,
2848000000,-3.973578346,25.50265622,-15.96990723,
2852000000,-3.914328658,25.44060651,-16.15882018,
2856000000,-3.891220032,25.392228,-16.12486296,
2860000000,-3.808013822,25.34097726,-16.24693042,
2864000000,-3.7083817,25.33804585,-16.38005409,
2868000000,-3.640690863,25.33213406,-16.45518387,
2872000000,-3.549931365,25.35144428,-16.31171995,
2876000000,-3.496280916,25.3856491,-16.55653559,
2880000000,-3.414791692,25.43933413,-16.4197351,
2884000000,-3.345808724,25.50011561,-16.08770742,
2888000000,-3.238577661,25.55819201,-16.24589836,
2892000000,-3.190803493,25.58692807,-18.08230242,
2896000000,-3.102018529,25.700965,-15.99428367,
2900000000,-3.020197872,25.77958956,-15.86139643,
2904000000,-2.937212835,25.86736368,-15.59405265,
2908000000,-2.854507635,25.9537099,-15.39728378,
2912000000,-2.751250377,26.06409517,-14.81061451,
2916000000,-2.717445054,26.16756568,-15.01892793,
2920000000,-2.588892472,26.27058298,-14.75608831,
2924000000,-2.554213704,26.39794704,-14.49280905,
2928000000,-2.428118056,26.5403493,-14.33286212,
2932000000,-2.367193376,26.67632865,-13.94809694,
2936000000,-2.232597721,26.82924204,-13.86167766,
2940000000,-2.151136827,26.99223635,-13.63546986,
2944000000,-2.070956693,27.13246916,-13.81045021,
2948000000,-2.017404154,27.29782969,-13.30755384,
2952000000,-1.944450702,27.46430896,-12.9548893,
2956000000,-1.900665872,27.59917645,-12.89047835,
2960000000,-1.806008257,27.77408677,-12.60891762,
2964000000,-1.651114186,28.15137903,-12.89313108,
2968000000,-1.776372807,28.07566919,-12.2184478,
2972000000,-1.686209305,28.23488719,-12.05105959,
2976000000,-1.608658538,28.37333993,-11.99060826,
2980000000,-1.58971693,28.51736428,-11.94529331,
2984000000,-1.556334832,28.64673821,-11.92713073,
2988000000,-1.631134534,28.76430404,-11.85809143,
2992000000,-1.658056788,28.87843897,-11.79294979,
2996000000,-1.604073267,29.12487428,-15.13760455,
3000000000,-1.75820341,29.08194091,-12.42045255,
3004000000,-1.837679155,29.17333704,-12.50856503,
3008000000,-1.914257612,29.24250625,-12.59925227,
3012000000,-2.013004977,29.30445142,-12.71544528,
3016000000,-2.068674765,29.38921379,-12.43399261,
3020000000,-2.290102956,29.36145325,-12.85271677,
3024000000,-2.422319759,29.35126348,-13.07177731,
3028000000,-2.63609727,29.30320092,-13.16338194,
3032000000,-2.83888026,29.25792616,-13.46679694,
3036000000,-3.123127595,29.16668032,-13.6477156,
3040000000,-3.268588363,29.07449098,-14.11290947,
3044000000,-3.472815679,28.9769902,-14.5780716,
3048000000,-3.679055259,28.87444062,-14.94061799,
3052000000,-3.940819482,28.72536301,-15.21392563,
3056000000,-4.181583156,28.58718471,-15.61171651,
3060000000,-4.262318814,28.43919,-16.13305024,
3064000000,-4.55657264,28.30164227,-16.44548228,
3068000000,-4.743906955,28.10262727,-16.80239749,
3072000000,-4.817655095,27.97134581,-17.50027568,
3076000000,-4.882662786,27.82889764,-17.95415769,
3080000000,-5.078233868,27.66541829,-18.07341732,
3084000000,-5.005248694,27.50984473,-19.43880085,
3088000000,-5.144433182,27.35684205,-19.70664642,
3092000000,-5.146498791,27.20209128,-21.3402286,
3096000000,-5.191755774,27.07343516,-23.09191122,
3100000000,-5.115573552,27.0118657,-31.23297741,
3104000000,-5.191706629,26.83026008,-27.31562985,
3108000000,-5.164687635,26.72638289,-29.99363539,
3112000000,-5.093211023,26.62526169,-33.23790202,
3116000000,-5.056345374,26.53606935,-37.53347055,
3120000000,-5.117886277,26.49338534,-23.80700541,
3124000000,-4.954671562,26.38599705,-40.61045975,
3128000000,-4.892961051,26.31312046,-34.1640603,
3132000000,-4.797897147,26.25992795,-28.96023224,
3136000000,-4.768067376,26.21997212,-25.23192594,
3140000000,-4.64769158,26.18349483,-23.49523689,
3144000000,-4.432685188,26.16141104,-21.21760723,
3148000000,-4.382932432,26.15109639,-19.84500755,
3152000000,-4.214870344,26.15593404,-18.73621203,
3156000000,-4.071509318,26.14134528,-17.82044889,
3160000000,-3.985432314,26.1338313,-16.72481973,
3164000000,-3.840428926,26.16502774,-16.47873633,
3168000000,-3.747445011,26.19847935,-15.93772333,
3172000000,-3.575123374,26.18689372,-15.28482447,
3176000000,-3.452244852,26.2520508,-14.83835009,
3180000000,-3.254981745,26.30082103,-14.19822751,
3184000000,-3.148681981,26.34579089,-13.93869786,
3188000000,-3.033142399,26.42584074,-13.55343012,
3192000000,-2.892399309,26.47793338,-13.1442633,
3196000000,-2.759330579,26.56620276,-12.97604837,
3200000000,-2.65706956,26.66298827,-13.05522749,
3204000000,-2.355154408,26.87779257,-16.97432192,
3208000000,-2.36369945,26.82835475,-12.37423529,
3212000000,-2.221720452,26.92075898,-12.00239779,
3216000000,-2.102283558,27.03619616,-11.63176497,
3220000000,-2.044099178,27.16084492,-11.29294926,
3224000000,-1.994861824,27.26221287,-10.6984736,
3228000000,-1.819780407,27.38949328,-10.90649606,
3232000000,-1.687008686,27.52082878,-10.8358417,
3236000000,-1.645460508,27.65339988,-10.78351472,
3240000000,-1.597430877,27.77874375,-10.86632296,
3244000000,-1.493252427,27.92016746,-11.13783494,
3248000000,-1.457619946,28.05601395,-10.97891017,
3252000000,-1.451347768,28.1827495,-10.96322727,
3256000000,-1.40354892,28.32244526,-11.12981442,
3260000000,-1.41858812,28.43189746,-10.87995749,
3264000000,-1.386079152,28.5593589,-10.93742683,
3268000000,-1.378596199,28.66820747,-10.91554327,
3272000000,-1.387785306,28.81113541,-10.82222342,
3276000000,-1.345529629,28.96340663,-10.80518341,
3280000000,-1.575253977,28.96469977,-10.63766858,
3284000000,-1.535791138,29.04849389,-10.50298275,
3288000000,-1.639594409,29.11074918,-10.5778475,
3292000000,-1.784451715,29.15330285,-10.66403488,
3296000000,-1.848159807,29.22545705,-10.57711636,
3300000000,-1.964212317,29.24255423,-10.7816402,
3304000000,-2.110864174,29.26711847,-11.23519589,
3308000000,-2.20007303,29.27136845,-11.1107622,
3312000000,-2.362903046,29.2956125,-11.777749,
3316000000,-2.583353151,29.27984733,-12.3563789,
3320000000,-2.795923302,29.27084052,-12.70545875,
3324000000,-2.937884595,29.24494219,-13.27282139,
3328000000,-3.421170337,29.18989486,-11.7570118,
3332000000,-3.287168411,29.12784146,-14.56442271,
3336000000,-3.50555413,29.04824173,-15.43156878,
3340000000,-3.750660442,28.98708605,-15.85830321,
3344000000,-3.791269238,28.91974539,-17.11100788,
3348000000,-4.1518585,28.83544539,-17.70836638,
3352000000,-4.291460798,28.75507472,-18.82712484,
3356000000,-4.365464293,28.67807319,-20.85413304,
3360000000,-4.430209139,28.55689272,-23.65134927,
3364000000,-4.733403101,28.4636818,-28.93011435,
3368000000,-4.841486863,28.36373646,-46.56957428,
3372000000,-4.996647035,28.26998186,-30.16296938,
3376000000,-5.073383509,28.14079041,-23.46700376,
3380000000,-5.200681062,28.02458396,-20.91268709,
3384000000,-5.186999807,27.93484645,-18.34885091,
3388000000,-5.209215393,27.8269462,-16.06633211,
3392000000,-5.220542272,27.73420015,-15.25615528,
3396000000,-5.249161854,27.81976653,-13.12166062,
3400000000,-5.102266022,27.59801195,-13.66918238,
3404000000,-5.134130578,27.52845632,-13.1106092,
3408000000,-5.109574647,27.47396553,-12.95662532,
3412000000,-5.15948626,27.33091165,-9.431452619,
3416000000,-4.872110805,27.39067414,-12.08688706,
3420000000,-4.744777443,27.37043724,-11.92872511,
3424000000,-4.666720766,27.35405525,-11.72303779,
3428000000,-4.515381713,27.34287429,-11.39068915,
3432000000,-4.442215806,27.3299722,-11.19132631,
3436000000,-4.275709968,27.34326798,-10.72537838,
3440000000,-4.169257693,27.35360285,-10.44744507,
3444000000,-3.99248361,27.36193,-10.20992483,
3448000000,-3.96313781,27.37145784,-10.08335522,
3452000000,-3.754536466,27.39345493,-9.841417215,
3456000000,-3.66127077,27.41166653,-9.885071911,
3460000000,-3.527795105,27.44479587,-9.918116616,
3464000000,-3.363463058,27.47505257,-9.819148379,
3468000000,-3.293050581,27.52786887,-10.17823092,
3472000000,-3.263127799,27.59667661,-10.32771662,
3476000000,-3.103230086,27.64493241,-10.47948476,
3480000000,-2.984861209,27.67888859,-10.62352028,
3484000000,-2.898381028,27.69581827,-10.84623783,
3488000000,-2.818780128,27.72453882,-11.02804681,
3492000000,-2.685984079,27.73669675,-10.98098811,
3496000000,-2.682578,27.77151016,-11.3201483,
3500000000,-2.536336982,27.78313441,-10.87497927,
3504000000,-2.474671032,27.85096,-11.08115498,
3508000000,-2.405972513,27.86987464,-11.20239764,
3512000000,-2.298485727,27.91345744,-11.33066516,
3516000000,-2.2499824,27.98544904,-12.39940852,
3520000000,-2.431879527,28.02251661,-11.5283378,
3524000000,-2.203603487,27.9960958,-11.64841769,
3528000000,-2.103622155,28.04094064,-11.7757349,
3532000000,-2.033065626,28.10030598,-12.3484847,
3536000000,-1.939141232,28.16399338,-10.03293912,
3540000000,-1.970034795,28.17404466,-13.09873366,
3544000000,-1.911855026,28.21548292,-13.86717471,
3548000000,-1.899949276,28.25781438,-14.1661795,
3552000000,-1.862911498,28.28976468,-14.8741577,
3556000000,-1.825476119,28.31983847,-15.55159973,
3560000000,-1.762663933,28.34524266,-16.2521337,
3564000000,-1.783580924,28.36818741,-17.22788231,
3568000000,-1.78608902,28.38994199,-18.00645064,
3572000000,-1.803805659,28.41639618,-18.71321966,
3576000000,-1.820288045,28.45076877,-20.02187768,
3580000000,-1.868153302,28.49340805,-20.39044935,
3584000000,-1.954922368,28.5059933,-21.92343174,
3588000000,-1.946637809,28.56551997,-22.35071692,
3592000000,-2.003034072,28.59494672,-22.61846965,
3596000000,-2.036869016,28.63201368,-22.42722256,
