Frequency,S11_Magnitude,S21_Magnitude,S22_Magnitude,
10000000,15.6657403,45.95608317,13.75687342,
11980000,-19.8275258,40.39173272,-20.06676216,
13960000,-18.7246243,40.34108215,-29.75121367,
15940000,-19.28875848,40.32796628,-33.75949371,
17920000,-19.12143764,40.41870805,-19.33320724,
19900000,-21.01224177,40.33942784,-26.55208094,
21880000,-21.93274498,40.3702152,-26.96642037,
23860000,-21.83998868,40.42516399,-22.28841106,
25840000,-21.58708182,40.42406797,-28.23906233,
27820000,-22.604941,40.43155283,-28.29515877,
29800000,-21.03633732,40.50695881,-27.84983302,
31780000,-22.31423647,40.39397309,-28.83258681,
33760000,-27.25148414,40.40308696,-37.99265559,
35740000,-20.34006528,40.3603434,-26.26227737,
37720000,-22.92761279,40.35430661,-36.5379186,
39700000,-20.08998899,40.33978518,-25.11229589,
41680000,-22.02358159,40.33639884,-28.23539045,
43660000,-22.84856121,40.31232396,-31.37631694,
45640000,-21.27319341,40.30866292,-26.0688001,
47620000,-23.51376752,40.33708635,-30.62937635,
49600000,-19.54647891,40.46829374,-22.65667688,
51580000,-22.19426626,40.31514166,-29.47948883,
53560000,-21.43617161,40.3382894,-22.96760927,
55540000,-25.7249298,40.30099252,-47.53592528,
57520000,-22.31653462,40.30062927,-33.09437486,
59500000,-22.77782661,40.35385702,-26.57695725,
61480000,-23.59238123,40.26801184,-32.05281855,
63460000,-22.78635343,40.3038802,-33.62468213,
65440000,-21.77714764,40.32074426,-26.82101782,
67420000,-21.14736759,40.35208244,-23.85584655,
69400000,-22.95277425,40.33290276,-33.90850464,
71380000,-21.45457581,40.34760747,-26.90587258,
73360000,-21.088298,40.34674118,-28.36618271,
75340000,-21.55688016,40.35651358,-31.16429328,
77320000,-20.18748992,40.35842837,-24.67166079,
79300000,-21.28336003,40.35823178,-28.79484042,
81280000,-20.38854406,40.36033643,-24.77304244,
83260000,-21.36537537,40.38473929,-29.07372929,
85240000,-23.04321789,40.40436862,-31.41231913,
87220000,-23.18272354,40.41402181,-32.89193182,
89200000,-22.83188024,40.37606207,-33.99898321,
91180000,-22.40161232,40.40737893,-29.31591895,
93160000,-21.34569186,40.40410313,-28.05407868,
95140000,-20.89689297,40.40695915,-24.63665547,
97120000,-20.61226476,40.40476344,-24.6182316,
99100000,-21.99630046,40.4041956,-28.76443559,
101080000,-22.07223252,40.41149019,-30.75045038,
103060000,-22.09283532,40.41813058,-28.70580645,
105040000,-21.61210649,40.41081874,-26.06775742,
107020000,-20.70550085,40.39467721,-24.66602321,
109000000,-21.82057035,40.43305148,-27.76449272,
110980000,-21.44504928,40.40280863,-27.93407691,
112960000,-21.46259235,40.39818514,-26.65935212,
114940000,-21.43156534,40.43419339,-27.1575905,
116920000,-21.66392794,40.43723439,-26.45343148,
118900000,-21.97463813,40.43513016,-28.20950627,
120880000,-20.74883857,40.42571986,-24.52072531,
122860000,-21.62734139,40.42679988,-27.9338613,
124840000,-21.76339464,40.43932914,-26.00769796,
126820000,-22.82041506,40.44086106,-26.50559202,
128800000,-20.6578,40.42943921,-25.20880445,
130780000,-22.04382867,40.44650644,-28.81709274,
132760000,-21.03152898,40.45225356,-23.10380423,
134740000,-21.45069672,40.42134069,-28.94877599,
136720000,-20.20777211,40.45884881,-22.41496073,
138700000,-21.09348196,40.45064616,-23.8903231,
140680000,-21.07100829,40.44607448,-26.15364426,
142660000,-20.15342265,40.46416508,-24.47690977,
144640000,-20.47217765,40.47928206,-22.03887454,
146620000,-20.6157108,40.48819142,-23.15071728,
148600000,-20.84381011,40.44964192,-24.48239039,
150580000,-21.27092123,40.49811095,-24.98906572,
152560000,-20.19353667,40.4804757,-20.38019922,
154540000,-20.31398211,40.48668912,-24.59865879,
156520000,-20.90047009,40.49921331,-25.10184688,
158500000,-21.16893925,40.48113717,-23.87701355,
160480000,-21.38582119,40.49451603,-25.42152812,
162460000,-22.1599481,40.50110273,-26.15043967,
164440000,-20.91623264,40.49160047,-29.58963447,
166420000,-21.77973794,40.52619316,-25.44168547,
168400000,-19.37974411,40.51147035,-23.21199862,
170380000,-20.85195719,40.51624093,-26.19502432,
172360000,-21.09522665,40.49949423,-25.0160872,
174340000,-21.75527421,40.51550093,-24.96566085,
176320000,-21.03958732,40.5167854,-24.84680645,
178300000,-20.24288373,40.51412952,-22.87358611,
180280000,-20.08871449,40.5459378,-24.89304438,
182260000,-20.35357757,40.52819939,-34.43300068,
184240000,-20.49296584,40.5502472,-24.05168917,
186220000,-21.62132818,40.52350242,-26.52014893,
188200000,-19.81679109,40.5461403,-24.33199119,
190180000,-20.12456819,40.5479724,-24.91197482,
192160000,-20.65719093,40.53924525,-26.48666484,
194140000,-22.03200099,40.52116176,-28.50644854,
196120000,-19.77476841,40.53564274,-25.28588494,
198100000,-20.46263901,40.53849425,-23.65640061,
200080000,-20.08757453,40.53654299,-22.91210681,
202060000,-20.1728078,40.55450185,-22.9991441,
204040000,-21.11416665,40.52744202,-23.86780143,
206020000,-21.43538268,40.52097295,-24.66702912,
208000000,-21.20673661,40.54140022,-24.03667734,
209980000,-20.08065855,40.54810772,-24.77177921,
211960000,-18.36492807,40.56036245,-19.20675115,
213940000,-21.30118374,40.52168511,-21.53199604,
215920000,-19.0503703,40.53231706,-21.77172518,
217900000,-17.76654341,40.55535575,-21.79738817,
219880000,-21.4029259,40.52243867,-23.41661008,
221860000,-20.75808479,40.5272075,-22.03651086,
223840000,-20.00173104,40.53502356,-23.74677489,
225820000,-18.73687402,40.56098011,-22.88753245,
227800000,-19.79419135,40.52729449,-20.98377368,
229780000,-22.71442872,40.5222328,-25.87633881,
231760000,-18.68480952,40.55328806,-23.51736898,
233740000,-20.72737778,40.53004354,-24.78465744,
235720000,-19.2764643,40.56180979,-21.93146414,
237700000,-18.9057149,40.52186281,-19.55122201,
239680000,-21.4100505,40.53708445,-22.77048442,
241660000,-19.28204296,40.5496249,-22.24598387,
243640000,-17.80966678,40.56406328,-21.03332407,
245620000,-20.27348851,40.53944299,-22.36345586,
247600000,-18.84626587,40.52127356,-21.27037745,
249580000,-19.29937431,40.57022166,-23.39205171,
251560000,-19.09943938,40.52870783,-21.21790471,
253540000,-16.60966729,40.55213264,-18.69982564,
255520000,-16.67294446,40.54545231,-18.53977153,
257500000,-17.72740666,40.60182557,-21.83717455,
259480000,-19.24844619,40.5132935,-20.68994545,
261460000,-18.06181591,40.54543507,-21.24368997,
263440000,-17.28631913,40.5388783,-19.88289601,
265420000,-20.02385215,40.55817005,-21.69025277,
267400000,-17.85676303,40.55469081,-19.67001986,
269380000,-18.6366855,40.57020724,-21.13825526,
271360000,-22.18743701,40.58534301,-25.62529775,
273340000,-18.68248264,40.58482464,-21.8513097,
275320000,-17.70179361,40.57020602,-20.37423837,
277300000,-21.15358302,40.60332833,-24.46415457,
279280000,-18.04318611,40.60904724,-20.94572507,
281260000,-19.95676687,40.56144976,-21.00057625,
283240000,-17.96585112,40.56303189,-19.61918017,
285220000,-18.00166913,40.5559607,-19.36152364,
287200000,-19.89463537,40.60141278,-22.57160695,
289180000,-18.22662344,40.57609204,-20.47886997,
291160000,-19.67952312,40.58947523,-22.29897964,
293140000,-19.61253829,40.62166101,-23.32427141,
295120000,-19.37068052,40.55660843,-19.43915341,
297100000,-17.64436717,40.57755041,-19.64434398,
299080000,-17.22545008,40.57008319,-19.83568633,
301060000,-18.06072,40.56906038,-19.48866451,
303040000,-18.12291611,40.55620244,-19.18701849,
305020000,-18.52220131,40.57409153,-20.80398422,
307000000,-18.88639052,40.5916237,-20.61587831,
308980000,-18.05701726,40.59789083,-19.92446567,
310960000,-20.590941,40.63914984,-21.92768191,
312940000,-18.0350412,40.60959992,-19.65305958,
314920000,-19.75223368,40.62823585,-21.25478964,
316900000,-17.78733821,40.60215589,-19.27219022,
318880000,-19.2505569,40.62359171,-21.46580714,
320860000,-17.12684549,40.60480893,-18.5856632,
322840000,-16.26842248,40.57220683,-16.95950986,
324820000,-17.00804914,40.61064154,-19.34993656,
326800000,-18.35015974,40.64614358,-20.09660361,
328780000,-17.75734644,40.61377246,-18.70694932,
330760000,-15.90898349,40.61032319,-17.69752733,
332740000,-16.6095251,40.5959329,-18.30674483,
334720000,-16.43275614,40.61019248,-17.80325382,
336700000,-17.78666857,40.60594561,-20.03879534,
338680000,-18.55846382,40.65532004,-19.89044407,
340660000,-17.15457706,40.62480323,-18.31216951,
342640000,-17.47882891,40.65871296,-19.07895338,
344620000,-18.13158868,40.66402614,-18.90984389,
346600000,-18.0063382,40.68293449,-19.07287488,
348580000,-18.38565812,40.63291927,-19.44623134,
350560000,-17.55146676,40.67179313,-19.10485709,
352540000,-18.08440612,40.64186112,-19.55935247,
354520000,-16.89060079,40.64724686,-18.99242982,
356500000,-16.93303079,40.68745015,-18.8808921,
358480000,-17.28217607,40.70086533,-19.117624,
360460000,-15.57041836,40.67904004,-16.92978909,
362440000,-18.34848968,40.70392545,-21.10316436,
364420000,-18.00408107,40.71584935,-20.29155936,
366400000,-18.40324573,40.73602694,-20.77703206,
368380000,-18.15286528,40.72772683,-21.19859775,
370360000,-18.13907624,40.73585203,-20.61030618,
372340000,-16.5059492,40.73617031,-17.98552522,
374320000,-17.76991746,40.75013731,-19.59585212,
376300000,-18.76250256,40.75646031,-20.97271855,
378280000,-17.24890127,40.75507278,-17.91502807,
380260000,-18.17605155,40.74974345,-19.43737022,
382240000,-18.55829008,40.74374619,-20.05539568,
384220000,-17.24543158,40.71947513,-19.07197861,
386200000,-18.12937742,40.72148718,-20.44509025,
388180000,-18.45696371,40.75104502,-20.3141028,
390160000,-19.01290498,40.71923895,-21.99937095,
392140000,-21.15612683,40.71780303,-25.71995749,
394120000,-18.80107087,40.78328654,-20.85988596,
396100000,-18.89979689,40.74439853,-20.96117341,
398080000,-18.293038,40.76271385,-19.96603147,
400060000,-18.14778469,40.75207053,-20.13516134,
402040000,-17.43897613,40.76820532,-18.34386424,
404020000,-18.60557007,40.74382264,-19.19715588,
406000000,-16.83788336,40.78012676,-17.37521795,
407980000,-17.84155761,40.74522441,-19.38628521,
409960000,-17.72870977,40.73616934,-18.77134408,
411940000,-18.39897351,40.7277672,-19.05973316,
413920000,-18.26989503,40.73900958,-19.0968216,
415900000,-18.84769405,40.73551751,-20.77932325,
417880000,-17.33682247,40.71911145,-18.79692264,
419860000,-18.92775802,40.75135683,-20.11679799,
421840000,-17.96146375,40.73824424,-18.93913598,
423820000,-19.01736891,40.72413457,-19.46478657,
425800000,-17.82071618,40.70690533,-18.97767629,
427780000,-18.89101346,40.69549318,-20.67105805,
429760000,-17.94846808,40.70552294,-18.69403333,
431740000,-19.37907781,40.68640501,-21.79305913,
433720000,-18.79048183,40.68324592,-20.25836901,
435700000,-18.98461769,40.67469452,-19.64553508,
437680000,-19.30822101,40.67064328,-20.47555375,
439660000,-18.65090753,40.68256085,-19.35530898,
441640000,-18.26040571,40.67146942,-20.13505767,
443620000,-18.82165032,40.6614818,-21.16520295,
445600000,-18.68837886,40.64984494,-21.61953557,
447580000,-18.74093402,40.64890012,-20.70284265,
449560000,-17.96690455,40.6685534,-20.11480765,
451540000,-18.6024156,40.64848222,-21.01799481,
453520000,-18.72921984,40.66445682,-20.10816824,
455500000,-18.59329832,40.64041653,-20.38938714,
457480000,-17.98538174,40.65679742,-19.7356432,
459460000,-19.27059958,40.60202885,-20.65348108,
461440000,-17.6106856,40.59154533,-18.27570094,
463420000,-18.27539179,40.64797424,-19.5765824,
465400000,-18.27120211,40.63819065,-21.84419699,
467380000,-18.87632653,40.58969387,-18.95668273,
469360000,-17.8834669,40.62816027,-19.63491242,
471340000,-17.14054835,40.59983563,-19.15385344,
473320000,-18.83473746,40.57607411,-20.58505302,
475300000,-17.7660384,40.59624431,-22.65428511,
477280000,-17.84603719,40.62132456,-21.45209675,
479260000,-18.18583628,40.58024624,-19.54357726,
481240000,-18.20170172,40.55548444,-20.12970354,
483220000,-19.99057397,40.58847416,-23.70354224,
485200000,-18.83874033,40.5770999,-21.12650275,
487180000,-17.76061811,40.59166564,-20.23395461,
489160000,-18.05789779,40.5979334,-21.12670525,
491140000,-20.10929285,40.56093235,-21.80357574,
493120000,-18.69425988,40.60881192,-21.56063834,
495100000,-18.08630139,40.52757781,-20.617566,
497080000,-18.65500297,40.57899601,-20.6427392,
499060000,-19.36906675,40.58228624,-21.88184392,
501040000,-18.12051837,40.55623176,-18.19985242,
503020000,-16.42927405,40.6039071,-18.06227839,
505000000,-18.8078706,40.57206759,-20.08289615,
506980000,-16.94722405,40.62915653,-19.87304824,
508960000,-18.27309861,40.56966515,-20.36340628,
510940000,-18.29713049,40.60277384,-19.49987824,
512920000,-18.68415831,40.58521354,-19.93036606,
514900000,-17.94926907,40.55854735,-18.37546418,
516880000,-17.65600432,40.56645282,-20.93897563,
518860000,-17.88674877,40.55312765,-22.25479072,
520840000,-20.21878893,40.56973637,-21.64116426,
522820000,-17.98511065,40.55571319,-20.35365241,
524800000,-20.51148734,40.59975357,-19.33256984,
526780000,-17.05349263,40.50040224,-18.10412628,
528760000,-16.43074116,40.48979644,-18.25355663,
530740000,-17.81756583,40.5373312,-20.79680487,
532720000,-18.82220541,40.52716588,-21.56452159,
534700000,-20.04966577,40.51726099,-20.30847595,
536680000,-18.07678134,40.49167954,-19.13178041,
538660000,-17.76552512,40.49932634,-19.94619743,
540640000,-17.86581356,40.46616575,-18.93294295,
542620000,-17.56631226,40.4551848,-19.23166364,
544600000,-17.9717332,40.47702105,-19.94576206,
546580000,-15.83996079,40.46844272,-18.92392997,
548560000,-19.39859503,40.50531757,-20.43922815,
550540000,-20.6551573,40.50697112,-22.26115309,
552520000,-18.38205045,40.45148634,-19.52953279,
554500000,-20.65458457,40.514481,-21.79216929,
556480000,-18.80635763,40.50798966,-22.41509918,
558460000,-14.64647112,40.42516572,-17.61737604,
560440000,-16.39914246,40.4630255,-20.41812029,
562420000,-16.25034223,40.43631972,-18.98544814,
564400000,-16.88781724,40.2422204,-19.65726652,
566380000,-21.84801078,40.50766564,-24.84034937,
568360000,-17.72941122,40.47184736,-22.41921883,
570340000,-18.21398597,40.47609357,-22.48411167,
572320000,-15.93173335,40.42299401,-20.00467304,
574300000,-17.43154341,40.49384586,-20.71051912,
576280000,-19.24624749,40.48601085,-24.01517581,
578260000,-18.66150787,40.50069095,-21.92448609,
580240000,-16.81661981,40.46968019,-19.38378127,
582220000,-16.67942725,40.46616848,-21.07556187,
584200000,-17.16470978,40.48976696,-21.13493657,
586180000,-19.58808412,40.54681379,-23.67340454,
588160000,-17.71148955,40.47409783,-21.70156222,
590140000,-16.69607614,40.49629154,-18.88724511,
592120000,-16.46666773,40.50641224,-20.32898589,
594100000,-18.51293887,40.49677291,-23.39525207,
596080000,-20.58151071,40.51789693,-24.85045315,
598060000,-23.61663886,40.55730803,-23.25485275,
600040000,-16.97165165,40.47033136,-20.697572,
602020000,-19.07075063,40.48421048,-22.50839145,
604000000,-17.333273,40.44811888,-22.11541038,
605980000,-18.2688544,40.50848692,-20.71623082,
607960000,-19.66744671,40.4866579,-23.81139483,
609940000,-18.29173526,40.46762844,-21.25782258,
611920000,-17.3505277,40.43366898,-21.29601011,
613900000,-18.99876035,40.47414377,-21.89720462,
615880000,-18.87422965,40.45224884,-20.87593763,
617860000,-21.15579056,40.45152755,-23.98797495,
619840000,-18.033815,40.40369605,-22.08958841,
621820000,-17.1036036,40.40842479,-21.08514734,
623800000,-17.18782908,40.4120749,-19.90045519,
625780000,-17.64991718,40.38224799,-20.64187333,
627760000,-17.5317143,40.40758627,-19.41284317,
629740000,-23.01487576,40.4102024,-24.66643807,
631720000,-16.80762879,40.40412461,-19.49655538,
633700000,-19.39523263,40.36981575,-24.74528306,
635680000,-19.07002348,40.35099934,-22.77305921,
637660000,-19.3893455,40.36707082,-22.17544288,
639640000,-18.20391633,40.32981796,-23.54728739,
641620000,-17.6429442,40.31497408,-22.41714202,
643600000,-17.14106947,40.32286505,-21.55048392,
645580000,-17.51730293,40.29702147,-21.79104085,
647560000,-19.65875206,40.29517793,-24.82897307,
649540000,-19.52487069,40.30037754,-25.23897348,
651520000,-20.69743828,40.26022137,-25.81925407,
653500000,-16.9241318,40.28691677,-22.28822139,
655480000,-17.87944582,40.22285859,-24.09804174,
657460000,-20.53858315,40.23762579,-29.05358772,
659440000,-16.7784114,40.21055262,-22.50112833,
661420000,-17.56543132,40.23962889,-22.42967474,
663400000,-20.24977728,40.22374303,-25.9555681,
665380000,-20.32693694,40.1813826,-30.45537047,
667360000,-20.29600179,40.20342803,-28.04394249,
669340000,-17.17005999,40.22098056,-22.88732272,
671320000,-17.32428019,40.22140202,-22.88109065,
673300000,-18.40196844,40.20723591,-26.01411409,
675280000,-20.06795615,40.2016461,-27.73690722,
677260000,-18.31247391,40.21842073,-24.07351717,
679240000,-19.58738098,40.20408811,-29.56676928,
681220000,-18.76268686,40.17736775,-28.2475823,
683200000,-18.73704451,40.18901594,-27.48725446,
685180000,-18.90025901,40.20505274,-24.23572209,
687160000,-17.81577365,40.19010777,-25.11561815,
689140000,-17.9790534,40.2020638,-25.12366749,
691120000,-17.44521113,40.20889711,-23.11056159,
693100000,-20.29139639,40.17649682,-27.69448766,
695080000,-17.67669854,40.16629364,-24.28386182,
697060000,-21.25417476,40.14703086,-31.92671693,
699040000,-18.57304675,40.13406639,-28.32990398,
701020000,-21.58644851,40.10875826,-55.03365871,
703000000,-20.19513132,40.12778389,-34.2810592,
704980000,-18.8350888,40.10683309,-27.01798139,
706960000,-18.96017291,40.09816637,-30.81556252,
708940000,-17.88492163,40.1364365,-25.34319353,
710920000,-19.36363622,40.09120703,-31.96407884,
712900000,-17.02722092,40.07266216,-24.64433747,
714880000,-19.1006305,40.09265381,-27.43747176,
716860000,-19.783807,40.04483864,-36.56759409,
718840000,-19.72863892,40.00476277,-33.14272187,
720820000,-17.66286883,40.05655768,-25.42761626,
722800000,-17.71477877,40.0639302,-25.86989502,
724780000,-19.55682201,40.02443658,-34.44779683,
726760000,-19.02718606,39.99860523,-32.27407243,
728740000,-18.08071948,39.98639608,-25.89466655,
730720000,-17.68905657,39.98469924,-26.34368224,
732700000,-18.84848073,39.95923206,-26.56912757,
734680000,-17.56247306,40.01023568,-24.59804741,
736660000,-17.92494381,39.9809378,-26.71042414,
738640000,-18.79248074,39.96479958,-31.80863561,
740620000,-17.60449162,39.96862095,-26.63469322,
742600000,-16.2942614,39.92387781,-23.49510577,
744580000,-18.09852449,39.94620133,-28.85940909,
746560000,-17.71932477,39.92798162,-27.07733542,
748540000,-17.9664658,39.92943132,-29.94745049,
750520000,-18.33555344,39.90899829,-29.56084976,
752500000,-17.67424706,39.92020625,-24.70565442,
754480000,-17.2264655,39.90727053,-27.2274646,
756460000,-18.20060915,39.90879521,-28.00844139,
758440000,-17.73434117,39.87732594,-29.80241085,
760420000,-17.71143823,39.876456,-30.77490702,
762400000,-17.71585572,39.88138992,-30.76485293,
764380000,-18.87197528,39.84292976,-33.40465477,
766360000,-17.92985421,39.87709118,-31.28435811,
768340000,-17.89815502,39.8716784,-30.04413235,
770320000,-17.3420405,39.85743637,-28.17253304,
772300000,-18.89357382,39.85411523,-33.46975165,
774280000,-19.07953074,39.84005096,-34.88177891,
776260000,-16.76090378,39.84161686,-27.54291173,
778240000,-18.12765301,39.83052606,-32.52409396,
780220000,-18.13369655,39.83074994,-39.00177533,
782200000,-17.45841653,39.85045435,-32.09351539,
784180000,-17.8203628,39.84380303,-34.26997532,
786160000,-17.37709016,39.81064039,-26.97061348,
788140000,-18.14697185,39.80725609,-33.44427879,
790120000,-17.41665547,39.81459263,-30.12245742,
792100000,-17.50883369,39.80466936,-31.14780649,
794080000,-17.40156185,39.78968149,-29.39806449,
796060000,-17.49408579,39.79037846,-32.41522732,
798040000,-16.60191287,39.77852926,-26.16205962,
800020000,-16.52632106,39.7777347,-25.50412054,
802000000,-17.33484554,39.76772326,-30.09632034,
803980000,-16.64757658,39.77143422,-26.68488708,
805960000,-17.85090836,39.75954661,-33.99255841,
807940000,-17.09846419,39.76046147,-26.60921177,
809920000,-17.09980319,39.74729519,-28.14313419,
811900000,-17.78815155,39.76496363,-29.7300366,
813880000,-17.43807943,39.72656466,-29.77084358,
815860000,-18.01152367,39.68985544,-31.37429299,
817840000,-17.15593506,39.68966615,-28.23585514,
819820000,-18.27109211,39.68912701,-32.14660397,
