Frequency,S11_Magnitude,S12_Magnitude,S21_Magnitude,S22_Magnitude,
1000000,0.1117003021,-39.62377654,-38.97170435,-0.05600346163,
2997002,0.6954879562,-58.68337777,-48.38287869,0.6004474845,
4994005,0.4831791573,-60.25215075,-53.38481432,0.4188494475,
6991008,0.05178757543,-54.44248416,-52.12567007,0.01373441622,
8988011,0.07922590474,-58.06583916,-53.58952205,0.05076492465,
10985014,0.05809988841,-57.4767423,-51.43142438,0.05425447405,
12982017,0.03010910266,-59.20085412,-66.85574184,-0.01615154186,
14979020,0.05402192091,-56.20254127,-67.40655399,0.02818006254,
16976023,0.05676861102,-53.20168191,-59.62424481,0.04941333898,
18973026,0.05197861966,-53.56669054,-57.61598373,0.02610795705,
20970029,0.05852160082,-58.79794977,-58.89208982,0.04515171138,
22967032,0.06070317336,-66.94846868,-56.9399723,0.04764958948,
24964035,0.02756288539,-58.36201509,-62.04332618,0.03021910257,
26961038,0.04771933942,-62.49859694,-54.64603439,0.04834798007,
28958041,0.06443180649,-55.16731509,-63.52456005,0.04747847452,
30955044,0.05685442932,-60.1801098,-68.27029319,0.02401307004,
32952047,0.06581232414,-65.12014054,-54.98559686,0.04918713066,
34949050,0.06035170811,-58.34697035,-57.93367832,0.046161873,
36946053,0.05108571852,-59.04634782,-61.63160672,0.02118397094,
38943056,0.05938234132,-56.8861763,-59.61364357,0.05329030138,
40940059,0.05932848421,-62.60632576,-64.85174693,0.05864848169,
42937062,0.04042012953,-63.71769827,-65.55189268,0.01912143969,
44934065,0.04984648725,-68.69230854,-59.96026259,0.05590951931,
46931068,0.0595620918,-60.15867037,-80.51282172,0.05798682037,
48928071,0.02452065492,-62.34432588,-58.93673319,0.02816447282,
50925074,0.04702261321,-67.41227579,-69.2304085,0.05108330992,
52922077,0.04043927801,-70.47903518,-79.38851469,0.0525923566,
54919080,0.02288593777,-67.04771577,-66.5999684,0.0109270303,
56916083,0.05026064989,-56.61929753,-70.59509954,0.03260478856,
58913086,0.0414244021,-63.35089822,-75.61489589,0.05078794415,
60910089,0.02078878297,-58.51069433,-60.6272205,0.02425408033,
62907092,0.04360221833,-60.02680277,-84.4165952,0.03957303651,
64904095,0.05375577516,-61.12422943,-58.22165722,0.04865549488,
66901098,0.04302311845,-67.73512648,-61.98821007,0.02546655044,
68898101,0.05811558927,-52.94726336,-59.42861389,0.03207484943,
70895104,0.05694814076,-56.37786126,-62.64831934,0.04138979145,
72892107,0.03753548164,-58.575932,-62.73198575,0.01741277418,
74889110,0.06970338022,-58.61915209,-58.95120392,0.03545028265,
76886113,0.05310139403,-68.7363901,-66.48870305,0.04432446383,
78883116,0.04860334415,-54.81855429,-67.625925,0.01008093289,
80880119,0.05696131362,-68.73465904,-64.33704173,0.04714917828,
82877122,0.0643355705,-59.83738519,-76.3018766,0.03714530217,
84874125,0.04876793121,-61.78089057,-62.80010169,0.005333427678,
86871128,0.06805519809,-67.78506142,-61.40461621,0.03070947793,
88868131,0.05607718758,-60.81460784,-62.05509409,0.01751066389,
90865134,0.04492762094,-64.57783926,-66.99227176,-0.008223853718,
92862137,0.05615676604,-59.98426752,-57.40590494,0.0243650655,
94859140,0.0607530026,-79.61928851,-59.91156143,0.01004329755,
96856143,0.04333065595,-65.78106287,-54.51848405,-0.01294875893,
98853146,0.06079575575,-63.28900225,-61.72628689,0.01466680877,
100850149,0.04679487739,-58.82705271,-55.58915348,-0.002687072564,
102847152,0.03012328108,-57.49892447,-63.44009297,-0.02681315448,
104844155,0.05897350858,-62.24151274,-69.41333917,-0.0002097496311,
106841158,0.05098656701,-60.09050079,-53.99357141,-0.006446143263,
108838161,0.03120632897,-56.02018275,-57.69842485,-0.03467539088,
110835164,0.0458449882,-55.07163245,-57.80521073,-0.01389419348,
112832167,0.04694335828,-61.26759033,-64.15039032,-0.02546681464,
114829170,0.03353021978,-61.46442624,-58.23425712,-0.05957002486,
116826173,0.04695842874,-72.91705827,-59.99759379,-0.02840512533,
118823176,0.04560795117,-61.24933555,-66.61162522,-0.03396424651,
120820179,0.03660511907,-56.28436462,-65.03735859,-0.06547489322,
122817182,0.04808824174,-64.41296354,-63.26091492,-0.03496875477,
124814185,0.04531469683,-63.54905145,-54.9598265,-0.04056070079,
126811188,0.0288241179,-63.14534952,-58.34433502,-0.07000507601,
128808191,0.04823224421,-53.26862801,-57.75357812,-0.05564680721,
130805194,0.04550404814,-56.77480706,-73.41403394,-0.04402402402,
132802197,0.02442930495,-70.27307513,-62.62711222,-0.07716274678,
134799200,0.04093028371,-74.0049843,-62.96890902,-0.06044608475,
136796203,0.03616046686,-58.92908992,-58.32502566,-0.06842423385,
138793206,0.02189611319,-62.35352852,-61.42651027,-0.08729331272,
140790209,0.03878346366,-60.15610211,-70.15313444,-0.07586002245,
142787212,0.02999064774,-58.43288063,-51.6675376,-0.08242979771,
144784215,0.01408899472,-78.73219903,-58.17055759,-0.09917275543,
146781218,0.03680490211,-58.49387778,-59.56269884,-0.08614876245,
148778221,0.03393133733,-56.72884094,-62.51406492,-0.08245133288,
150775224,0.007694795919,-71.12361378,-69.11776291,-0.1240304237,
152772227,0.02987262687,-60.2531275,-67.68647516,-0.09703064104,
154769230,0.0466199261,-60.71942727,-66.09174847,-0.08229100282,
156766233,0.02230914354,-54.58546423,-61.32698022,-0.1119628236,
158763236,0.03072543596,-61.34823402,-56.17478906,-0.105606742,
160760239,0.04112819312,-58.32353249,-55.76334892,-0.0965378368,
162757242,0.02465243824,-56.26493877,-61.86340364,-0.1247134509,
164754245,0.03224386409,-58.82033117,-57.89413888,-0.1086238973,
166751248,0.0421633855,-61.54348374,-57.663674,-0.1116736953,
168748251,0.01659285946,-63.45881616,-54.16732921,-0.1371250454,
170745254,0.03571135859,-59.69170883,-60.33803714,-0.1170823211,
172742257,0.03681817178,-57.78030326,-76.63547302,-0.1156531535,
174739260,0.02387486312,-58.74295011,-51.27926135,-0.1284581981,
176736263,0.0354696905,-76.12454684,-56.47392052,-0.1237614753,
178733266,0.04105976158,-63.0139541,-57.69908704,-0.1142854501,
180730269,0.02282664974,-81.51134733,-66.66345945,-0.148784549,
182727272,0.03825819787,-72.98101354,-60.11912347,-0.1160471188,
184724275,0.2383652494,-38.64007122,-41.86536253,-0.3393375867,
186721278,0.0243777732,-55.13012704,-51.59233076,-0.1522598728,
188718281,0.03886765461,-63.08692098,-52.12974332,-0.1351794734,
190715284,0.03563001202,-60.24239937,-52.97358951,-0.1251228551,
192712287,0.02480054637,-56.41850959,-53.74174493,-0.1564193903,
194709290,0.03828634249,-67.53723769,-56.70435394,-0.1266946134,
196706293,0.03681738127,-58.23417597,-53.52613963,-0.1401715704,
198703296,0.01254463276,-63.7212522,-52.446459,-0.1756486397,
200700299,0.04609173677,-49.71381791,-55.21803142,-0.2048754941,
202697302,0.04078481565,-68.49571174,-51.99668622,-0.1385690553,
204694305,0.01979534143,-61.28743484,-60.87766223,-0.1772820931,
206691308,0.03863616671,-63.01743137,-57.1128548,-0.1334971281,
208688311,0.03188428031,-57.88188311,-51.96766171,-0.1392054672,
210685314,0.02495153258,-63.34825177,-47.03124892,-0.1789420691,
212682317,0.03888524743,-58.52395243,-55.62902671,-0.1628483607,
214679320,0.03820133673,-63.44542708,-62.82656479,-0.1521709003,
216676323,0.02089457591,-59.95250413,-50.94251958,-0.1941251885,
218673326,0.03876555154,-70.01092778,-54.17807136,-0.1563269996,
220670329,0.04282241301,-63.64085948,-57.9175653,-0.1657892854,
222667332,0.02353724539,-60.30280776,-51.79495999,-0.1993830396,
224664335,0.04801006123,-60.51992161,-45.44032784,-0.1786661163,
226661338,0.03986665615,-53.70089991,-47.23496769,-0.1749369789,
228658341,0.03030870188,-62.14215078,-46.63723573,-0.2076366982,
230655344,0.05120907176,-75.83765834,-66.00281784,-0.1808503096,
232652347,0.03028237658,-58.09184489,-54.21687796,-0.1934750711,
234649350,0.02322867891,-62.07354998,-52.92921663,-0.1966582565,
236646353,0.05296164022,-59.85218317,-56.73618316,-0.1906295025,
238643356,0.04567984142,-78.25481704,-49.98328649,-0.1824338155,
240640359,0.02788279142,-83.08773106,-52.91607423,-0.2100524442,
242637362,0.05156117135,-55.1887874,-46.92936418,-0.1946513111,
244634365,0.04406188633,-55.21273912,-47.87316439,-0.2064620813,
246631368,0.02066441177,-61.37752734,-52.52268568,-0.212744515,
248628371,0.04423013845,-55.06923709,-56.38863362,-0.2072601781,
250625374,0.03492984409,-53.57905541,-50.36120922,-0.1835469037,
252622377,0.03213017275,-59.87328667,-49.89931085,-0.2237167934,
254619380,0.05111645096,-57.91154288,-54.78172828,-0.2025467816,
256616383,0.05348788461,-62.42369766,-54.05249023,-0.2153773538,
258613386,0.02969452959,-59.30492883,-47.86721286,-0.2506172126,
260610389,0.04658747652,-74.50177321,-47.11035885,-0.2326362578,
262607392,0.0465711272,-58.99940959,-47.05176451,-0.2328376567,
264604395,0.03540390025,-66.13619031,-47.76127137,-0.2878912812,
266601398,0.04577443881,-62.03876126,-47.99441293,-0.2558013672,
268598401,0.05389351842,-61.69791878,-48.3742595,-0.2427377927,
270595404,0.04660435905,-77.21027152,-48.48411638,-0.2789847465,
272592407,0.04547022021,-66.01493518,-50.82528248,-0.2745640015,
274589410,0.05774303221,-60.59859459,-45.76517646,-0.2801769742,
276586413,0.05987144619,-66.46214185,-46.8464801,-0.3072076493,
278583416,0.05928433073,-58.00499674,-43.80217842,-0.2821236263,
280580419,0.06074641641,-67.5138523,-46.91285991,-0.289317492,
282577422,0.04041533121,-59.84989466,-48.10166208,-0.3135982363,
284574425,0.05749593458,-55.4074124,-48.74498627,-0.3097400331,
286571428,0.06016880835,-60.30672892,-52.47318304,-0.3252001236,
288568431,0.03783257372,-63.07229694,-47.7472039,-0.338220975,
290565434,0.05017997967,-60.38429671,-45.75123668,-0.3277974532,
292562437,0.05461533914,-59.93030983,-48.52189377,-0.3467036911,
294559440,0.05301588125,-74.63633723,-47.90019877,-0.3626089848,
296556443,0.06401672262,-59.00143514,-51.46361911,-0.3513859393,
298553446,0.07458505216,-61.9693997,-47.09990641,-0.3548517639,
300550449,0.04778011085,-64.83809733,-51.83666072,-0.3827442534,
302547452,0.05778755087,-58.85533021,-48.35016146,-0.3883347248,
304544455,0.06094573135,-56.16074041,-51.69504611,-0.4075096881,
306541458,0.03961891655,-63.24994162,-51.62017373,-0.4221470466,
308538461,0.06737739513,-63.1231694,-49.3798338,-0.4157054941,
310535464,0.07396210813,-57.71202769,-47.25785613,-0.4179115961,
312532467,0.0647175459,-59.21802808,-43.92802588,-0.445650349,
314529470,0.07672362594,-57.79343765,-46.10063016,-0.4379240361,
316526473,0.05180597532,-57.89870078,-51.61677208,-0.4516772429,
318523476,0.06509689351,-81.96041875,-52.783344,-0.4954144066,
320520479,0.07479410969,-61.06142447,-53.97972823,-0.4882011445,
322517482,0.07067844592,-51.43477948,-49.60795487,-0.4967308098,
324514485,0.06054761139,-52.69684841,-47.05095282,-0.5247807077,
326511488,0.07586787631,-57.69740197,-43.24160008,-0.5055118138,
328508491,0.07676904999,-56.21193915,-43.39742436,-0.5156379749,
330505494,0.06068316418,-58.22917048,-44.59325277,-0.5580315791,
332502497,0.07458310981,-58.01196182,-44.53405248,-0.5385733518,
334499500,0.06268149429,-64.01821101,-48.57616846,-0.5541296738,
336496503,0.05991948479,-66.44460245,-49.44596704,-0.5834694426,
338493506,0.06334626502,-65.80622029,-46.39035546,-0.5880627042,
340490509,0.07154270111,-58.72672708,-41.99631498,-0.6075558549,
342487512,0.04729431339,-52.40880789,-42.35813477,-0.6291270554,
344484515,0.07976173487,-53.51641639,-45.71909795,-0.6057601177,
346481518,0.06800932221,-77.53383427,-47.85454858,-0.6320508522,
348478521,0.0585838116,-68.6289415,-47.77410598,-0.6680544637,
350475524,0.07216259125,-64.74466301,-50.43909293,-0.6421778512,
352472527,0.07167181818,-61.09566796,-47.0382054,-0.6632929543,
354469530,0.04946231124,-65.60450133,-44.17300477,-0.6904174722,
356466533,0.05728101642,-59.30984049,-42.97534208,-0.6729914341,
358463536,0.07938833044,-57.66942009,-41.17288136,-0.6929625414,
360460539,0.05772726371,-62.87340384,-41.44997787,-0.7282946172,
362457542,0.06801445793,-72.78828302,-41.58441817,-0.7154973357,
364454545,0.07206101213,-55.28276445,-42.42312076,-0.7361269723,
366451548,0.05231310906,-64.12470507,-43.4216954,-0.7653359536,
368448551,0.07555426152,-58.61455203,-44.46711296,-0.7604441422,
370445554,0.07054227311,-67.08773956,-45.68252548,-0.7724478794,
372442557,0.06449521971,-59.28817789,-45.08554095,-0.8058614911,
374439560,0.07158529435,-60.97598425,-43.21841601,-0.7922860002,
376436563,0.06760746549,-63.5116989,-41.11849805,-0.812830064,
378433566,0.05306776784,-70.32153805,-43.83452333,-0.8338277778,
380430569,0.06538610711,-66.1887451,-41.32492499,-0.8204188975,
382427572,0.06571331628,-58.56484872,-41.46821471,-0.8299380417,
384424575,0.05960055359,-59.77351142,-39.23489818,-0.8520193811,
386421578,0.06272952711,-68.20914735,-40.30944549,-0.8563366164,
388418581,0.07006559237,-68.55593971,-39.85686135,-0.8660400366,
390415584,0.05983590959,-57.28580915,-39.28381956,-0.9127722743,
392412587,0.06831307897,-73.26434537,-39.05106946,-0.9010889747,
394409590,0.06952896519,-57.92608449,-39.67755127,-0.897520478,
396406593,0.05388378185,-55.41630932,-39.41847893,-0.9314345237,
398403596,0.0688548812,-76.22511382,-41.34232635,-0.9239025375,
400400599,0.06848012017,-61.67433867,-41.77645158,-0.9284421175,
402397602,0.05071490693,-58.6507713,-41.54552869,-0.9681319995,
404394605,0.06722905098,-54.49959905,-39.58479348,-0.9623701305,
406391608,0.06071662589,-62.2273704,-38.85976722,-0.9761578627,
408388611,0.05545419009,-64.36596463,-37.85823597,-0.9974982333,
410385614,0.07444086762,-60.07165198,-37.34965903,-0.9948284288,
412382617,0.06111371655,-57.5573177,-36.46444722,-1.004543236,
414379620,0.04769628415,-62.97853706,-35.95440763,-1.042566984,
416376623,0.04917402225,-73.36356681,-35.48000432,-1.033860489,
418373626,0.06290651373,-67.46084175,-35.23242819,-1.044344012,
420370629,0.0510955295,-56.44712698,-35.45970807,-1.080000406,
422367632,0.06541024139,-58.85624069,-35.21421544,-1.08764807,
424364635,0.06141141738,-64.73570961,-36.61785035,-1.095871968,
426361638,0.05329360793,-66.14130777,-36.87680446,-1.100493003,
428358641,0.06247358441,-60.87007161,-36.87382666,-1.098223865,
430355644,0.06093822131,-57.81595904,-36.39018279,-1.09875078,
432352647,0.0432979807,-60.66825071,-36.33784839,-1.121607955,
434349650,0.06308941374,-67.65286989,-36.17672371,-1.110347262,
436346653,0.06442598662,-52.50944664,-35.48259971,-1.116524771,
438343656,0.04134842086,-61.08547528,-35.1389343,-1.14628828,
440340659,0.04611389291,-60.06572147,-34.86461992,-1.162924237,
442337662,0.05701678073,-66.0739402,-33.52797523,-1.182869052,
444334665,0.04125092875,-61.05957949,-32.65732524,-1.215694938,
446331668,0.04990798336,-61.27220755,-32.01096622,-1.223827533,
448328671,0.05448203507,-65.08990349,-31.89890207,-1.219269965,
450325674,0.04955408432,-72.84174571,-31.4266955,-1.252666169,
452322677,0.0617563435,-56.9048388,-31.28169674,-1.252698982,
454319680,0.048823717,-64.58094224,-31.55783422,-1.235453978,
456316683,0.0335401235,-62.68764205,-31.46515192,-1.279167456,
458313686,0.05280534162,-67.29017323,-31.34886497,-1.264690509,
460310689,0.04780018811,-59.22779879,-31.24301989,-1.269973962,
462307692,0.02971928207,-56.71125871,-31.22067701,-1.298926177,
464304695,0.046670751,-69.9433289,-30.89509603,-1.292680034,
466301698,0.04633902914,-66.78655001,-30.79606364,-1.281514808,
468298701,0.04013000196,-54.97264559,-29.85259146,-1.33803178,
470295704,0.05405217349,-58.66851745,-29.44505357,-1.334752532,
472292707,0.04758323932,-63.4155957,-29.64916113,-1.344820982,
474289710,0.03572786986,-66.93427447,-29.39205336,-1.374735413,
476286713,0.04888402656,-51.54200404,-29.52166915,-1.377447777,
478283716,0.04273128672,-57.17480537,-29.32368631,-1.389927843,
480280719,0.02217433947,-53.65737727,-28.9374077,-1.419158895,
482277722,0.04012255378,-63.59552831,-28.63240569,-1.426349809,
484274725,0.03302522613,-58.57922873,-28.35904452,-1.435581861,
486271728,0.02896515103,-63.13203861,-28.06051968,-1.471173701,
488268731,0.04822475605,-78.31423268,-27.08349869,-1.459576585,
490265734,0.04781692271,-55.20538977,-26.67818006,-1.48339771,
492262737,0.03149161784,-55.23187821,-26.15833124,-1.500025069,
494259740,0.03500880059,-67.12624587,-25.69148166,-1.502818313,
496256743,0.04560468356,-55.86257064,-25.81186005,-1.516551603,
498253746,0.03849652843,-63.80656702,-25.6791048,-1.518851957,
500250749,0.06004789058,-56.40834076,-25.72748829,-1.542406063,
502247752,0.05933287014,-60.28593946,-25.66191742,-1.562019241,
504244755,0.04070605644,-57.70919259,-25.7975925,-1.597338784,
506241758,0.04734734025,-60.14001359,-25.72981604,-1.565499,
508238761,0.05079468873,-54.98376441,-26.00051007,-1.583720336,
510235764,0.03052075592,-59.47726694,-25.97421319,-1.62330102,
512232767,0.0456937817,-59.29808715,-25.90105726,-1.634265502,
514229770,0.04476704122,-61.30751109,-25.21370817,-1.656693913,
516226773,0.02204689606,-56.03670574,-24.68332352,-1.684367174,
518223776,0.04210517595,-68.3431073,-24.19883371,-1.681711621,
520220779,0.04427097593,-63.82355666,-23.43473804,-1.698931123,
522217782,0.03869349994,-65.48702832,-22.98941078,-1.720820658,
524214785,0.05792081315,-61.78566095,-22.55265477,-1.718753125,
526211788,0.05235972466,-77.31022772,-22.47658908,-1.729828367,
528208791,0.02374974377,-62.48195331,-22.41192915,-1.76623576,
530205794,0.05070042215,-63.50931247,-22.23244403,-1.753824782,
532202797,0.05058982386,-57.79734807,-21.89915281,-1.781328247,
534199800,0.03214534564,-59.43063889,-21.68292845,-1.845754112,
536196803,0.05676107591,-52.23386949,-21.56890067,-1.831624821,
538193806,0.05528797881,-56.04792187,-21.13347041,-1.84536816,
540190809,0.03391005876,-59.46232072,-21.10927583,-1.870798572,
542187812,0.06350055372,-66.42440608,-20.7998145,-1.896677554,
544184815,0.04697937358,-54.97807361,-20.54738214,-1.914696816,
546181818,0.04650728433,-55.7995088,-20.53643651,-1.935436607,
548178821,0.05464711616,-62.83218293,-20.52169109,-1.936823651,
550175824,0.05064927557,-63.6762442,-20.14935356,-1.950683687,
552172827,0.04081692982,-57.71615386,-20.09661362,-1.97190777,
554169830,0.05996285603,-59.65044873,-19.86344837,-1.984217903,
556166833,0.0608636138,-71.07147463,-19.4610195,-1.993070173,
558163836,0.05827692951,-60.42868172,-19.2926473,-2.019306908,
560160839,0.06799074489,-68.607903,-18.99588409,-2.029446468,
562157842,0.05279225378,-53.21845891,-18.67203777,-2.036559724,
564154845,0.04201053293,-72.507275,-18.59084686,-2.078513872,
566151848,0.05499201847,-69.79296861,-18.26147205,-2.082270486,
568148851,0.06647929868,-62.15446287,-17.93388867,-2.116773662,
570145854,0.04540077026,-61.68178964,-17.72002171,-2.140938891,
572142857,0.06204617297,-58.26070059,-17.39365302,-2.144193856,
574139860,0.05759931266,-58.5200247,-17.12540772,-2.193113586,
576136863,0.04760497811,-68.67956222,-16.82911153,-2.223183574,
578133866,0.07053208976,-64.49534671,-16.60313958,-2.22637848,
580130869,0.06260689737,-63.66547859,-16.4155715,-2.249300973,
582127872,0.04712471908,-55.54022397,-16.22269193,-2.278595326,
584124875,0.07259331077,-59.01257402,-16.09595681,-2.283079069,
586121878,0.06790847684,-69.49053866,-15.79311677,-2.29181767,
588118881,0.05663322686,-59.70472388,-15.43844322,-2.316748276,
590115884,0.07032886319,-56.61949922,-15.14259392,-2.319632404,
592112887,0.06795001657,-57.62369127,-14.79205826,-2.347999935,
594109890,0.05376651305,-52.47710564,-14.60172326,-2.393407632,
596106893,0.07209435308,-58.95958757,-14.36250614,-2.409155594,
598103896,0.06220129179,-68.63598307,-14.1774162,-2.412152068,
600100899,0.06498743905,-57.99649701,-14.02839948,-2.447813119,
602097902,0.05950838987,-64.23756348,-13.84602961,-2.483727462,
604094905,0.07140376937,-57.09335076,-13.60753885,-2.500351593,
606091908,0.05218205749,-59.25504085,-13.35031403,-2.55013537,
608088911,0.06670155719,-63.79980971,-13.056757,-2.538831406,
