Frequency,S11_Magnitude,S21_Magnitude,S22_Magnitude,
10000000,-11.45199989,-6.795557886,-10.8453592,
11980000,-18.39757271,-8.174336777,-10.5724864,
13960000,-18.58911037,-8.085477913,-10.40019897,
15940000,-18.80500164,-8.167275879,-10.32956299,
17920000,-18.95892255,-8.194469499,-10.41636327,
19900000,-19.5670389,-8.282244029,-10.33297424,
21880000,-19.43954704,-8.313037485,-10.32564824,
23860000,-19.30252858,-8.215881513,-10.40090825,
25840000,-20.02991689,-8.206074419,-10.34532548,
27820000,-19.94694183,-8.241062556,-10.35583094,
29800000,-20.45327898,-8.267433374,-10.46876032,
31780000,-20.33489972,-8.328045823,-10.43809141,
33760000,-20.18217063,-8.288655777,-10.28162345,
35740000,-20.41549608,-8.425833996,-10.37164399,
37720000,-20.29914837,-8.345491181,-10.31999326,
39700000,-19.92300777,-8.364137621,-10.35753826,
41680000,-20.44604162,-8.358551166,-10.22585124,
43660000,-20.41143126,-8.388337073,-10.29106668,
45640000,-20.26730268,-8.443347993,-10.31416116,
47620000,-20.5648446,-8.354221611,-10.29695835,
49600000,-20.43949547,-8.246630428,-10.32259185,
51580000,-20.37709891,-8.366346046,-10.22164386,
53560000,-20.29083831,-8.394473543,-10.25629519,
55540000,-20.42741357,-8.387794958,-10.25131207,
57520000,-20.42328312,-8.411150689,-10.23411997,
59500000,-20.61571049,-8.327367365,-10.21129024,
61480000,-21.34726589,-8.359782992,-10.31648509,
63460000,-20.60774878,-8.36018734,-10.17102319,
65440000,-20.43326261,-8.325281729,-10.17320436,
67420000,-20.65410984,-8.361974084,-10.12709368,
69400000,-20.6164754,-8.348378732,-10.17529139,
71380000,-20.48620445,-8.324940769,-10.1500443,
73360000,-20.38653378,-8.319476456,-10.10271698,
75340000,-20.72151713,-8.285797019,-10.13656205,
77320000,-20.32233932,-8.298385346,-10.11319244,
79300000,-20.46226414,-8.322738593,-10.08473903,
81280000,-20.58000175,-8.289911162,-10.06233947,
83260000,-20.62280095,-8.236151491,-10.06954392,
85240000,-20.48603084,-8.223206539,-10.04568186,
87220000,-20.59137018,-8.193932479,-10.04473329,
89200000,-20.41891871,-8.228511169,-10.00541712,
91180000,-20.57574943,-8.171152666,-10.03151248,
93160000,-20.84125146,-8.16504418,-10.03675543,
95140000,-20.65545249,-8.191012391,-10.07545446,
97120000,-20.62516649,-8.174976735,-10.0350984,
99100000,-20.39830665,-8.128840121,-9.995630238,
101080000,-20.537955,-8.173462375,-10.00706647,
103060000,-20.45266633,-8.149784481,-9.964346576,
105040000,-20.55101403,-8.124639212,-9.988438478,
107020000,-20.58783562,-8.167495945,-9.942631608,
109000000,-20.56679329,-8.102555551,-9.98868234,
110980000,-20.67745018,-8.135641229,-9.91893687,
112960000,-20.80396628,-8.121758093,-9.910648945,
114940000,-20.69154341,-8.089975528,-9.929964583,
116920000,-20.47532759,-8.052932718,-9.885102793,
118900000,-20.78223716,-8.024921549,-9.849922547,
120880000,-20.70297714,-8.057093305,-9.87765864,
122860000,-21.22857685,-8.04771133,-9.949279653,
124840000,-20.750865,-8.038512477,-9.873118207,
126820000,-20.77506306,-8.076190379,-9.831710846,
128800000,-20.56333618,-8.047823762,-9.789639405,
130780000,-20.7766046,-8.025229778,-9.780368074,
132760000,-20.6783493,-8.007490658,-9.724016797,
134740000,-20.71128608,-8.039619486,-9.725431651,
136720000,-20.63371585,-7.968325821,-9.708168655,
138700000,-21.06032676,-8.031590039,-9.714978809,
140680000,-20.72450688,-8.004752758,-9.63107741,
142660000,-20.801217,-7.99955658,-9.620745256,
144640000,-20.64227902,-7.942824217,-9.724272443,
146620000,-21.02557671,-7.93964875,-9.632018359,
148600000,-20.44250565,-8.062488927,-9.636863276,
150580000,-20.49809271,-7.990237921,-9.574950892,
152560000,-20.62728923,-8.030937411,-9.62482205,
154540000,-20.97860394,-7.964567723,-9.661753245,
156520000,-20.83339153,-7.935046187,-9.572874891,
158500000,-20.95758664,-7.99104263,-9.5552466,
160480000,-21.01965454,-7.934647253,-9.615253496,
162460000,-20.93268736,-7.846798662,-9.551472048,
164440000,-20.87452871,-7.872223651,-9.609254017,
166420000,-20.81026176,-7.869598167,-9.577197267,
168400000,-20.92147265,-7.909246009,-9.58148945,
170380000,-20.90336918,-7.905712128,-9.557190541,
172360000,-20.95234843,-7.8974341,-9.549921077,
174340000,-20.68207607,-7.889996155,-9.521118163,
176320000,-21.02104498,-7.793696257,-9.504918273,
178300000,-21.0729329,-7.850244106,-9.466306667,
180280000,-20.87103237,-7.748118794,-9.527473106,
182260000,-20.79701714,-7.789022765,-9.48473208,
184240000,-21.07474244,-7.784818865,-9.518109693,
186220000,-21.08959746,-7.778668139,-9.470859071,
188200000,-20.87417136,-7.773047212,-9.504709751,
190180000,-20.76756351,-7.737195926,-9.428209531,
192160000,-21.03980029,-7.739372998,-9.470316622,
194140000,-20.90577256,-7.769905378,-9.434732462,
196120000,-20.86747269,-7.731934959,-9.437807149,
198100000,-20.98582834,-7.731671818,-9.418263244,
200080000,-20.83164534,-7.745253147,-9.404572841,
202060000,-21.01409787,-7.647780802,-9.433049914,
204040000,-20.92871148,-7.657035646,-9.377220356,
206020000,-20.88126587,-7.660541318,-9.338977477,
208000000,-21.02842844,-7.624651029,-9.434084188,
209980000,-20.83833419,-7.617676086,-9.325016352,
211960000,-20.92293357,-7.591329019,-9.352400688,
213940000,-20.94700128,-7.573594842,-9.311985028,
215920000,-20.98518336,-7.579815788,-9.35525971,
217900000,-20.97606781,-7.585444694,-9.327998402,
219880000,-20.82902092,-7.548392102,-9.290097235,
221860000,-20.96888876,-7.497006163,-9.292340175,
223840000,-20.83272814,-7.497852795,-9.253858596,
225820000,-20.96185119,-7.516122988,-9.285334218,
227800000,-20.78136026,-7.485886034,-9.209967792,
229780000,-20.93836605,-7.442470736,-9.243265017,
231760000,-20.92145309,-7.447180902,-9.260347295,
233740000,-20.78385069,-7.435993228,-9.239659171,
235720000,-21.03827169,-7.376320413,-9.189756919,
237700000,-20.81482881,-7.4476761,-9.211802812,
239680000,-20.71279776,-7.372605167,-9.192170825,
241660000,-20.79338343,-7.328845708,-9.166742103,
243640000,-20.85992676,-7.334540694,-9.138358352,
245620000,-21.03297869,-7.319720993,-9.142766885,
247600000,-20.61553318,-7.366329042,-9.070746349,
249580000,-20.76639052,-7.24497906,-9.130621988,
251560000,-20.58661107,-7.333402024,-9.115574059,
253540000,-20.67048769,-7.292052107,-9.075928468,
255520000,-20.68593544,-7.25328644,-9.058027473,
257500000,-20.66422893,-7.243443745,-9.114541795,
259480000,-20.62988145,-7.271483725,-9.061406594,
261460000,-20.6714942,-7.242812779,-9.094084641,
263440000,-20.83799341,-7.217837727,-9.100993711,
265420000,-20.51812232,-7.15858469,-9.074796293,
267400000,-20.65405412,-7.184592333,-9.005994774,
269380000,-20.79892504,-7.174828096,-9.038344257,
271360000,-20.59151764,-7.096770007,-9.033621357,
273340000,-20.79610249,-7.077830352,-8.937160531,
275320000,-20.48107124,-7.091896751,-9.024776584,
277300000,-20.91856112,-7.045113528,-9.037762789,
279280000,-20.59801594,-7.000052952,-9.034754438,
281260000,-20.56713735,-7.059581725,-8.980253773,
283240000,-20.48646464,-7.027450222,-8.993037169,
285220000,-20.6710757,-7.025167744,-8.980991642,
287200000,-20.6030678,-7.013597982,-8.984396017,
289180000,-20.55567286,-7.006793104,-8.96663616,
291160000,-20.49558938,-7.033596164,-8.966421751,
293140000,-20.55092538,-6.917818793,-8.89306919,
295120000,-20.4955014,-6.927379951,-8.94013771,
297100000,-20.58562337,-6.866077721,-8.937320996,
299080000,-20.44649404,-6.893065498,-8.939591739,
301060000,-20.42318011,-6.854341833,-8.920879359,
303040000,-20.52702761,-6.842237028,-8.906104211,
305020000,-20.46757619,-6.857961807,-8.920543647,
307000000,-20.49088683,-6.81548452,-8.911409989,
308980000,-20.94750723,-6.788828775,-8.874034907,
310960000,-20.45145283,-6.774407341,-8.961984657,
312940000,-20.43420289,-6.741533685,-8.833496364,
314920000,-20.58519509,-6.777862312,-8.883909359,
316900000,-20.5093177,-6.71039649,-8.882448213,
318880000,-20.47637371,-6.715640213,-8.870619711,
320860000,-20.67548678,-6.696369154,-8.906253997,
322840000,-20.37194929,-6.686711257,-8.831791413,
324820000,-20.50053313,-6.697412099,-8.900772688,
326800000,-20.31731228,-6.604019916,-8.826663374,
328780000,-20.51461258,-6.631590287,-8.878155187,
330760000,-20.51184539,-6.586929485,-8.817365568,
332740000,-20.50131342,-6.642520549,-8.823211898,
334720000,-20.49580628,-6.614998821,-8.832100137,
336700000,-20.57910213,-6.605302278,-8.850833665,
338680000,-20.36987077,-6.553892888,-8.864819368,
340660000,-20.43667988,-6.630720837,-8.779480009,
342640000,-20.40574712,-6.54151541,-8.820200621,
344620000,-20.53976213,-6.559052529,-8.812546768,
346600000,-20.50733156,-6.509013812,-8.782289445,
348580000,-20.5914575,-6.603649682,-8.768639822,
350560000,-20.43011361,-6.488243078,-8.732898444,
352540000,-20.5387021,-6.566806925,-8.747360192,
354520000,-20.39543379,-6.524224795,-8.71870326,
356500000,-20.50101278,-6.470580627,-8.680806807,
358480000,-20.44238277,-6.51410754,-8.728381192,
360460000,-20.49733145,-6.474664274,-8.729439449,
362440000,-20.35145593,-6.478688652,-8.730776769,
364420000,-20.62281793,-6.531201584,-8.703206569,
366400000,-20.48616358,-6.414405672,-8.653607799,
368380000,-20.64825275,-6.372681896,-8.715848145,
370360000,-20.9645685,-6.356549209,-8.719638124,
372340000,-20.63755805,-6.385896669,-8.660026286,
374320000,-20.65943448,-6.406952751,-8.754806836,
376300000,-20.56090427,-6.417005256,-8.692161829,
378280000,-20.50628721,-6.378110144,-8.659221468,
380260000,-20.62795627,-6.384367799,-8.684920827,
382240000,-20.6992747,-6.354694703,-8.643323138,
384220000,-20.35425732,-6.443572964,-8.647798913,
386200000,-20.54890673,-6.375465879,-8.598007277,
388180000,-20.49778339,-6.296281141,-8.632810435,
390160000,-20.69597791,-6.325781207,-8.590852627,
392140000,-20.47372351,-6.379774986,-8.597161069,
394120000,-20.65977638,-6.254586535,-8.608172807,
396100000,-20.71488322,-6.29490082,-8.532367653,
398080000,-20.73191498,-6.210881098,-8.605148239,
400060000,-20.55530771,-6.272406084,-8.543321153,
402040000,-20.49633653,-6.265570991,-8.599622473,
404020000,-20.47720239,-6.299642493,-8.552182868,
406000000,-20.62354899,-6.231797516,-8.559246652,
407980000,-20.73015007,-6.281672201,-8.541978598,
409960000,-20.7100309,-6.269821553,-8.561980021,
411940000,-20.64684858,-6.308008455,-8.524121947,
413920000,-20.76469525,-6.275132239,-8.540840267,
415900000,-20.74860426,-6.231683765,-8.499669389,
417880000,-20.65261452,-6.206400968,-8.540175558,
419860000,-20.77615053,-6.169524696,-8.555263744,
421840000,-20.81149119,-6.237968533,-8.565003377,
423820000,-20.79270058,-6.194362805,-8.516758294,
425800000,-20.74707784,-6.195048675,-8.550805815,
427780000,-20.95603727,-6.183394617,-8.579510516,
429760000,-20.77833607,-6.190401985,-8.528709805,
431740000,-20.79755345,-6.144274151,-8.544470879,
433720000,-20.78796377,-6.157429458,-8.523810138,
435700000,-20.76703415,-6.140314676,-8.570977942,
437680000,-20.84370094,-6.154062825,-8.595948388,
439660000,-20.89780514,-6.099525847,-8.521951191,
441640000,-20.79416361,-6.122947002,-8.510776712,
443620000,-20.96939957,-6.111097103,-8.555433935,
445600000,-20.71624748,-6.120062351,-8.586008861,
447580000,-20.77044876,-6.089356131,-8.536506751,
449560000,-20.98866526,-6.094603221,-8.53831035,
451540000,-21.13910392,-6.079832217,-8.516022447,
453520000,-20.90434096,-6.015497203,-8.550473548,
455500000,-21.09327346,-6.07656522,-8.566862099,
457480000,-20.8761289,-6.052562961,-8.612121604,
459460000,-20.90752487,-6.088046881,-8.670811599,
461440000,-20.96810517,-6.113906172,-8.664472351,
463420000,-20.86291576,-5.991874921,-8.625456497,
465400000,-20.92973495,-6.007461292,-8.561203568,
467380000,-21.06469191,-6.021398842,-8.633170653,
469360000,-21.01006186,-5.929553464,-8.604307371,
471340000,-20.99236702,-6.038487729,-8.707407824,
473320000,-20.88751135,-6.015048027,-8.728272672,
475300000,-20.92278873,-5.979964797,-8.711141827,
477280000,-20.94029176,-5.934601377,-8.720551379,
479260000,-21.09076717,-5.968772717,-8.726980684,
481240000,-20.91838125,-5.967797332,-8.708900423,
483220000,-20.97615018,-5.888756516,-8.767693447,
485200000,-21.00132346,-5.884137469,-8.756092506,
487180000,-20.93189647,-5.877242389,-8.747025938,
489160000,-20.93213656,-5.835188904,-8.709182826,
491140000,-21.0814215,-5.902296375,-8.813316742,
493120000,-21.04253682,-5.79681715,-8.774063534,
495100000,-21.05950982,-5.982288103,-8.924463432,
497080000,-21.11584043,-5.805667578,-8.770129974,
499060000,-20.97566717,-5.801868473,-8.761885993,
501040000,-20.84832599,-5.798631321,-8.829056043,
503020000,-21.03777491,-5.725134404,-8.841485517,
505000000,-21.15931508,-5.707567682,-8.798136123,
506980000,-20.89960235,-5.70482208,-8.915308915,
508960000,-21.07312783,-5.72329476,-8.871683327,
510940000,-21.15300646,-5.597027701,-8.909248589,
512920000,-20.9198085,-5.629445697,-8.867759261,
514900000,-20.88447983,-5.590993008,-8.852343614,
516880000,-20.95296616,-5.627508477,-8.881739695,
518860000,-20.68500684,-5.615176538,-8.92926567,
520840000,-20.70220143,-5.580087858,-8.960193102,
522820000,-20.72028119,-5.58574362,-8.989428969,
524800000,-20.86906377,-5.503363061,-8.988138937,
526780000,-20.60260432,-5.601288948,-9.017633364,
528760000,-20.69817556,-5.602492059,-9.013098198,
530740000,-20.56202106,-5.535992603,-9.003326055,
532720000,-20.45600103,-5.530317261,-9.007293077,
534700000,-20.47192296,-5.534774748,-9.142057162,
536680000,-20.75661684,-5.516897455,-9.03515159,
538660000,-20.57618428,-5.481037618,-9.090950852,
540640000,-20.4691206,-5.537667878,-9.05795769,
542620000,-20.5677726,-5.528638824,-9.075503801,
544600000,-20.5007651,-5.487521281,-9.074057805,
546580000,-20.47978572,-5.482033842,-9.100002193,
548560000,-20.62288478,-5.43221778,-9.109045642,
550540000,-20.59958123,-5.469027099,-9.156083667,
552520000,-20.20593514,-5.562649524,-9.205068571,
554500000,-20.53452044,-5.479632383,-9.111400489,
556480000,-20.276853,-5.474217006,-9.156642324,
558460000,-20.32335844,-5.462536439,-9.183443747,
560440000,-20.33471256,-5.507325881,-9.249768517,
562420000,-20.34324688,-5.537678237,-9.197317104,
564400000,-20.30982922,-5.640287991,-9.188162773,
566380000,-20.12604026,-5.47818418,-9.215619811,
568360000,-20.16243152,-5.447381723,-9.228927582,
570340000,-20.12967742,-5.550880651,-9.277357647,
572320000,-20.13783914,-5.548275045,-9.265800379,
574300000,-20.26679592,-5.456151683,-9.252513177,
576280000,-20.22157234,-5.564891417,-9.343437255,
578260000,-20.2120879,-5.512083412,-9.274732052,
580240000,-20.27995339,-5.5209443,-9.362869649,
582220000,-20.07666238,-5.514195773,-9.372494097,
584200000,-20.1672463,-5.469242362,-9.351062727,
586180000,-20.42272839,-5.471096399,-9.342513902,
588160000,-20.12065438,-5.510767004,-9.356825652,
590140000,-20.07637682,-5.490646497,-9.414656095,
592120000,-19.97881623,-5.466223366,-9.405289085,
594100000,-20.16278148,-5.517699734,-9.495559301,
596080000,-20.02509423,-5.489993697,-9.424666591,
598060000,-20.06871715,-5.454007789,-9.405277743,
600040000,-19.8863573,-5.497699508,-9.440823693,
602020000,-20.02147948,-5.518725351,-9.505244761,
604000000,-19.94902962,-5.542465129,-9.489931864,
605980000,-19.91115319,-5.440921334,-9.514302041,
607960000,-19.79430702,-5.527414851,-9.481145718,
609940000,-19.98891868,-5.519455513,-9.506749458,
611920000,-19.98881925,-5.520967781,-9.527348296,
613900000,-19.83070384,-5.554547837,-9.579155395,
615880000,-19.97752955,-5.580258034,-9.596044234,
617860000,-19.89355918,-5.527437155,-9.563660553,
619840000,-20.01486903,-5.544445084,-9.630386378,
621820000,-19.98971614,-5.529762066,-9.525021407,
623800000,-20.01068551,-5.573253453,-9.547305778,
625780000,-20.09124354,-5.550467907,-9.579456875,
627760000,-19.86475123,-5.597807377,-9.600683779,
629740000,-20.10769458,-5.543634458,-9.593428732,
631720000,-20.10682295,-5.602377577,-9.559288653,
633700000,-20.07768777,-5.589933638,-9.623716985,
635680000,-20.18870033,-5.580088678,-9.691999894,
637660000,-19.89516859,-5.610119817,-9.67603486,
639640000,-20.22058169,-5.588529015,-9.644720674,
641620000,-19.82681024,-5.602691913,-9.600675742,
643600000,-20.09192288,-5.62061912,-9.730657019,
645580000,-20.0173794,-5.705812489,-9.698972756,
647560000,-19.90642527,-5.61884949,-9.712988636,
649540000,-20.03805118,-5.624992573,-9.681608209,
651520000,-19.84883987,-5.704582653,-9.754335827,
653500000,-20.09130098,-5.681640751,-9.723372558,
655480000,-19.99598632,-5.734290969,-9.778514986,
657460000,-20.0588378,-5.684041506,-9.764626009,
659440000,-20.08804189,-5.766193696,-9.720816954,
661420000,-20.22842558,-5.726034262,-9.790047295,
663400000,-20.2536536,-5.728311388,-9.713328957,
665380000,-20.12231446,-5.725316685,-9.789125734,
667360000,-20.07138409,-5.788548936,-9.832647045,
669340000,-20.17314428,-5.738541228,-9.872972971,
671320000,-20.19171553,-5.766619356,-9.763662624,
673300000,-20.02492801,-5.745980005,-9.747004507,
675280000,-20.12094543,-5.806467098,-9.816773879,
677260000,-20.04584966,-5.798744974,-9.835437421,
679240000,-19.98118028,-5.74489525,-9.798899004,
681220000,-20.18088742,-5.794533279,-9.806283206,
683200000,-20.17685124,-5.768889971,-9.82457281,
685180000,-19.98303992,-5.797497624,-9.769747859,
687160000,-20.10302848,-5.755926107,-9.773887074,
689140000,-20.31018637,-5.792904624,-9.867108759,
691120000,-20.4294909,-5.780104447,-9.769128581,
693100000,-20.10196131,-5.753296875,-9.731255248,
695080000,-20.39375789,-5.776534822,-9.70627501,
697060000,-20.41342833,-5.741661997,-9.794241319,
699040000,-20.5354848,-5.730710466,-9.874711134,
701020000,-20.53731862,-5.721783397,-9.872445863,
703000000,-20.54765462,-5.718219747,-9.817773851,
704980000,-20.2489953,-5.709917682,-9.832724381,
706960000,-20.46478247,-5.732537894,-9.780631026,
708940000,-20.43140641,-5.711505856,-9.85465057,
710920000,-20.28191995,-5.692521323,-9.855271265,
712900000,-20.26740787,-5.720095336,-9.835246923,
714880000,-20.43088701,-5.683466212,-9.791506518,
716860000,-20.46358185,-5.71617681,-9.794178134,
718840000,-20.17029845,-5.753200023,-9.851412978,
720820000,-20.34453061,-5.712888188,-9.809772687,
722800000,-20.42664137,-5.64021286,-9.900550017,
724780000,-20.45079285,-5.660247246,-9.868196434,
726760000,-20.38363193,-5.661248307,-9.855624534,
728740000,-20.27331113,-5.695975813,-9.815343288,
730720000,-20.58602052,-5.656082565,-9.84638327,
732700000,-20.40094472,-5.673446541,-9.765474107,
734680000,-20.40860062,-5.555679702,-9.797138836,
736660000,-20.81528284,-5.634002561,-9.824158165,
738640000,-20.48918778,-5.630709654,-9.818682822,
740620000,-20.54576027,-5.63125586,-9.876064838,
742600000,-20.47278404,-5.720629943,-9.79594356,
744580000,-20.38317775,-5.605892248,-9.863656926,
746560000,-20.6220467,-5.65010732,-9.889105706,
748540000,-20.70536654,-5.616782585,-9.882717395,
750520000,-20.71022535,-5.636998552,-9.846549013,
752500000,-20.6727671,-5.651720153,-9.884612387,
754480000,-20.43923006,-5.601104416,-9.899721675,
756460000,-20.72839495,-5.624302659,-9.903961323,
758440000,-20.56446049,-5.627197213,-9.937196705,
760420000,-20.63691486,-5.657337438,-9.93515918,
762400000,-20.49192622,-5.61729345,-9.954861962,
764380000,-20.70010726,-5.596109618,-9.986127624,
766360000,-20.65472379,-5.570862856,-10.02300364,
768340000,-20.61957975,-5.601839874,-9.951227997,
770320000,-20.56836635,-5.613740767,-9.984608905,
772300000,-20.633857,-5.614188476,-10.00527572,
774280000,-20.66951445,-5.62237339,-9.987810054,
776260000,-20.62348225,-5.583745654,-10.05708521,
778240000,-20.79934238,-5.595902062,-10.03086499,
780220000,-20.72481032,-5.569699022,-10.01962014,
782200000,-20.6888997,-5.599736778,-10.03153711,
784180000,-20.65190266,-5.580331967,-10.03776684,
786160000,-20.65159273,-5.578227686,-10.05681006,
788140000,-20.80807656,-5.614012017,-10.02779232,
790120000,-20.71501947,-5.589413853,-10.12780624,
792100000,-20.74812304,-5.600759063,-10.03795061,
794080000,-20.71961297,-5.56921497,-10.12835101,
796060000,-20.74153654,-5.580997553,-10.0801855,
798040000,-20.84121861,-5.615439261,-10.14867617,
800020000,-20.55904965,-5.529237972,-10.09074503,
802000000,-20.65923589,-5.569855933,-10.04381424,
803980000,-20.43450706,-5.561928112,-10.08536081,
