Frequency,S11_Magnitude,S12_Magnitude,S21_Magnitude,S22_Magnitude,
10000000,-18.08174002,-54.89958078,13.03877548,-19.25171507,
11980000,-19.70234087,-53.39758871,12.56195382,-21.49875693,
13960000,-21.39139894,-53.35496424,12.30700708,-23.28446172,
15940000,-23.15507161,-53.32687739,12.35295901,-24.65241327,
17920000,-24.42916045,-53.32047027,12.40129496,-25.89031347,
19900000,-25.03932107,-53.41000369,12.39208004,-27.02706062,
21880000,-25.49910518,-53.25931698,12.36782766,-28.09468488,
23860000,-26.1497102,-53.3976749,12.35381201,-29.02542302,
25840000,-24.84521006,-53.40985198,11.55230578,-29.89117302,
27820000,-25.21362293,-53.36198882,11.57935948,-30.48524519,
29800000,-25.45113878,-53.37355439,11.6383379,-31.00807434,
31780000,-25.72288374,-53.49085149,11.53902175,-31.4479452,
33760000,-25.92208877,-53.51873582,11.53122027,-31.81790189,
35740000,-26.0855406,-53.56603517,11.47343159,-32.1275654,
37720000,-26.2126776,-53.51613482,11.46380685,-32.16560585,
39700000,-26.29501201,-53.60808784,11.5064107,-31.92520617,
41680000,-26.39450161,-53.40884833,11.53443336,-31.62180491,
43660000,-26.5097666,-53.39148216,11.52519497,-31.52413805,
45640000,-26.61324692,-53.43675462,11.49741525,-31.29913736,
47620000,-26.65163858,-53.42100453,11.44943307,-31.36836927,
49600000,-26.80014196,-53.48361259,11.47098617,-31.16259721,
51580000,-26.36129591,-53.32332664,11.47222467,-31.11491144,
53560000,-26.14363756,-53.25897823,11.52318726,-30.99506641,
55540000,-25.95599643,-53.26821361,11.51917641,-30.90462811,
57520000,-25.7557864,-53.22964849,11.49284866,-30.84934706,
59500000,-25.62129491,-53.13838202,11.36265272,-30.88490037,
61480000,-25.55280365,-54.10448098,11.13818995,-31.06881432,
63460000,-25.37322985,-53.39844519,11.39864252,-30.94561419,
65440000,-25.26219171,-53.29611426,11.509138,-30.8678184,
67420000,-25.1814631,-53.17248461,11.55760385,-30.83746514,
69400000,-25.11865086,-53.11080969,11.54062291,-30.93018532,
71380000,-25.07701915,-53.25668164,11.47746173,-30.94862017,
73360000,-25.04070956,-53.30484296,11.46264573,-31.02047036,
75340000,-24.96064663,-53.15443953,11.50657911,-30.88266006,
77320000,-24.90652438,-53.29212965,11.57808801,-30.76450152,
79300000,-24.87026116,-53.29027831,11.59482053,-30.65879212,
81280000,-24.84989445,-53.2123245,11.56868853,-30.55687177,
83260000,-24.843348,-53.26996271,11.51617207,-30.54189653,
85240000,-24.84818043,-53.29746809,11.47432486,-30.48068616,
87220000,-24.79760836,-53.21435314,11.54826805,-30.01751952,
89200000,-24.76283907,-53.3469843,11.59180085,-29.80986941,
91180000,-24.74707908,-53.23131126,11.60427204,-29.4829907,
93160000,-24.74488141,-53.19067423,11.62616827,-29.26523631,
95140000,-24.76805744,-53.14409331,11.6099203,-29.03450211,
97120000,-24.79372715,-53.34293159,11.59927911,-28.85419626,
99100000,-25.06327746,-53.33805067,11.64994618,-28.40536734,
101080000,-24.74708744,-53.24692877,11.73162931,-28.03743954,
103060000,-24.73647469,-53.30404954,11.7242159,-27.77121463,
105040000,-24.73570372,-53.2561666,11.74806569,-27.41167657,
107020000,-24.75582625,-53.3785311,11.72172038,-27.1917559,
109000000,-24.77244195,-53.3751902,11.71389886,-26.94204809,
110980000,-24.74038202,-53.47460459,11.81189978,-26.57913798,
112960000,-24.71490107,-53.20512372,11.89406031,-26.25489791,
114940000,-24.72185701,-53.2817544,11.93135977,-25.99975776,
116920000,-24.73534222,-53.31379323,11.98319745,-25.8004487,
118900000,-24.76956476,-53.28247197,11.95842569,-25.62982884,
120880000,-24.82025527,-53.13623678,11.98287861,-25.48466982,
122860000,-24.83455779,-53.36821191,12.0828672,-25.15955334,
124840000,-24.86642854,-53.20501288,12.20420584,-24.8654535,
126820000,-24.9164153,-53.20977668,12.37118501,-24.63812242,
128800000,-25.01260685,-53.23255986,12.48514648,-24.42832,
130780000,-25.14885979,-53.32416937,12.60812302,-24.31249967,
132760000,-25.30129879,-53.34391577,12.73048512,-24.16388333,
134740000,-25.42404027,-53.1953894,12.96634738,-23.93939546,
136720000,-25.54748957,-53.38068706,13.15592938,-23.73852037,
138700000,-25.71205429,-53.66896722,13.39340966,-23.59483187,
140680000,-25.89022818,-52.98943564,13.54507214,-23.51594537,
142660000,-26.09653606,-53.27317638,13.66577555,-23.51373169,
144640000,-26.33341228,-53.08768249,13.72463564,-23.5415175,
146620000,-26.4813846,-53.18474147,13.78375594,-23.48966298,
148600000,-26.60162139,-52.98281796,13.85038788,-23.44884242,
150580000,-26.67696178,-53.02909689,13.79048318,-23.40093622,
152560000,-26.73228292,-53.08656848,13.69496847,-23.3655396,
154540000,-26.77319225,-53.20349143,13.52126664,-23.3285177,
156520000,-26.80040234,-53.07855898,13.3549805,-23.27672947,
158500000,-26.74655133,-53.19958738,13.26475119,-23.12228461,
160480000,-26.68063355,-52.91753373,13.17185067,-22.98496193,
162460000,-26.58278397,-52.99264107,13.09109821,-22.90752803,
164440000,-26.48117977,-52.98160432,12.95718728,-22.80971522,
166420000,-26.34424833,-52.97432937,12.83010037,-22.74379608,
168400000,-26.2124609,-52.98332279,12.7249881,-22.71630038,
170380000,-26.01166004,-53.11956331,12.64709932,-22.6186842,
172360000,-25.7952429,-53.09247458,12.65464029,-22.49296204,
174340000,-25.59406679,-53.27178095,12.60358702,-22.39126722,
176320000,-25.40654589,-53.1397346,12.53731161,-22.33567224,
178300000,-25.26202642,-53.0144349,12.47606862,-22.25853195,
180280000,-25.14477933,-53.25964042,12.39052832,-22.21305703,
182260000,-24.99594429,-53.15175801,12.36045052,-22.11683244,
184240000,-24.84174876,-53.21937224,12.36454723,-21.99562474,
186220000,-24.72014672,-53.24286339,12.37321281,-21.85516171,
188200000,-24.6187545,-53.31201417,12.34827328,-21.77344463,
190180000,-24.5117552,-53.26079365,12.32635855,-21.71984842,
192160000,-24.41157676,-53.22721322,12.22014741,-21.6660911,
194140000,-24.28051011,-53.33238292,12.24774072,-21.56695859,
196120000,-24.13445098,-53.18443168,12.24525679,-21.46507427,
198100000,-24.01747702,-53.22981535,12.28274291,-21.40491073,
200080000,-23.92628739,-53.10492965,12.25747087,-21.34431969,
202060000,-23.84813779,-53.12204799,12.19480908,-21.33068277,
204040000,-23.77545473,-53.22770862,12.16606019,-21.31845942,
206020000,-23.69029161,-53.14538553,12.1230562,-21.27221256,
208000000,-23.60546709,-53.12221338,12.18492774,-21.23591497,
209980000,-23.53910355,-53.15467666,12.17180933,-21.16324013,
211960000,-23.49687175,-53.14597565,12.17275038,-21.10226931,
213940000,-23.47474717,-53.24749167,12.15935741,-21.10081391,
215920000,-23.4688798,-53.34749822,12.06900466,-21.09628671,
217900000,-23.43509009,-53.15794035,12.06285712,-21.08072345,
219880000,-23.38595904,-53.0984741,12.13015378,-21.019258,
221860000,-23.3433206,-53.13814955,12.12343133,-20.98681361,
223840000,-23.32433078,-53.12360933,12.15249953,-20.96896466,
225820000,-23.32303221,-53.11936924,12.09668888,-21.01435381,
227800000,-23.32192776,-53.08841657,12.03428308,-21.02673033,
229780000,-23.29428086,-53.15954846,12.03546897,-21.04642458,
231760000,-23.23456748,-53.0605718,12.07910416,-21.04385064,
233740000,-23.175065,-53.0656465,12.09782659,-21.05748255,
235720000,-23.13916044,-53.13579481,12.07452869,-21.10233806,
237700000,-23.1076259,-53.16926683,12.04525772,-21.19974258,
239680000,-23.11046882,-53.13333262,12.02000684,-21.32142445,
241660000,-23.09947314,-53.21292255,11.98378161,-21.42180116,
243640000,-23.06865041,-53.03616734,12.0490846,-21.50982165,
245620000,-23.03986876,-52.96644693,12.03916362,-21.62426998,
247600000,-23.11080909,-53.17980059,12.06622866,-21.8365979,
249580000,-23.04011962,-53.08420615,12.01693229,-21.93373915,
251560000,-23.06496801,-53.06704205,11.97306316,-22.093017,
253540000,-23.08730368,-53.06178952,11.94111532,-22.22826536,
255520000,-23.06560368,-53.17006151,12.02871918,-22.31944226,
257500000,-23.04266379,-53.04949664,12.03140849,-22.38019724,
259480000,-23.02859012,-53.05252841,12.06131508,-22.45262123,
261460000,-23.02895236,-53.02787655,12.03654667,-22.51354207,
263440000,-23.0326929,-53.01366402,11.9674805,-22.57372795,
265420000,-23.02198048,-53.01059495,11.96982167,-22.6173901,
267400000,-22.97000963,-52.9603033,12.01934529,-22.62691983,
269380000,-22.93120897,-52.93193473,12.05334789,-22.62768021,
271360000,-22.91285819,-52.86657563,12.02744973,-22.69422753,
273340000,-22.91220174,-53.10715696,12.02814139,-22.74844761,
275320000,-22.91918828,-53.03532066,11.95104851,-22.81705224,
277300000,-22.91556932,-53.17872295,11.93559895,-22.87985765,
279280000,-22.84493523,-53.06379519,11.98869397,-22.88540245,
281260000,-22.77053681,-53.00508901,12.02804161,-22.91703344,
283240000,-22.70495327,-52.85335261,12.02180352,-23.00980232,
285220000,-22.6427001,-52.90738463,12.04563454,-23.065756,
287200000,-22.58870541,-52.83981852,11.99611247,-23.14115462,
289180000,-22.54500187,-52.77875887,11.94617557,-23.21444448,
291160000,-22.44560789,-52.93160882,12.01956402,-23.27627561,
293140000,-22.36774375,-52.62959747,12.02334144,-23.28301119,
295120000,-22.32246302,-52.74102756,12.0412112,-23.32259371,
297100000,-22.3060233,-52.86916392,12.04642688,-23.37798841,
299080000,-22.31210624,-52.82527557,12.0250289,-23.44463171,
301060000,-22.34379499,-52.86362336,11.93990033,-23.50192745,
303040000,-22.31537444,-52.85584348,12.01685309,-23.51429805,
305020000,-22.3045165,-52.78286937,12.05803529,-23.54076532,
307000000,-22.32133132,-52.79988584,12.08158525,-23.55195147,
308980000,-22.35222887,-52.83380977,12.04561231,-23.5616573,
310960000,-22.40824751,-52.82917635,12.05370591,-23.54867758,
312940000,-22.48188112,-52.81918246,11.97026065,-23.56579181,
314920000,-22.48811384,-52.72659075,12.03188934,-23.50961003,
316900000,-22.52366838,-52.73288673,12.07438418,-23.4758985,
318880000,-22.58620107,-52.84766534,12.09466863,-23.4176717,
320860000,-22.67101814,-52.72698264,12.07645477,-23.41392184,
322840000,-22.77316103,-52.79575479,12.07503891,-23.36718412,
324820000,-22.90308573,-52.71885874,12.01225566,-23.34188745,
326800000,-22.97041038,-52.5701955,12.07925182,-23.30818809,
328780000,-23.0474508,-52.64308692,12.0816709,-23.23937024,
330760000,-23.13456003,-52.78723155,12.13638911,-23.19395989,
332740000,-23.2349455,-52.73365219,12.11971697,-23.17470718,
334720000,-23.35174356,-52.69668748,12.05634037,-23.15010571,
336700000,-23.48757478,-52.72579599,12.02628856,-23.1857437,
338680000,-23.58754364,-52.78050435,12.08730285,-23.11710236,
340660000,-23.69263583,-52.63009181,12.10106222,-23.08873885,
342640000,-23.81459247,-52.63927561,12.14699745,-23.07481789,
344620000,-23.96832164,-52.61512663,12.11247553,-23.09258479,
346600000,-24.13112248,-52.56703185,12.09098309,-23.1312839,
348580000,-24.30276284,-52.49600981,12.05852156,-23.17348043,
350560000,-24.42860837,-52.65862757,12.09360536,-23.16590454,
352540000,-24.54905396,-52.54075754,12.11852255,-23.13226102,
354520000,-24.68552678,-52.53311687,12.13804114,-23.12997035,
356500000,-24.8510217,-52.69181322,12.16764731,-23.13022611,
358480000,-25.01073275,-52.65977716,12.12499952,-23.12866067,
360460000,-25.18830116,-52.67691314,12.08847105,-23.08280771,
362440000,-25.32531017,-52.62330188,12.11971964,-23.01030899,
364420000,-25.46296611,-52.59201903,12.16473178,-22.90503412,
366400000,-25.61514566,-52.51770171,12.15119876,-22.80852049,
368380000,-25.77151389,-52.5947926,12.1661029,-22.70014665,
370360000,-25.94020633,-52.55468252,12.13506234,-22.58632966,
372340000,-26.14054899,-52.63417864,12.10789768,-22.48790249,
374320000,-26.30564887,-52.4548173,12.12996359,-22.33485968,
376300000,-26.47750276,-52.51934357,12.24655591,-22.16892162,
378280000,-26.65464873,-52.61604199,12.29015601,-22.05858283,
380260000,-26.84770487,-52.55618108,12.2698378,-21.91042563,
382240000,-27.05576361,-52.5794457,12.26426393,-21.80338145,
384220000,-27.28893301,-52.67894968,12.18698924,-21.704769,
386200000,-27.47886119,-52.54869776,12.21059523,-21.58998576,
388180000,-27.67102066,-52.55314529,12.28057647,-21.4164832,
390160000,-27.86742707,-52.53495136,12.283318,-21.29783417,
392140000,-28.11154202,-52.55589204,12.26421424,-21.1778649,
394120000,-28.34878281,-52.58349469,12.23898469,-21.08995444,
396100000,-28.59709456,-52.68862599,12.22655571,-20.99938397,
398080000,-28.82354113,-52.59564506,12.206905,-20.87535871,
400060000,-28.99063859,-52.5516227,12.28413119,-20.70493169,
402040000,-29.13802393,-52.50981073,12.29218168,-20.58750428,
404020000,-29.29335541,-52.67546538,12.30540051,-20.4770148,
406000000,-29.4124345,-52.72764036,12.28568222,-20.39340816,
407980000,-29.50094025,-52.73235272,12.24087122,-20.33151354,
409960000,-29.56527038,-52.74057578,12.23376601,-20.23167807,
411940000,-29.55722275,-52.53875401,12.31165296,-20.10309582,
413920000,-29.5445884,-52.56741724,12.30789039,-19.98812812,
415900000,-29.49924334,-52.58674449,12.33126348,-19.90851678,
417880000,-29.46091907,-52.6449399,12.31286486,-19.85031293,
419860000,-29.42825311,-52.68888122,12.27066988,-19.79566653,
421840000,-29.37693727,-52.75472271,12.28294539,-19.71849992,
423820000,-29.29893418,-52.75689023,12.30536492,-19.59309845,
425800000,-29.22645369,-52.67230843,12.34527066,-19.49305927,
427780000,-29.17095915,-52.85927627,12.351178,-19.43779449,
429760000,-29.11171621,-52.80465347,12.35408319,-19.38312404,
431740000,-29.04012867,-52.929363,12.27695277,-19.36351161,
433720000,-28.95215231,-52.95918945,12.26146814,-19.33550483,
435700000,-28.85687765,-52.8482684,12.35042773,-19.24939427,
437680000,-28.7414813,-52.78876029,12.34583342,-19.20887264,
439660000,-28.63263726,-52.80081557,12.35421791,-19.20468501,
441640000,-28.52766007,-52.62026358,12.34568646,-19.21912275,
443620000,-28.42063225,-52.60974447,12.3407159,-19.26866268,
445600000,-28.29144842,-52.58015211,12.31286313,-19.28677586,
447580000,-28.13921275,-52.5613737,12.35063601,-19.27560623,
449560000,-27.99763798,-52.50218573,12.39305681,-19.28179874,
451540000,-27.85795216,-52.42559665,12.40147364,-19.33064923,
453520000,-27.74640187,-52.40612659,12.35725206,-19.37787705,
455500000,-27.65679462,-52.39783449,12.31477198,-19.45769055,
457480000,-27.56927227,-52.46331486,12.32539289,-19.53114256,
459460000,-27.45888882,-52.36499994,12.37769741,-19.55071845,
461440000,-27.37188181,-52.48181965,12.37995692,-19.59373438,
463420000,-27.30886502,-52.54834494,12.41097268,-19.64642181,
465400000,-27.27647626,-52.56528796,12.36670419,-19.7084242,
467380000,-27.26329747,-52.47342717,12.33845872,-19.77065381,
469360000,-27.26020909,-52.67836984,12.28966091,-19.84044322,
471340000,-27.21026384,-52.50140324,12.33771752,-19.82879218,
473320000,-27.16927282,-52.60337585,12.36105699,-19.8383576,
475300000,-27.15196322,-52.51538305,12.37389118,-19.8447252,
477280000,-27.15823249,-52.57475889,12.39001207,-19.86643766,
479260000,-27.18510816,-52.50405314,12.31668303,-19.89435028,
481240000,-27.23165781,-52.50242461,12.26166479,-19.92113755,
483220000,-27.27321762,-52.51799931,12.3310073,-19.88398867,
485200000,-27.34531703,-52.49889275,12.3831079,-19.87927276,
487180000,-27.45063395,-52.68073571,12.35168494,-19.86361543,
489160000,-27.57412924,-52.53294591,12.34511917,-19.85279089,
491140000,-27.72244613,-52.6070457,12.33260152,-19.86646279,
493120000,-27.89354574,-52.72290962,12.26788299,-19.89659803,
495100000,-28.02854387,-52.61314836,12.29544185,-19.83262764,
497080000,-28.21311878,-52.51809897,12.35995543,-19.84812535,
499060000,-28.41074526,-52.49099473,12.34421759,-19.83646537,
501040000,-28.64929989,-52.53434853,12.3565221,-19.87344478,
503020000,-28.91248767,-52.49267925,12.32290445,-19.90196139,
505000000,-29.20359595,-52.56619776,12.24779662,-19.96515873,
506980000,-29.44751035,-52.44778355,12.31922011,-19.95187641,
508960000,-29.71515147,-52.47083375,12.36495681,-19.98027283,
510940000,-29.97596275,-52.40532622,12.37476436,-20.01637809,
512920000,-30.26100612,-52.47625743,12.33885941,-20.09604769,
514900000,-30.56659457,-52.48267554,12.31168495,-20.17065522,
516880000,-30.8506917,-52.55609026,12.25882199,-20.27318053,
518860000,-31.1045321,-52.5081512,12.27496704,-20.31205851,
520840000,-31.3497908,-52.48094767,12.31453559,-20.37383749,
522820000,-31.57011936,-52.5524009,12.33247116,-20.45187154,
524800000,-31.764696,-52.62285319,12.32051717,-20.57049205,
526780000,-31.96554189,-52.5965111,12.31863258,-20.70084039,
528760000,-32.13719871,-52.59653613,12.23897602,-20.85364959,
530740000,-32.28888277,-52.57633202,12.31633741,-20.97371976,
532720000,-32.43441899,-52.68033882,12.35230523,-21.08404685,
534700000,-32.59392321,-52.41191171,12.33320333,-21.23053572,
536680000,-32.77784551,-52.49930639,12.36215737,-21.41360507,
538660000,-33.01000574,-52.5127668,12.29232181,-21.59814022,
540640000,-33.24947491,-52.47237436,12.23493154,-21.82083169,
542620000,-33.49044036,-52.39576615,12.30972756,-21.97462163,
544600000,-33.73818946,-52.1974303,12.36249227,-22.14327699,
546580000,-34.03594151,-52.32970478,12.3660657,-22.33529487,
548560000,-34.38578254,-52.34565069,12.36746685,-22.53410913,
550540000,-34.77528988,-52.15022557,12.33056745,-22.74131558,
552520000,-35.23151403,-52.25221088,12.28227304,-22.98646629,
554500000,-35.65378024,-52.34242384,12.29001219,-23.16236867,
556480000,-36.13228705,-52.29140221,12.34691139,-23.35727906,
558460000,-36.63560533,-52.3152314,12.38392965,-23.52872029,
560440000,-37.22468017,-52.35406582,12.3663633,-23.71841754,
562420000,-37.90216437,-52.41065221,12.37097609,-23.97218146,
564400000,-38.65056576,-52.11167165,12.30857055,-24.19392974,
566380000,-39.49694883,-52.45947442,12.31877753,-24.35587812,
568360000,-40.4913408,-52.35518043,12.40308669,-24.48860675,
570340000,-41.6981327,-52.44653344,12.38353286,-24.65076441,
572320000,-43.28042937,-52.34534095,12.3917921,-24.79585831,
574300000,-45.3772666,-52.39141151,12.40538855,-24.98353044,
576280000,-48.53102028,-52.42933659,12.3299742,-25.10228835,
578260000,-53.75499566,-52.56598126,12.33833996,-25.21177776,
580240000,-65.38440976,-52.36328737,12.4065883,-25.27423235,
582220000,-55.17360927,-52.42399916,12.45430038,-25.3270676,
584200000,-48.65326307,-52.35381063,12.41356883,-25.41562664,
586180000,-44.7673467,-52.43155296,12.40533208,-25.52372143,
588160000,-42.12105137,-52.42962255,12.36507497,-25.58116478,
590140000,-40.09042279,-52.36959922,12.38856507,-25.60702342,
592120000,-38.43991579,-52.38863856,12.44284483,-25.59841591,
594100000,-37.0469295,-52.37426261,12.42331822,-25.65146112,
596080000,-35.87310464,-52.28294053,12.42314043,-25.62837457,
598060000,-34.89079775,-52.38474525,12.40875161,-25.63087529,
600040000,-34.01830746,-52.40163638,12.35410886,-25.6557316,
602020000,-33.22095917,-52.18879974,12.36704809,-25.63281779,
604000000,-32.47979752,-52.2222144,12.40732523,-25.63229114,
605980000,-31.81770761,-52.27831855,12.4359903,-25.59349559,
607960000,-31.19361921,-52.15466305,12.45664441,-25.56348216,
609940000,-30.63897114,-52.20301041,12.43896405,-25.54448759,
611920000,-30.11638455,-52.15895875,12.38497847,-25.53940034,
613900000,-29.61313661,-52.05475711,12.39096809,-25.47410265,
615880000,-29.14389982,-52.07490954,12.42747085,-25.41234153,
617860000,-28.69372914,-52.08974723,12.46265594,-25.35134029,
619840000,-28.2901165,-52.23463789,12.46004398,-25.28243874,
621820000,-27.93201753,-52.14133519,12.40628179,-25.20503562,
623800000,-27.62754369,-52.23280528,12.37930017,-25.13796087,
625780000,-27.3112385,-52.27879521,12.34179511,-25.07869272,
627760000,-26.99137429,-52.10294801,12.4173111,-24.96568921,
629740000,-26.69285674,-52.21965868,12.42200949,-24.87067699,
631720000,-26.44538211,-52.16078522,12.41278272,-24.80000298,
633700000,-26.22724766,-52.20437701,12.39163656,-24.75796826,
635680000,-26.01361176,-52.2621949,12.35465153,-24.71592631,
637660000,-25.79464111,-52.35372556,12.36222323,-24.69155,
639640000,-25.57269608,-52.29475683,12.41035582,-24.65012166,
