Frequency,S11_Magnitude,S12_Magnitude,S21_Magnitude,S22_Magnitude,
10000000,-12.91041467,-33.64021787,39.38074046,-27.45459414,
10220000,-18.92931541,-44.99131618,38.91065063,-15.21953141,
10440000,-20.04420343,-47.07004273,38.88203706,-14.36153286,
10660000,-18.91540203,-44.99793224,38.88476942,-15.00045937,
10880000,-19.15939435,-45.62079299,38.87269661,-14.79791046,
11100000,-18.89018532,-44.372996,38.86728386,-14.60820293,
11320000,-19.70222613,-46.60903441,38.84642885,-14.3355239,
11540000,-19.36215498,-45.85050333,38.8485174,-14.4019832,
11760000,-19.13974691,-45.18711011,38.84654643,-14.42942601,
11980000,-18.4665509,-44.60221805,38.85186052,-15.05767596,
12200000,-19.56939789,-46.13029795,38.83660237,-14.16149829,
12420000,-18.22350348,-44.083164,38.86114962,-15.23417933,
12640000,-19.38248166,-46.48614397,38.83069431,-14.28678825,
12860000,-18.85375236,-45.08410747,38.84192064,-14.49816902,
13080000,-19.53756374,-46.65450482,38.83750893,-14.15248191,
13300000,-18.49854513,-44.78666354,38.85048146,-14.68118257,
13520000,-19.06022576,-45.95865755,38.84537892,-14.31448494,
13740000,-19.38726086,-46.91488289,38.85204711,-14.28886046,
13960000,-18.81019552,-44.98116384,38.84674304,-14.38063274,
14180000,-18.87770881,-45.40946602,38.8482462,-14.37618532,
14400000,-19.24194174,-46.56447739,38.82972394,-14.23597037,
14620000,-18.40293895,-44.63610155,38.86416693,-14.57869291,
14840000,-19.00538582,-45.80025764,38.86412046,-14.12949108,
15060000,-19.40971578,-46.67203502,38.8482267,-13.94947041,
15280000,-19.83135412,-48.28418697,38.85864171,-13.74552297,
15500000,-19.38751522,-47.83151214,38.85600242,-14.1123903,
15720000,-18.9630603,-46.7063377,38.8472496,-14.21661863,
15940000,-18.60868543,-45.51138262,38.85693427,-14.31148684,
16160000,-18.3987792,-44.81511857,38.85797107,-14.32703735,
16380000,-18.48270448,-45.3549824,38.8590783,-14.43265964,
16600000,-18.52223297,-45.41003695,38.85541353,-14.32694256,
16820000,-18.30536519,-45.45102433,38.84981375,-14.51754824,
17040000,-18.74136451,-46.30618359,38.84863734,-14.20120203,
17260000,-18.74306286,-46.297945,38.8557004,-14.25253597,
17480000,-18.78702756,-46.0369875,38.83814308,-14.14070958,
17700000,-18.50164959,-45.3691051,38.84459436,-14.13175619,
17920000,-18.46527084,-44.66387448,38.8478467,-14.08573238,
18140000,-16.24438919,-40.74865595,38.85039659,-15.47024764,
18360000,-18.53910424,-45.82282885,38.8371593,-14.18690095,
18580000,-17.85888754,-45.06897473,38.858215,-14.66527984,
18800000,-18.20222369,-44.81865044,38.83994089,-14.36321026,
19020000,-18.97294875,-46.45391914,38.83736924,-13.88374938,
19240000,-18.31242185,-45.75578837,38.84795115,-14.35200835,
19460000,-18.32101964,-45.0510231,38.84438439,-14.24778341,
19680000,-18.37017071,-45.71423834,38.84517391,-14.19679256,
19900000,-18.65126593,-45.26610776,38.84299477,-13.95656812,
20120000,-18.39533936,-46.21088557,38.84189519,-14.23907719,
20340000,-19.29920266,-48.11250718,38.83419697,-13.74363332,
20560000,-18.53683393,-46.71841822,38.8472235,-14.17137032,
20780000,-18.65455039,-46.05179278,38.84971976,-14.06441143,
21000000,-16.20472059,-42.44553022,38.85038961,-13.68369072,
21220000,-18.17375995,-45.51314954,38.85172791,-14.26314518,
21440000,-18.1641991,-45.38540322,38.8584373,-14.38611864,
21660000,-18.74845194,-45.44281917,38.8383889,-13.86483373,
21880000,-18.23532968,-45.37126215,38.85136698,-14.26326573,
22100000,-18.74695022,-45.44041347,38.85014132,-13.85647133,
22320000,-18.35935467,-46.07961171,38.86176979,-14.16913346,
22540000,-18.53691831,-47.17971712,38.85246072,-14.12153781,
22760000,-18.69958636,-46.69784175,38.84870861,-14.0747404,
22980000,-18.92938903,-47.01088184,38.84781949,-13.90324303,
23200000,-18.41629179,-45.95217664,38.84543804,-14.12689172,
23420000,-18.44093698,-45.28742729,38.85154094,-14.06057517,
23640000,-18.06982842,-45.34326764,38.85526545,-14.29080102,
23860000,-17.82528536,-44.87282678,38.86029306,-14.45597329,
24080000,-18.19986934,-45.81470412,38.87040988,-14.32585531,
24300000,-18.68780826,-47.03495728,38.84529157,-14.05136198,
24520000,-18.64861939,-46.22494822,38.85759442,-14.04285243,
24740000,-18.65879618,-46.85432815,38.85627019,-13.99885377,
24960000,-18.10744444,-45.91629205,38.8517512,-14.27468868,
25180000,-18.65942459,-46.52653435,38.81680391,-14.05002069,
25400000,-18.72125761,-46.56491127,38.83269665,-14.10112002,
25620000,-18.63587864,-46.17818028,38.8292184,-13.99879426,
25840000,-18.0524191,-45.04725369,38.83286517,-14.3541591,
26060000,-18.54578404,-45.47667476,38.82026043,-14.09563704,
26280000,-18.08454729,-44.70351993,38.82275904,-14.36899488,
26500000,-18.5286801,-45.4672981,38.82056367,-13.97726923,
26720000,-18.47624415,-46.21116243,38.82033402,-14.1156577,
26940000,-17.97204994,-45.13726696,38.81773559,-14.44230323,
27160000,-17.82844832,-43.78843211,38.82319703,-14.40693547,
27380000,-17.8587855,-45.04652964,38.83342393,-14.50157225,
27600000,-18.32013576,-45.00104791,38.82118379,-14.1876596,
27820000,-18.53935041,-46.12673345,38.82926322,-14.1809704,
28040000,-17.96607527,-44.39264498,38.81963046,-14.36598867,
28260000,-18.06847219,-44.50534383,38.81956621,-14.44772218,
28480000,-18.36837825,-45.34418083,38.82661712,-14.18835092,
28700000,-17.78433759,-44.5697907,38.82702373,-14.5401199,
28920000,-18.04624557,-44.39002509,38.82388575,-14.29908836,
29140000,-18.41388856,-46.37074886,38.82576586,-14.25777662,
29360000,-18.5491886,-46.85441912,38.82433592,-14.21153638,
29580000,-18.5993165,-46.6721949,38.82473032,-14.12016793,
29800000,-18.1720698,-45.91395505,38.8237396,-14.33808432,
30020000,-18.83315497,-48.27307678,38.83414843,-13.95716936,
30240000,-19.0327306,-48.59034484,38.82008681,-13.92792867,
30460000,-19.26362623,-48.85747527,38.82155133,-13.9584315,
30680000,-17.73960448,-48.34602764,38.84762808,-14.43319828,
30900000,-7.648206384,-27.28903374,38.87738221,-0.7972236418,
31120000,-18.53705893,-47.47146695,38.71809491,-14.16024682,
31340000,-18.7783525,-48.07822491,38.80611932,-14.05923725,
31560000,-18.57938818,-46.32526056,38.8107965,-14.17008054,
31780000,-18.55330177,-46.68934911,38.81378273,-14.11565166,
32000000,-18.00087531,-45.52809452,38.81264291,-14.35984905,
32220000,-17.8610906,-44.64053596,38.82625079,-14.5761301,
32440000,-18.2257989,-45.73381091,38.8192054,-14.30787496,
32660000,-18.43752238,-46.18856304,38.82014486,-14.23683621,
32880000,-17.90815499,-44.29134505,38.81373494,-14.4555976,
33100000,-18.37518192,-45.50171939,38.80742576,-14.25222746,
33320000,-18.17072385,-44.69358962,38.80456275,-14.31304788,
33540000,-18.55611378,-45.99966006,38.79046345,-14.19454199,
33760000,-19.03642526,-46.72180999,38.79452672,-13.84512023,
33980000,-18.38106787,-45.45024516,38.80565013,-14.16410973,
34200000,-18.48854214,-45.64956211,38.79798395,-14.18094021,
34420000,-18.40216238,-45.74316396,38.79118065,-14.16817546,
34640000,-17.75505059,-44.49982576,38.7999253,-14.60867818,
34860000,-18.29325241,-43.77119902,38.79103749,-14.13865838,
35080000,-18.51072459,-45.87590606,38.79276619,-14.12353212,
35300000,-18.98425163,-46.79927337,38.78420037,-13.93369316,
35520000,-18.45413,-45.2548636,38.79441473,-14.16684116,
35740000,-18.49116058,-45.50163665,38.79326715,-14.16289166,
35960000,-18.42290747,-44.27749837,38.77040107,-14.11919308,
36180000,-18.67079475,-46.27137865,38.78462631,-14.05237931,
36400000,-18.29712776,-45.00615545,38.77642385,-14.27989079,
36620000,-18.68553066,-44.47009994,38.77381747,-14.02187374,
36840000,-18.3496204,-46.07450574,38.7851259,-14.34602394,
37060000,-18.39863595,-44.79599862,38.77967531,-14.26565392,
37280000,-18.415468,-45.2548209,38.66659026,-14.28888641,
37500000,-18.76398128,-45.6260857,38.76975851,-14.09010023,
37720000,-18.53800068,-44.75921802,38.76794051,-14.12157428,
37940000,-18.13252132,-45.00772394,38.76594496,-14.47143731,
38160000,-18.55621538,-45.55229181,38.7669054,-14.21386854,
38380000,-18.75202373,-46.90115851,38.75804619,-14.05924878,
38600000,-18.63395941,-45.87283567,38.76642948,-14.28759663,
38820000,-18.5245299,-45.57846412,38.75823408,-14.27428992,
39040000,-18.66572237,-44.93850453,38.7559771,-14.18768126,
39260000,-18.03699067,-45.46835925,38.76612432,-14.6209259,
39480000,-18.24771586,-44.26485153,38.75522111,-14.4638888,
39700000,-17.50967113,-43.94720551,38.76266926,-14.91835261,
39920000,-18.06583016,-44.53212355,38.75631523,-14.60084139,
40140000,-18.45685863,-45.58656335,38.75958578,-14.33529857,
40360000,-19.17902328,-46.97245879,38.74511714,-14.05306733,
40580000,-18.94042819,-45.52212449,38.74142383,-14.19514836,
40800000,-19.08529701,-48.96566626,38.75190417,-14.01931134,
41020000,-18.77862129,-45.65536137,38.74210974,-14.32498214,
41240000,-18.97086291,-45.04756872,38.73779014,-14.20326625,
41460000,-18.94372461,-45.98203578,38.74002782,-14.19230518,
41680000,-18.85464156,-45.42619646,38.73684078,-14.25424299,
41900000,-20.26014566,-47.30923511,38.72608831,-13.6394919,
42120000,-18.17638135,-45.04257396,38.74817184,-14.65392154,
42340000,-18.86833447,-45.2244686,38.73603352,-14.2841105,
42560000,-18.74282247,-45.52908367,38.7387697,-14.34275563,
42780000,-18.97548939,-44.57347916,38.73135722,-14.24788875,
43000000,-20.50455,-51.74063764,38.69989352,-12.63073018,
43220000,-18.95011835,-45.76983986,38.7242543,-14.22713527,
43440000,-18.72554362,-45.38760232,38.72663731,-14.40594091,
43660000,-18.73281569,-46.28270911,38.73291689,-14.4014886,
43880000,-19.11209503,-45.48098865,38.73029182,-14.22447697,
44100000,-18.84633273,-45.1968066,38.69946725,-14.37441376,
44320000,-19.08566727,-45.4657545,38.71267534,-14.26792012,
44540000,-18.64010525,-44.48857346,38.71781806,-14.49505853,
44760000,-18.80536604,-45.7754697,38.73024883,-14.39099444,
44980000,-19.07641319,-46.42871407,38.7169233,-14.22293512,
45200000,-19.32790757,-45.47307526,38.71480498,-14.17402331,
45420000,-18.63506121,-45.56831932,38.71794062,-14.48642873,
45640000,-19.03348601,-45.75972983,38.72247981,-14.32307613,
45860000,-19.01474317,-47.20557958,38.72665829,-14.30011279,
46080000,-19.25516554,-48.19868029,38.72277541,-14.11317622,
46300000,-19.00670378,-47.0269257,38.72062283,-14.2996352,
46520000,-19.23149085,-45.37156187,38.71231939,-14.28157269,
46740000,-19.34854094,-45.88671712,38.71995536,-14.23476388,
46960000,-19.38795881,-45.45947788,38.70222095,-14.21079814,
47180000,-19.42934653,-45.43715275,38.71263372,-14.13673396,
47400000,-19.15176319,-45.84326576,38.7219391,-14.38002036,
47620000,-19.03660111,-45.59597522,38.72464392,-14.32208918,
47840000,-18.84249059,-44.96906812,38.71400911,-14.48898229,
48060000,-19.09134451,-46.18624894,38.71692254,-14.39382954,
48280000,-18.97748906,-44.92367857,38.71711438,-14.39988042,
48500000,-19.32733412,-47.00718551,38.72528197,-14.22678958,
48720000,-19.13423684,-45.95340955,38.71786654,-14.4130328,
48940000,-19.26853345,-46.12673162,38.72739606,-14.43959278,
49160000,-19.02391685,-44.65686523,38.71148409,-14.41022776,
49380000,-19.10940612,-45.34121089,38.7117159,-14.37835191,
49600000,-19.47303114,-44.60042868,38.75513846,-14.3949939,
49820000,-19.49097869,-45.62840785,38.71294437,-14.23030968,
50040000,-18.93062713,-45.47420682,38.71048575,-14.48139285,
50260000,-19.24225307,-45.6691945,38.71537596,-14.3546765,
50480000,-18.72938261,-43.71948314,38.71189318,-14.73459064,
50700000,-18.91850632,-45.53141374,38.71117073,-14.53497553,
50920000,-19.31528762,-45.67639131,38.71007375,-14.36927334,
51140000,-19.33692357,-46.86036385,38.71033838,-14.29055362,
51360000,-18.84090829,-45.50652195,38.7157801,-14.58015721,
51580000,-19.30308901,-46.05087782,38.71342955,-14.29687336,
51800000,-19.47839957,-44.83454609,38.70572062,-14.29286726,
52020000,-19.94610407,-45.16764735,38.70415709,-14.09589793,
52240000,-19.2765846,-45.52380856,38.70672577,-14.37469913,
52460000,-19.25545954,-45.52989778,38.70907796,-14.42051533,
52680000,-19.87647536,-46.36597309,38.70851561,-14.14549862,
52900000,-19.33638066,-45.77099008,38.71339854,-14.35435007,
53120000,-19.27099705,-44.08409256,38.71436953,-14.42233864,
53340000,-19.14292907,-44.96851593,38.71406097,-14.49723973,
53560000,-20.14595997,-46.28588164,38.71046077,-14.0003227,
53780000,-19.63679116,-46.32705126,38.70149692,-14.25369059,
54000000,-19.22360336,-44.44397044,38.71023268,-14.44873319,
54220000,-19.53742518,-46.04347875,38.70061302,-14.31438318,
54440000,-19.00059681,-45.01921297,38.70864466,-14.52480942,
54660000,-19.25750245,-44.78376615,38.70730993,-14.48021122,
54880000,-19.71565645,-46.64592112,38.71342154,-14.15823494,
55100000,-19.68866291,-45.36232091,38.70740177,-14.32342428,
55320000,-19.71838631,-46.42001342,38.71227329,-14.1995701,
55540000,-19.30459416,-44.84461831,38.70838372,-14.48081799,
55760000,-20.07701844,-45.44798823,38.69688838,-14.18946998,
55980000,-19.81093479,-44.93639766,38.70338723,-14.16281387,
56200000,-19.12498797,-45.61608788,38.72895446,-14.56498257,
56420000,-19.73092071,-44.97886249,38.71020625,-14.25533175,
56640000,-20.03930737,-44.82404564,38.70830023,-14.10611296,
56860000,-19.46859388,-44.9921078,38.7117638,-14.34123007,
57080000,-19.38182485,-46.38688375,38.71343762,-14.34165029,
57300000,-19.97773874,-44.96887423,38.7006155,-14.16742613,
57520000,-19.70584305,-45.79466203,38.7115273,-14.23299933,
57740000,-19.86361188,-45.31481047,38.70438071,-14.19862856,
57960000,-18.81972214,-44.33033121,38.70284342,-14.66827055,
58180000,-19.73262637,-46.35234269,38.71710411,-14.20042254,
58400000,-19.90742922,-46.09980693,38.70547196,-14.18752999,
58620000,-19.69886882,-46.10255041,38.71122255,-14.30938495,
58840000,-20.03289547,-46.32726238,38.70484085,-14.14501948,
59060000,-19.93638592,-45.74534366,38.70828511,-14.16518188,
59280000,-19.91969031,-45.80115845,38.705924,-14.17286201,
59500000,-19.8090683,-45.85837534,38.71120753,-14.3561778,
59720000,-20.13249694,-47.40264036,38.7153651,-14.078198,
59940000,-19.25984748,-46.24659566,38.71582895,-14.38351976,
60160000,-19.57839232,-48.01520963,38.71736398,-14.25837308,
60380000,-19.52369913,-46.69137103,38.70389547,-14.34231071,
60600000,-19.18435448,-46.87923827,38.71771957,-14.50918138,
60820000,-19.65554353,-49.15749807,38.70047592,-14.2641334,
61040000,-19.453261,-48.94062809,38.68212165,-14.41152642,
61260000,-19.97106559,-48.5014596,38.60233608,-14.30262956,
61480000,-19.75916558,-48.72250434,38.49305625,-14.35215001,
61700000,-19.65983706,-47.93863037,38.36519902,-14.36419597,
61920000,-19.50143548,-48.2741384,38.31233269,-14.40737433,
62140000,-19.19905713,-47.23646921,38.35716559,-14.52032662,
62360000,-19.57199499,-47.64593191,38.50346304,-14.29030387,
62580000,-19.47965485,-47.20894249,38.61775476,-14.34238489,
62800000,-20.1371219,-46.55294771,38.74026887,-14.0409489,
63020000,-19.79551627,-47.02671557,38.68835071,-14.2344338,
63240000,-19.7709249,-46.60601656,38.69708376,-14.24777828,
63460000,-19.75242842,-45.43914206,38.69770075,-14.31678648,
63680000,-19.82171314,-46.82783855,38.71286709,-14.20110398,
63900000,-19.65984717,-46.13353046,38.7099811,-14.17192294,
64120000,-19.88400861,-47.11844519,38.71426779,-14.16674065,
64340000,-19.84808249,-45.4648407,38.71121207,-14.2246163,
64560000,-20.3770689,-46.42744791,38.71140291,-14.00158944,
64780000,-20.12775366,-45.65596064,38.71587526,-14.0994614,
65000000,-20.12812923,-46.87762262,38.70963171,-14.05766121,
65220000,-20.27323842,-45.22781893,38.70881984,-14.07260341,
65440000,-20.00782435,-45.90236093,38.7168842,-14.1756567,
65660000,-20.09611919,-45.82314737,38.71242486,-14.08217717,
65880000,-19.89371269,-45.55734096,38.72646723,-14.14923298,
66100000,-19.94115836,-44.66692767,38.72092015,-14.23886719,
66320000,-19.56931836,-45.14577428,38.72455588,-14.24240643,
66540000,-20.15143601,-44.86986828,38.71360328,-14.0228858,
66760000,-19.96409191,-44.60269999,38.72063168,-14.14753512,
66980000,-19.58694142,-45.55042243,38.72740359,-14.23977459,
67200000,-20.12243407,-45.28509121,38.71934643,-14.06618405,
67420000,-19.86978355,-44.25872152,38.72382806,-14.16343468,
67640000,-19.75255422,-44.61366438,38.72821285,-14.20700959,
67860000,-20.06361145,-46.64064051,38.72125747,-14.07238382,
68080000,-20.30187555,-44.51786325,38.7332176,-13.95755141,
68300000,-19.8869372,-44.43420225,38.72516491,-14.17682597,
68520000,-19.99440575,-44.48678748,38.73324327,-14.11791056,
68740000,-20.17510305,-45.44326173,38.73474113,-14.01423526,
68960000,-20.08975085,-45.15309908,38.73635817,-14.14311085,
69180000,-19.78580635,-46.17817425,38.73751749,-14.1674324,
69400000,-20.23676464,-44.92782106,38.73224357,-13.94602329,
69620000,-20.33476294,-45.25594285,38.74150958,-13.95122842,
69840000,-20.07990815,-44.99224414,38.73521331,-13.99257628,
70060000,-19.98263792,-45.75846557,38.73654231,-14.0227018,
70280000,-20.12050703,-45.01065377,38.73785828,-14.02854544,
70500000,-20.51807899,-45.92403458,38.73917984,-13.83424862,
70720000,-20.0106382,-45.7189825,38.74192898,-14.07131811,
70940000,-19.92969047,-44.88035503,38.73933896,-14.04799745,
71160000,-19.61444144,-45.38478839,38.75296389,-14.26148626,
71380000,-19.95365772,-46.65663007,38.7449418,-13.9750041,
71600000,-20.11628142,-46.02857909,38.74401017,-14.01463747,
71820000,-19.65036584,-47.28172345,38.75478946,-14.08479067,
72040000,-20.24794719,-45.61486655,38.74619913,-13.92780355,
72260000,-19.6641859,-45.57380637,38.74732541,-14.09764397,
72480000,-20.47153939,-45.64489307,38.75223159,-13.83660146,
72700000,-19.14098522,-44.8540495,38.74807311,-14.37185662,
72920000,-19.65039414,-45.11342456,38.75172071,-14.15039864,
73140000,-19.56552169,-45.65353883,38.75173978,-14.17391133,
73360000,-20.40141834,-45.92564784,38.75279635,-13.86400705,
73580000,-19.71287854,-45.7468591,38.75149463,-14.00163923,
73800000,-19.85976262,-45.64470404,38.75870931,-14.04646318,
74020000,-19.67319454,-45.86377586,38.76111759,-14.07216521,
74240000,-19.80131179,-44.07170678,38.73669655,-14.04977061,
74460000,-19.99297682,-44.56516391,38.7556425,-13.981073,
74680000,-19.90849637,-44.71801166,38.75295198,-14.03276389,
74900000,-19.59929486,-45.78790699,38.75411272,-14.14089617,
75120000,-20.61739389,-44.57427214,38.75852369,-13.77950899,
75340000,-20.4721868,-44.68283072,38.76447259,-13.77735195,
75560000,-19.76050911,-44.95376196,38.75711405,-13.9959815,
75780000,-19.72837217,-45.10637157,38.75799511,-14.04113272,
76000000,-19.41374688,-46.96024912,38.75657411,-14.19770931,
76220000,-20.07822825,-45.76501842,38.76242543,-13.93256527,
76440000,-20.22437473,-47.4451705,38.76470988,-13.83436075,
76660000,-19.60758804,-46.92879731,38.76235361,-14.0623715,
76880000,-19.88053714,-46.53321235,38.76444482,-14.03195262,
77100000,-19.39474539,-45.62018741,38.76082352,-14.08794141,
77320000,-19.78900539,-45.6082538,38.76346346,-13.97576645,
77540000,-20.1632266,-45.16822137,38.7560338,-13.81333313,
77760000,-19.81046617,-45.24581552,38.76571546,-13.90073004,
77980000,-20.5920942,-45.25948973,38.76853609,-13.68867738,
78200000,-20.2535298,-44.93548966,38.76639954,-13.82839145,
78420000,-20.39664709,-45.95388507,38.78250297,-13.77649237,
78640000,-19.77533306,-45.82203652,38.7610541,-13.85728784,
78860000,-19.94353819,-44.88234286,38.77535014,-13.81862182,
79080000,-20.00480434,-44.57863032,38.77191141,-13.83647689,
79300000,-19.89191238,-45.70493141,38.77294304,-13.90776433,
79520000,-19.80814438,-45.18786206,38.77246027,-13.88794291,
79740000,-19.88785711,-44.86097133,38.77042669,-13.87769733,
79960000,-19.64110112,-45.84063867,38.76914727,-13.94931405,
80180000,-20.05480603,-44.76581519,38.77665074,-13.77253245,
80400000,-19.96651932,-45.36144361,38.77233864,-13.83626504,
80620000,-19.82720278,-46.36927505,38.76919004,-13.88970193,
80840000,-20.08048054,-45.65714264,38.78194047,-13.78859895,
81060000,-20.08314456,-45.79393611,38.77684746,-13.77342395,
81280000,-20.16504492,-45.96327111,38.76966679,-13.77161916,
81500000,-19.87768658,-45.58893775,38.76498741,-13.81501691,
81720000,-20.37978516,-44.48001516,38.77533581,-13.67627045,
81940000,-19.68721675,-46.24661096,38.78176683,-13.89576346,
82160000,-19.42106063,-46.17643624,38.77232949,-14.00928367,
