Frequency,S11_Magnitude,S11_Phase,S11_VSWR,S12_Magnitude,S12_Phase,S12_VSWR,S21_Magnitude,S21_Phase,S21_VSWR,S22_Magnitude,S22_Phase,S22_VSWR,
100000,-13.40842278,-145.950945,1.543199387,-21.57617316,31.87650839,1.181988433,9.906103899,-155.4654837,nan,-7.74331968,-151.3737427,2.390102614,
12123847,-17.74733664,179.5908011,1.297816308,-18.96546608,-0.3952280033,1.253899103,10.77669285,179.5087889,nan,-10.58187618,179.1005528,1.839849631,
24147695,-17.53574226,-179.7674188,1.306285108,-18.96024397,-1.247784528,1.254071195,10.79599723,178.9614723,nan,-10.60113992,179.3390067,1.837210215,
36171543,-17.6292686,179.9276343,1.302508684,-19.00149777,-1.995086884,1.252715224,10.77195206,178.1233978,nan,-10.57984957,179.4119593,1.840127933,
48195390,-17.64667778,-179.7966765,1.301811566,-19.00334072,-2.523797744,1.252654836,10.76584889,177.4783081,nan,-10.57649077,179.0668696,1.84058944,
60219238,-17.64921616,-179.8579037,1.301710073,-19.00123581,-3.032018071,1.252723809,10.76060646,176.844555,nan,-10.59404838,178.7927831,1.83818061,
72243086,-17.63113765,-179.7398709,1.302433755,-19.02633485,-3.521442564,1.251902737,10.75301176,176.2472475,nan,-10.60454757,178.4939169,1.836744436,
84266933,-17.60300032,-179.7372437,1.303564,-19.03304401,-3.937142665,1.251683761,10.7521562,175.6666501,nan,-10.61525816,178.1053223,1.835282628,
96290781,-17.6060713,-179.893704,1.30344041,-19.02959189,-4.263629478,1.251796406,10.74427612,175.0940658,nan,-10.62660384,177.9526281,1.833737744,
108314629,-17.60396936,-179.9099247,1.303524995,-19.02760074,-4.676296985,1.251861404,10.74816847,174.5690136,nan,-10.64314247,177.6797289,1.83149238,
120338476,-17.57781431,-179.8648541,1.30457975,-19.0257016,-5.261971204,1.251923416,10.74471225,174.0142734,nan,-10.6614847,177.3988695,1.829011291,
132362324,-17.57141515,179.8669136,1.30483844,-19.01001421,-5.694942649,1.252436301,10.74784476,173.4211036,nan,-10.65649381,177.0437437,1.829685443,
144386172,-17.52187656,179.8792109,1.306849511,-19.0292591,-6.055601109,1.251807268,10.75396554,172.847649,nan,-10.66627168,176.6599378,1.828365349,
156410020,-17.5549047,179.8676362,1.305507036,-19.02866414,-6.578597197,1.251826689,10.75645987,172.2366054,nan,-10.69133599,176.3279761,1.824993839,
168433867,-17.57520253,179.7504233,1.304685303,-19.01261929,-6.994999949,1.25235105,10.7642458,171.6035582,nan,-10.69486686,175.9802858,1.824520313,
180457715,-17.62269802,179.8286709,1.302772264,-19.01717602,-7.474561793,1.252202008,10.76972768,170.9581912,nan,-10.71034348,175.584711,1.822448872,
192481563,-17.61277289,179.6995773,1.303170906,-19.0193619,-7.953929489,1.252130547,10.77562552,170.3369436,nan,-10.70927577,175.2895084,1.822591562,
204505410,-17.6576025,179.5288074,1.301375034,-19.02316518,-8.359366544,1.252006263,10.78075149,169.6618169,nan,-10.70612506,174.9399612,1.823012812,
216529258,-17.66031537,179.7648076,1.301266744,-19.00422061,-8.87808605,1.252626011,10.78170515,169.0584415,nan,-10.71128763,174.7404912,1.822322722,
228553106,-17.66476159,179.6818565,1.301089357,-18.99556855,-9.266435608,1.252909615,10.78512425,168.3529849,nan,-10.71078324,174.4284909,1.822390112,
240576953,-17.66909334,179.782029,1.300916651,-19.00639867,-9.638049466,1.252554672,10.78492506,167.642678,nan,-10.71432133,174.0515369,1.821917551,
252600801,-17.68094508,179.8514846,1.300444697,-19.01944765,-10.23160117,1.252127744,10.77610713,166.9716581,nan,-10.71204967,173.8257262,1.822220922,
264624649,-17.68215766,179.9802447,1.300396458,-19.00732514,-10.66239877,1.252524334,10.77390664,166.3326899,nan,-10.72574559,173.5217003,1.820394073,
276648496,-17.68377633,-179.9354161,1.300332076,-19.00890102,-11.22989197,1.25247274,10.75900537,165.6593,nan,-10.73367144,173.2866486,1.819339265,
288672344,-17.69800298,-179.7453506,1.299766895,-19.00056125,-11.69820327,1.252745917,10.74326139,165.0278152,nan,-10.72936743,173.0826951,1.819911844,
300696192,-17.68146128,-179.3493281,1.30042416,-19.00270114,-11.954706,1.252675791,10.72428159,164.4240154,nan,-10.73613615,172.8215227,1.819011607,
312720040,-17.69265166,-179.3599963,1.299979345,-18.98910359,-12.48329962,1.253121761,10.71208017,163.839326,nan,-10.74800189,172.6131494,1.817436544,
324743887,-17.67336362,-179.1812091,1.300746506,-19.00758158,-13.01983008,1.252515937,10.7010433,163.3023706,nan,-10.75094545,172.4202396,1.817046419,
336767735,-17.6483052,-179.0238733,1.301746492,-19.00530987,-13.51201736,1.252590331,10.68885589,162.7176275,nan,-10.77214503,172.1282364,1.814243816,
348791583,-17.663499,-178.9284928,1.301139717,-18.99589011,-13.95405107,1.252899069,10.68250527,162.1873455,nan,-10.78698316,171.8501446,1.812289574,
360815430,-17.66932866,-178.8992088,1.300907272,-18.99533574,-14.59159006,1.252917252,10.67873251,161.7216536,nan,-10.79784703,171.5639269,1.81086259,
372839278,-17.63599309,-178.9004419,1.302239199,-18.99464109,-14.95559312,1.252940038,10.68249307,161.2394717,nan,-10.81156728,171.3577653,1.809065028,
384863126,-17.63741556,-179.0242556,1.302182228,-18.98927881,-15.41534018,1.253116008,10.68869671,160.6709418,nan,-10.82165068,171.0763388,1.80774722,
396886973,-17.61409953,-178.9269588,1.303117587,-18.97197493,-16.01245148,1.253684788,10.69702864,160.1408763,nan,-10.85758845,170.7117908,1.803072899,
408910821,-17.59972451,-178.8948276,1.303695896,-18.99080411,-16.33716949,1.253065939,10.71523737,159.6268284,nan,-10.87180558,170.417477,1.801233328,
420934669,-17.56919325,-179.0678143,1.304928321,-18.98995124,-16.71076857,1.253093934,10.72664124,159.0864678,nan,-10.88525307,170.1576535,1.799498326,
432958517,-17.57408413,-179.1122047,1.304730515,-18.997236,-17.19906995,1.252854931,10.74543903,158.5630947,nan,-10.9020954,169.8199398,1.797332126,
444982364,-17.58184832,-179.1442674,1.3044168,-18.97449904,-17.64994724,1.253601732,10.7637816,158.0080151,nan,-10.91395762,169.3734338,1.795810975,
457006212,-17.56307295,-179.2473953,1.305176053,-18.98418788,-18.07720406,1.2532832,10.78715802,157.397472,nan,-10.90771683,168.9074975,1.796610798,
469030060,-17.56364779,-179.2256131,1.305152775,-18.9829104,-18.57402959,1.253325173,10.80023765,156.7234401,nan,-10.90513183,168.4309131,1.796942395,
481053907,-17.59565242,-179.2879541,1.303859943,-18.99724451,-18.96231517,1.252854652,10.82463053,156.0480051,nan,-10.90334037,168.121912,1.797172302,
493077755,-17.55183353,-179.5041745,1.305631587,-18.95762527,-19.55437195,1.254157542,10.83670006,155.3759518,nan,-10.91480386,167.8577623,1.795702601,
505101603,-17.58525543,-179.5155653,1.30427925,-18.94795436,-19.79051363,1.254476706,10.85039242,154.6002206,nan,-10.90379442,167.568009,1.797114024,
517125450,-17.59143202,-179.5890149,1.304030072,-18.95994554,-20.29835801,1.254081034,10.85793629,153.8226345,nan,-10.91642854,167.3270415,1.795494587,
529149298,-17.56770195,-179.7161558,1.304988663,-18.96211775,-20.92005915,1.254009431,10.85569786,153.03015,nan,-10.92334114,167.0943268,1.794610321,
541173146,-17.55448431,-179.6616981,1.305524082,-18.9596957,-21.39882429,1.254089271,10.85051616,152.225314,nan,-10.93718441,166.8065386,1.79284327,
553196993,-17.57638936,-179.7052813,1.304637333,-18.92933131,-21.70132417,1.25509257,10.84303749,151.464137,nan,-10.94199705,166.4937382,1.792230132,
565220841,-17.56012867,-179.7682143,1.305295311,-18.95115055,-22.25357382,1.254371175,10.82513687,150.6907231,nan,-10.94305948,166.1818985,1.792094861,
577244689,-17.54528024,-179.8430283,1.305897548,-18.92103354,-22.9228239,1.255367511,10.81167161,149.9326997,nan,-10.95927197,165.966384,1.790034293,
589268537,-17.57507417,-179.7473463,1.304690491,-18.92584541,-23.32075537,1.255208032,10.78397024,149.3131598,nan,-10.97262556,165.7809335,1.788342248,
601292384,-17.5692776,-179.8360609,1.304924908,-18.90200644,-23.88582684,1.255999208,10.75851334,148.6972107,nan,-10.99684946,165.519451,1.785284661,
613316232,-17.56127307,-179.8070443,1.305248951,-18.89948588,-24.40442543,1.25608302,10.73271863,148.2359964,nan,-11.02962219,165.370834,1.781172177,
625340080,-17.5499566,-179.9223013,1.305707734,-18.91638791,-24.85810634,1.255521584,10.7155976,147.7251078,nan,-11.02920378,165.0706263,1.781224506,
637363927,-17.547982,179.9703367,1.305787867,-18.90503362,-25.39259826,1.255898589,10.70261341,147.2325671,nan,-11.05707163,164.7622305,1.777748893,
649387775,-17.54721632,179.874401,1.305818946,-18.89091008,-25.89419397,1.256368408,10.68982326,146.8029103,nan,-11.06372207,164.3545015,1.776922392,
661411623,-17.52269266,179.988619,1.306816259,-18.89468618,-26.36821249,1.256242702,10.68396911,146.3254766,nan,-11.09099655,164.1816648,1.77354452,
673435470,-17.49868942,179.6398444,1.307795978,-18.87584148,-26.83525504,1.256870723,10.68397286,145.8324049,nan,-11.13230861,163.7857208,1.768463811,
685459318,-17.5021181,179.587926,1.307655816,-18.88122422,-27.26006734,1.256691163,10.69075803,145.3249071,nan,-11.1592111,163.3430339,1.765178154,
697483166,-17.48639869,179.5315759,1.30829901,-18.89106848,-27.62611447,1.256363133,10.70048244,144.8636659,nan,-11.1829042,163.0455242,1.762299306,
709507014,-17.47480366,179.172671,1.308774424,-18.86621214,-28.18105821,1.257192294,10.72710741,144.3885188,nan,-11.20777963,162.6905499,1.759291653,
721530861,-17.4734545,179.0600183,1.308829795,-18.86365392,-28.53619696,1.257277801,10.75685395,143.9957174,nan,-11.23955004,162.4895353,1.755472306,
733554709,-17.45275126,178.8697917,1.3096809,-18.87012184,-28.78804445,1.257061676,10.78345452,143.5078691,nan,-11.25344441,162.168453,1.75380966,
745578557,-17.45678636,178.7296878,1.309514809,-18.84531051,-29.48063626,1.257891845,10.80716585,142.9755724,nan,-11.28143106,161.8579335,1.750474809,
757602404,-17.45878754,178.3855548,1.309432475,-18.83983357,-30.01103575,1.258075502,10.84165255,142.2936789,nan,-11.30723331,161.4626885,1.747416868,
769626252,-17.4494873,178.364901,1.309815323,-18.80883205,-30.39352336,1.259117818,10.87863457,141.6923132,nan,-11.32062312,161.1522646,1.745836228,
781650100,-17.46806847,178.3327903,1.309050958,-18.82018756,-30.78205762,1.258735486,10.91108259,140.9107658,nan,-11.32777854,160.6171016,1.744993288,
793673947,-17.43482088,178.2046234,1.310420162,-18.81581689,-31.24256821,1.258882569,10.93940466,140.1803989,nan,-11.33180728,160.1872642,1.744519217,
805697795,-17.46268958,177.8708196,1.309272007,-18.81446169,-31.80646688,1.258928194,10.95759279,139.3420939,nan,-11.31778969,159.7267664,1.746170354,
817721643,-17.44006025,177.7994578,1.310203938,-18.79387959,-32.02357288,1.259622219,10.97158528,138.4328152,nan,-11.32829512,159.2919013,1.744932479,
829745490,-17.42067804,177.5579216,1.311004679,-18.78840398,-32.71028067,1.259807204,10.97117476,137.5218427,nan,-11.32276781,159.2153568,1.745583447,
841769338,-17.3894823,177.1917249,1.312298404,-18.79825926,-33.2200395,1.259474364,10.96254694,136.6853722,nan,-11.32577172,159.0507677,1.745229578,
853793186,-17.37797734,176.895019,1.312777069,-18.80421489,-33.67984791,1.259273455,10.95861751,135.8920911,nan,-11.33428198,158.8427377,1.744228204,
865817034,-17.36619211,176.7144214,1.313268259,-18.77371678,-34.10180421,1.260304117,10.94667506,135.1303406,nan,-11.35425604,158.7705882,1.741884633,
877840881,-17.36256742,176.7049505,1.313419506,-18.78214037,-34.68777922,1.260018992,10.92828027,134.4323663,nan,-11.36352677,158.4687132,1.740800078,
889864729,-17.3450229,176.7438364,1.314152759,-18.79765585,-35.1537352,1.259494729,10.90126139,133.692563,nan,-11.39443344,158.2130311,1.737198915,
901888577,-17.30411899,176.9001663,1.315869871,-18.80696295,-35.61016985,1.25918081,10.87099275,133.0423379,nan,-11.40102431,158.0588355,1.73643384,
913912424,-17.29283964,176.7984824,1.316345243,-18.78582194,-36.24902197,1.259894486,10.84892105,132.4061322,nan,-11.43183881,157.8584935,1.732870204,
925936272,-17.29557631,176.7095758,1.31622983,-18.77174763,-36.69744062,1.26037082,10.82049813,131.8523384,nan,-11.46178109,157.688914,1.729428361,
937960120,-17.31576329,176.4999641,1.31537997,-18.76713614,-37.17767297,1.260527104,10.79425722,131.3398219,nan,-11.51586867,157.4278952,1.723262781,
949983967,-17.2859666,176.3961925,1.316635308,-18.74589799,-37.71188233,1.261248219,10.76003701,130.8809309,nan,-11.56337373,157.0871211,1.717901874,
962007815,-17.25754324,176.4980507,1.317838082,-18.75556847,-38.19978206,1.260919594,10.72730291,130.4180859,nan,-11.61436342,156.8240082,1.712203494,
974031663,-17.26055526,176.3623079,1.317710379,-18.75968612,-38.73263576,1.260779807,10.71254096,130.0426313,nan,-11.65790591,156.4102937,1.707382523,
986055511,-17.25409442,176.1871402,1.317984377,-18.73054738,-39.15762304,1.261770816,10.70615979,129.6535328,nan,-11.68951742,156.2043703,1.703908304,
998079358,-17.28067893,176.0441359,1.316858671,-18.73089127,-39.71595207,1.261759096,10.70754283,129.2932058,nan,-11.75513214,155.7829151,1.696765366,
1010103206,-17.24260482,175.6218004,1.318472305,-18.72342566,-40.07438563,1.262013664,10.72371476,128.9344464,nan,-11.79362979,155.4276594,1.692616887,
1022127054,-17.23339933,175.3383198,1.318863849,-18.73276858,-40.6839526,1.261695125,10.75224739,128.5407543,nan,-11.81581004,155.0367276,1.690240856,
1034150901,-17.20976041,175.1242651,1.319871809,-18.71794052,-41.14801731,1.262200877,10.78824271,128.2196078,nan,-11.83474749,154.7888084,1.688220307,
1046174749,-17.25609447,175.0040245,1.317899529,-18.69449914,-41.54305223,1.263002637,10.8270835,127.7855784,nan,-11.85997706,154.3779588,1.685539941,
1058198597,-17.24249682,174.7555641,1.318476896,-18.7033895,-42.15709438,1.262698241,10.86727485,127.3031738,nan,-11.88570722,154.1123927,1.682819876,
1070222444,-17.26656608,174.4126431,1.317455706,-18.69173275,-42.60097746,1.263097436,10.9121339,126.788315,nan,-11.91852032,153.8728491,1.679370648,
1082246292,-17.27342155,174.4001059,1.31716553,-18.70637305,-43.04135956,1.262596175,10.95127573,126.1293228,nan,-11.94213878,153.4769618,1.676901449,
1094270140,-17.25442768,174.5534672,1.317970238,-18.69617017,-43.6064334,1.262945393,10.99044865,125.5044936,nan,-11.94380974,153.2784595,1.676727185,
1106293987,-17.27524072,174.3153155,1.31708858,-18.6788079,-44.05056583,1.263540849,11.03378501,124.7704558,nan,-11.93564212,153.026836,1.677579522,
1118317835,-17.24529743,174.2931854,1.318357882,-18.66374286,-44.57141003,1.26405874,11.0618822,123.9447762,nan,-11.94469117,152.7125383,1.676635282,
1130341683,-17.21905328,173.8796296,1.319475131,-18.67317466,-44.98829414,1.263734371,11.08015758,123.0454836,nan,-11.94793294,152.351197,1.676297416,
1142365531,-17.22873407,173.6170527,1.319062488,-18.68697913,-45.44412012,1.263260422,11.09279587,122.1234162,nan,-11.9575319,151.9997248,1.675298221,
1154389378,-17.19678355,173.3357159,1.320426682,-18.68139589,-46.01204579,1.263451996,11.09877794,121.1358984,nan,-11.96358582,151.7364347,1.674668995,
1166413226,-17.15697953,173.1814986,1.322135495,-18.63817812,-46.33097177,1.264940182,11.10485249,120.1557882,nan,-11.97951819,151.6446845,1.673016538,
1178437074,-17.12110659,173.2143118,1.323684438,-18.64647298,-46.90817779,1.264653826,11.0981668,119.2421992,nan,-11.9790378,151.3231284,1.673066289,
1190460921,-17.11828623,172.9737475,1.323806576,-18.63744164,-47.41339108,1.264965624,11.08073186,118.2760364,nan,-12.01153328,151.0967125,1.669711318,
1202484769,-17.11779919,172.7879398,1.323827673,-18.64935552,-47.77950886,1.264554395,11.06120157,117.464514,nan,-12.03368759,150.820231,1.667436001,
1214508617,-17.11876727,172.5626546,1.323785741,-18.63944725,-48.40831395,1.264896347,11.02451851,116.698313,nan,-12.03595879,150.6777488,1.667203289,
1226532464,-17.12608682,172.4299467,1.323468892,-18.63282821,-48.79230921,1.265125056,10.9721642,116.0353589,nan,-12.05925763,150.5339002,1.66482188,
1238556312,-17.14067021,172.2447846,1.322838659,-18.61284213,-49.28002815,1.265816981,10.92397951,115.3715864,nan,-12.0795449,150.4006664,1.662756932,
1250580160,-17.17585003,172.0330025,1.321324082,-18.6162038,-49.84800018,1.265700458,10.87687319,114.8763009,nan,-12.11782083,150.2716412,1.658882765,
1262604008,-17.20216661,171.5684321,1.320196377,-18.59654884,-50.29467948,1.266382553,10.82029099,114.3948571,nan,-12.17672234,150.0433516,1.65297597,
1274627855,-17.21254006,171.0447953,1.319753098,-18.60303394,-50.70022381,1.266157281,10.7683926,113.875513,nan,-12.25906995,149.6874365,1.644828096,
1286651703,-17.23378397,171.0088898,1.318847477,-18.60297924,-51.30721605,1.266159181,10.7343707,113.5148536,nan,-12.32879076,149.3807688,1.638028242,
1298675551,-17.23205541,170.7260836,1.318921056,-18.56736099,-51.84267548,1.267399086,10.71525961,113.2489891,nan,-12.4127029,148.9808304,1.629961953,
1310699398,-17.22846036,170.5842977,1.319074147,-18.56377219,-52.31432637,1.267524373,10.70992758,112.9371929,nan,-12.49123117,148.4726422,1.622527409,
1322723246,-17.20176322,170.4147539,1.320213629,-18.54638746,-52.78626834,1.268132214,10.71142289,112.6322779,nan,-12.54312569,147.9144734,1.617673914,
1334747094,-17.17765087,170.3169655,1.321246769,-18.57796726,-53.4099539,1.267029197,10.72992185,112.3772338,nan,-12.5595091,147.4226797,1.616151361,
1346770941,-17.20139422,170.3134518,1.320229411,-18.56283612,-53.61101482,1.267557062,10.76756778,112.1400545,nan,-12.59253327,147.0546421,1.613096404,
1358794789,-17.22613767,170.4346076,1.3191731,-18.53856243,-54.36268147,1.268406312,10.81880235,111.8567561,nan,-12.5966126,146.8357637,1.612720337,
1370818637,-17.24250171,170.6612776,1.318476688,-18.53605726,-54.91952746,1.268494131,10.8779601,111.5456527,nan,-12.61404428,146.6099203,1.611116547,
1382842484,-17.23234581,170.8106347,1.318908694,-18.535646,-55.39924929,1.268508551,10.94192715,111.0333404,nan,-12.62051521,146.2726605,1.610522512,
1394866332,-17.20630564,170.8606926,1.320019424,-18.51208114,-55.87641232,1.269336239,11.01760958,110.4804071,nan,-12.61787625,146.0617939,1.610764683,
1406890180,-17.20056319,170.7422889,1.320264957,-18.47312806,-56.29189565,1.270710687,11.07691932,109.8339987,nan,-12.62506269,145.7750459,1.610105477,
1418914028,-17.16943977,170.3737795,1.321599455,-18.49009732,-56.89840592,1.270110969,11.1288822,109.1262376,nan,-12.64566443,145.6947116,1.608220552,
1430937875,-17.15995278,170.2515721,1.322007493,-18.48464197,-57.39669933,1.270303607,11.17226432,108.2926973,nan,-12.66229348,145.4606852,1.606704339,
1442961723,-17.12996721,169.985389,1.323301061,-18.45546341,-57.78059301,1.271336564,11.21426472,107.4006392,nan,-12.6997522,145.1915625,1.603305937,
1454985571,-17.13696104,169.8073426,1.322998821,-18.4847072,-58.22520258,1.270301303,11.25262337,106.3207247,nan,-12.70219995,144.8529692,1.603084685,
1467009418,-17.08669371,169.6149377,1.325178317,-18.44205646,-58.79185989,1.271812668,11.27597313,105.1775803,nan,-12.68982937,144.6120566,1.604203886,
1479033266,-17.06200082,169.355229,1.326255089,-18.44805006,-59.38722364,1.27159971,11.29573324,104.0588473,nan,-12.68170809,144.3499777,1.604940033,
1491057114,-17.04870236,169.0411303,1.326836674,-18.42046986,-59.8851709,1.272581212,11.29313066,102.9779084,nan,-12.65497386,144.0674495,1.607371157,
1503080961,-17.07059042,168.9948501,1.325880066,-18.44064962,-60.36686748,1.271862682,11.27364043,101.8857311,nan,-12.65053024,143.7475718,1.607776411,
1515104809,-17.09267694,168.8395886,1.324918019,-18.42760894,-60.84641267,1.272326772,11.23548917,100.8733203,nan,-12.67750812,143.4980013,1.605321169,
1527128657,-17.11841548,168.5085074,1.323800978,-18.43876183,-61.44311875,1.27192981,11.18263371,99.93308826,nan,-12.69783926,143.0874681,1.603478917,
1539152505,-17.18618548,168.1556306,1.320880654,-18.43714697,-62.30493306,1.271987247,11.11287811,99.11902636,nan,-12.72590545,142.6792681,1.600947106,
1551176352,-17.22362863,167.8510333,1.319280031,-18.41837734,-62.65231006,1.272655841,11.03210049,98.50427063,nan,-12.78158584,142.4901829,1.595962837,
1563200200,-17.32679695,167.6445505,1.314916556,-18.41296172,-63.29397995,1.272849094,10.94932698,97.96552018,nan,-12.83634087,142.2540003,1.591110883,
