Frequency,S11_Magnitude,S11_Phase,S12_Magnitude,S12_Phase,S21_Magnitude,S21_Phase,S22_Magnitude,S22_Phase,
1000000,-18.37536363,179.9529824,-19.15119442,4.517223687,10.90486424,-179.0573736,-10.29886964,-178.8833748,
12998000,-18.93303955,178.5474393,-18.96099505,-1.418441203,10.83424576,179.5789094,-10.82704283,179.6916144,
24996000,-18.8293583,177.7032084,-18.9782754,-2.720856456,10.88707635,178.1145444,-10.82524648,179.5863697,
36994000,-18.8276288,175.4733307,-19.00512179,-4.359408756,10.87304864,177.338777,-10.79735057,179.730822,
48992000,-18.85018578,174.325066,-19.01407235,-5.343131431,10.86100195,175.9953903,-10.78243958,179.299202,
60990000,-18.91083633,173.2033041,-19.01997429,-6.284851208,10.85890904,174.4549819,-10.78220425,178.9481945,
72988000,-18.8983889,171.9962647,-19.03096083,-7.331080839,10.86214176,173.3060466,-10.78630451,178.6444499,
84986000,-18.93094062,170.7194559,-19.03340091,-8.429082363,10.86396196,172.0481338,-10.78951442,178.3957757,
96984000,-18.94323563,169.5326861,-19.02760791,-9.531804826,10.86066351,170.8410219,-10.79271316,178.1514049,
108982000,-18.9593115,168.3988633,-19.04124213,-10.54450279,10.86137685,169.6315017,-10.80383832,177.935898,
120980000,-18.97772212,167.1989797,-19.04765389,-11.58864921,10.85958868,168.3290104,-10.82189489,177.6488943,
132978000,-18.97569613,166.1064833,-19.03425956,-12.56763645,10.8643487,167.0257661,-10.82930959,177.4029389,
144976000,-18.97183052,165.117306,-19.04006536,-13.63707892,10.86949575,165.7009656,-10.8388019,177.079296,
156974000,-18.98225891,163.7824565,-19.04701236,-14.74327728,10.87595549,164.52019,-10.85176985,176.7810406,
168972000,-18.99175212,162.4697415,-19.04837646,-15.88583537,10.87990808,163.3613458,-10.8650767,176.4707609,
180970000,-19.01054152,161.3202799,-19.04486785,-17.05693307,10.8869404,162.1596238,-10.87538369,176.2121115,
192968000,-19.01136983,160.1585671,-19.03622423,-18.0893753,10.8922813,160.923849,-10.88300278,175.8596407,
204966000,-19.02364819,159.0041877,-19.0455591,-19.23416932,10.89439753,159.6970796,-10.8903927,175.5370498,
216964000,-19.03325308,157.8523166,-19.04827012,-20.27455186,10.89642441,158.4250708,-10.90095145,175.2665186,
228962000,-19.01506953,156.7934572,-19.04198091,-21.37994093,10.89256323,157.161517,-10.90704879,174.9476715,
240960000,-19.02123059,155.775559,-19.05220032,-22.34096401,10.88689125,155.8909409,-10.91330499,174.6250656,
252958000,-19.02335566,154.584818,-19.05136317,-23.51245556,10.87778318,154.6023931,-10.9269355,174.2978457,
264956000,-19.00444625,153.3309339,-19.04356995,-24.57784082,10.86942447,153.3458649,-10.93190952,174.1015686,
276954000,-19.01245161,152.365306,-19.05761085,-25.57707694,10.85566487,152.1324084,-10.94275828,173.8264709,
288952000,-18.99235585,151.2258304,-19.05748954,-26.70519523,10.83873119,150.8937941,-10.95327554,173.5193134,
300950000,-18.99538292,150.1064754,-19.05698346,-27.80438623,10.82208387,149.686257,-10.96137479,173.2459793,
312948000,-18.99325003,148.9499476,-19.05833854,-28.89982531,10.80278411,148.4688272,-10.96622527,172.9750195,
324946000,-18.98688363,147.7309901,-19.05193191,-29.9254929,10.79292807,147.3484123,-10.96840852,172.6903808,
336944000,-18.97230637,146.5517194,-19.05068639,-31.0076498,10.78169192,146.1782503,-10.97574333,172.3807994,
348942000,-18.97750612,145.4916224,-19.053792,-32.06957257,10.77573009,145.0386603,-10.98705638,172.1617811,
360940000,-18.96748057,144.2115001,-19.05664477,-33.17996139,10.77191161,143.9301206,-10.98353342,171.9458539,
372938000,-18.96882471,142.9554669,-19.05319846,-34.17358712,10.77256942,142.7948634,-10.99820635,171.6574144,
384936000,-18.97014613,141.713542,-19.04461653,-35.22362747,10.78047139,141.6806051,-11.00372142,171.3459517,
396934000,-18.95967349,140.5331135,-19.05100106,-36.28136377,10.79098805,140.5395062,-11.01724516,171.1082599,
408932000,-18.96134007,139.5354139,-19.03783544,-37.43747946,10.80707612,139.4369786,-11.03044932,170.8143398,
420930000,-18.95675566,138.3234497,-19.04857849,-38.46842985,10.82187288,138.2890049,-11.04971983,170.6148469,
432928000,-18.95773518,137.1465422,-19.04422218,-39.56422419,10.84312186,137.1111935,-11.06892797,170.404792,
444926000,-18.9670055,136.0428073,-19.03004729,-40.61064354,10.86426671,135.9317244,-11.08290073,170.0817922,
456924000,-18.95751704,134.8778525,-19.03995764,-41.61120083,10.88060025,134.6850944,-11.08961835,169.7182993,
468922000,-18.95451016,133.6877698,-19.03582438,-42.71583248,10.90011563,133.4148148,-11.11419995,169.4393413,
480920000,-18.95642213,132.5381747,-19.03210655,-43.76178217,10.91689812,132.1399224,-11.13153907,169.1392596,
492918000,-18.94600514,131.3595288,-19.03335379,-44.9986494,10.93371738,130.8184315,-11.1534503,168.8860106,
504916000,-18.95945413,130.3111699,-19.02638852,-46.09404447,10.93915926,129.4738493,-11.17967295,168.66686,
516914000,-18.93270382,129.0529291,-19.02405261,-47.06234979,10.94145789,128.1077835,-11.19393771,168.3771536,
528912000,-18.9395148,127.9511541,-19.02100883,-48.07742237,10.9384799,126.726634,-11.21815595,168.0413524,
540910000,-18.92544125,126.7311288,-19.01847943,-49.13589972,10.93376444,125.4193588,-11.23861347,167.8155269,
552908000,-18.9233178,125.5253511,-19.02081362,-50.26586961,10.92226159,124.016336,-11.2544327,167.5089122,
564906000,-18.90952744,124.2529334,-19.01369748,-51.40683686,10.90666392,122.7181104,-11.26895972,167.2138687,
576904000,-18.88755917,123.1991137,-19.01940388,-52.41742115,10.88600958,121.4108707,-11.27389294,166.9714942,
588902000,-18.88957592,122.0259438,-18.99859634,-53.50479316,10.86045527,120.1953171,-11.30073592,166.8214769,
600900000,-18.85592479,120.7346266,-19.0005191,-54.5799306,10.83423445,119.0193703,-11.3189003,166.5340451,
612898000,-18.85059689,119.5626967,-18.99867343,-55.62179596,10.80625778,117.8320502,-11.33615742,166.3199305,
624896000,-18.8534481,118.146275,-18.99110988,-56.78651052,10.78904733,116.7194281,-11.34917865,166.0714845,
636894000,-18.86463708,116.8117555,-18.99123455,-57.88458728,10.77391745,115.6251496,-11.36460761,165.7468864,
648892000,-18.85949459,115.4294588,-18.97985414,-58.89569704,10.75668094,114.5673288,-11.37946105,165.4574926,
660890000,-18.86368997,114.2357137,-18.97421457,-60.00338143,10.75215836,113.4876042,-11.39856305,165.2217112,
672888000,-18.86833186,112.8055575,-18.9611823,-61.09341092,10.75095967,112.4244771,-11.42615282,164.8540415,
684886000,-18.87176094,111.5646194,-18.97455172,-62.12472528,10.76396049,111.3533791,-11.45373481,164.4952888,
696884000,-18.88321617,110.2368683,-18.96127792,-63.15853131,10.76911638,110.2608519,-11.46596134,164.2284069,
708882000,-18.8819318,108.8595138,-18.95273423,-64.18880611,10.79920236,109.1897579,-11.48974699,163.9729755,
720880000,-18.89562843,107.5856393,-18.95273943,-65.22432196,10.8230782,108.0630384,-11.52044277,163.8171611,
732878000,-18.89965397,106.3469256,-18.96061898,-66.39267517,10.85245687,106.9555982,-11.54639692,163.5367413,
744876000,-18.9049984,105.1872825,-18.95232989,-67.4254435,10.87848096,105.8056242,-11.5748953,163.3612006,
756874000,-18.92231465,103.9351069,-18.94636087,-68.49961679,10.91241078,104.6027662,-11.60592212,163.1253054,
768872000,-18.94155838,102.6060539,-18.92493287,-69.55055574,10.94079285,103.3502788,-11.63589499,162.9011063,
780870000,-18.93392331,101.4739211,-18.92179147,-70.72338158,10.96923101,102.0594299,-11.6661165,162.6323087,
792868000,-18.95315091,100.1341738,-18.9190112,-71.78472791,10.99525096,100.7323473,-11.69835003,162.2839356,
804866000,-18.94175876,98.87389829,-18.9128871,-72.83191236,11.01551437,99.33271898,-11.73069518,162.0015998,
816864000,-18.93935365,97.61515349,-18.90962856,-73.96206386,11.02436317,97.91971989,-11.76467137,161.7819589,
828862000,-18.92783238,96.26141585,-18.9236897,-75.03192279,11.03388376,96.43536311,-11.78994151,161.4801593,
840860000,-18.91798679,94.90812847,-18.91260832,-76.11021353,11.02754423,94.97694486,-11.81708881,161.2495984,
852858000,-18.89824381,93.61376815,-18.90396106,-77.17874683,11.02816941,93.60493521,-11.84380776,160.8974038,
864856000,-18.87939499,92.33128573,-18.89831632,-78.35829309,11.01331777,92.17969586,-11.86266208,160.68318,
876854000,-18.85120957,91.10019806,-18.88484855,-79.40706978,11.00073019,90.85421668,-11.88969608,160.4400976,
888852000,-18.83145047,89.84469626,-18.89469149,-80.60457744,10.97910067,89.49420124,-11.9084287,160.1276744,
900850000,-18.78641404,88.69977067,-18.88255421,-81.63052804,10.95232576,88.29607157,-11.91504188,159.8603155,
912848000,-18.77167593,87.42390793,-18.8862639,-82.76201602,10.92285755,87.07370259,-11.93193982,159.5580953,
924846000,-18.77860813,86.01595373,-18.87842506,-83.9016853,10.88544446,85.90647201,-11.94108843,159.3158793,
936844000,-18.79292823,84.53043368,-18.85921591,-84.99980414,10.85418195,84.80368049,-11.97149468,158.9808512,
948842000,-18.79892028,83.25290617,-18.86674053,-86.14450762,10.82330168,83.72210526,-12.0062002,158.6729959,
960840000,-18.78891275,81.87994195,-18.84819034,-87.23526677,10.80491461,82.65296773,-12.03844679,158.4636709,
972838000,-18.78553178,80.49113034,-18.84840803,-88.35618986,10.78820009,81.58783033,-12.0804946,158.1881846,
984836000,-18.80173171,79.01860721,-18.84136135,-89.40310182,10.78070794,80.54293742,-12.11676159,158.0875818,
996834000,-18.84044993,77.57922934,-18.83870209,-90.51092476,10.781527,79.57509037,-12.16114917,157.9095165,
1008832000,-18.86984399,76.15263843,-18.83689054,-91.56940609,10.79889421,78.52546234,-12.20028808,157.6162329,
1020830000,-18.88534139,74.78935495,-18.83008583,-92.67992428,10.8248211,77.54006062,-12.21960019,157.3877672,
1032828000,-18.89427678,73.56424301,-18.83292887,-93.79185168,10.85290681,76.51741842,-12.25713474,157.0255907,
1044826000,-18.90268654,72.15297357,-18.81983384,-94.77263436,10.88791056,75.48315985,-12.29726235,156.6228683,
1056824000,-18.92075643,70.75384471,-18.80505335,-95.99788374,10.93048211,74.34936422,-12.33313671,156.4361559,
1068822000,-18.96719812,69.30225751,-18.8149053,-96.96441715,10.96707365,73.23096369,-12.38013385,156.2593134,
1080820000,-18.99612261,68.11632037,-18.80769734,-98.13078451,10.99687597,72.08136301,-12.41797367,156.0494149,
1092818000,-18.99793907,66.8875818,-18.79287855,-99.26124779,11.04020732,70.77936963,-12.44453274,155.9234754,
1104816000,-18.98254483,65.61232118,-18.78893975,-100.4426195,11.07638789,69.42880382,-12.47174841,155.7949402,
1116814000,-19.00050504,64.28254804,-18.79260971,-101.534992,11.10615009,68.02426921,-12.51229515,155.53767,
1128812000,-19.00915517,63.02308231,-18.77836337,-102.593894,11.13038258,66.57710464,-12.55031754,155.2750006,
1140810000,-19.02048586,61.69511965,-18.7666609,-103.6670287,11.15193625,65.11415337,-12.59170462,154.9758939,
1152808000,-18.99813735,60.37585462,-18.75491595,-104.750468,11.16147674,63.6024666,-12.63465625,154.5516794,
1164806000,-18.97333064,58.94537243,-18.76229861,-105.7625202,11.16894192,62.05394813,-12.65158167,154.3361001,
1176804000,-18.95118115,57.54738879,-18.75440609,-106.9645317,11.17090851,60.56916586,-12.6743349,153.9857489,
1188802000,-18.92027223,55.94988895,-18.74383397,-108.026905,11.15632322,59.0556558,-12.69487375,153.6300304,
1200800000,-18.89650608,54.24830898,-18.74322753,-109.138148,11.13534694,57.56975514,-12.72294608,153.2791223,
1212798000,-18.89851884,52.67733933,-18.74956186,-110.2651375,11.1022211,56.21752804,-12.73552508,153.0045528,
1224796000,-18.92822088,51.10347539,-18.72862961,-111.4064315,11.05841942,54.93986363,-12.75824503,152.8381348,
1236794000,-18.9511134,49.54391703,-18.71422024,-112.5038434,11.00511912,53.64871708,-12.7765042,152.5902998,
1248792000,-19.00455973,47.90917063,-18.71705225,-113.6749699,10.95185244,52.46166754,-12.80500897,152.3063592,
1260790000,-19.02215702,46.31828531,-18.71788409,-114.6172308,10.89679882,51.31144708,-12.85749327,152.0517497,
1272788000,-19.06724755,44.67983385,-18.71132474,-115.7681854,10.85810076,50.20968624,-12.90039195,151.9646671,
1284786000,-19.10006879,43.06188987,-18.69851466,-116.8235058,10.82235305,49.20379324,-12.93904197,151.5394208,
1296784000,-19.11681256,41.58470761,-18.69685835,-117.952125,10.80573119,48.23595965,-12.98268176,151.2842452,
1308782000,-19.12242899,40.26326774,-18.69556386,-119.0686614,10.79080006,47.29857025,-13.05426632,150.959564,
1320780000,-19.13455937,38.66142832,-18.68013569,-120.0973368,10.79087228,46.37069916,-13.09645169,150.6452417,
1332778000,-19.14148007,37.24146468,-18.68888623,-121.2616651,10.80696739,45.51294405,-13.13746077,150.3867224,
1344776000,-19.18067942,35.88866937,-18.6598252,-122.3529762,10.83750726,44.59542675,-13.18579163,150.2097423,
1356774000,-19.20477402,34.67249197,-18.64918549,-123.5758783,10.8778651,43.65316858,-13.23419104,149.9746226,
1368772000,-19.20936339,33.23500433,-18.67212166,-124.5872867,10.92910711,42.63279161,-13.28107291,149.7065848,
1380770000,-19.21190385,31.90341207,-18.67215475,-125.7973159,10.98477999,41.62568483,-13.33713833,149.4825116,
1392768000,-19.22536474,30.53368423,-18.64313959,-126.9584577,11.04405336,40.56047865,-13.36535186,149.2367287,
1404766000,-19.23261212,29.26332245,-18.63595521,-128.0193255,11.09651947,39.37055784,-13.41067806,149.1102112,
1416764000,-19.21786627,27.82075019,-18.65766734,-129.2198016,11.14336021,38.06546214,-13.45588814,148.8303738,
1428762000,-19.21637577,26.59263384,-18.63384249,-130.3007398,11.18335018,36.7602268,-13.50610732,148.7473732,
1440760000,-19.2267685,25.4594794,-18.60111983,-131.4383062,11.22717738,35.21526238,-13.55149827,148.465259,
1452758000,-19.203138,24.14801956,-18.6169164,-132.5563819,11.26811492,33.74082707,-13.59174616,148.1410871,
1464756000,-19.18368739,22.82177618,-18.59785758,-133.7036975,11.29584193,32.06012695,-13.61719845,147.745946,
1476754000,-19.16189983,21.38596545,-18.61421488,-134.8213776,11.31652321,30.36123314,-13.6375177,147.4102341,
1488752000,-19.11983695,19.92038673,-18.59175851,-136.006195,11.33572521,28.75175261,-13.65347695,146.9859226,
1500750000,-19.12020877,18.54185913,-18.56762572,-137.0962586,11.34049202,27.09700589,-13.63959263,146.5719959,
1512748000,-19.08983188,16.84005802,-18.57469677,-138.2317437,11.29415922,25.46610609,-13.70242505,146.1561906,
1524746000,-19.08422033,15.26170078,-18.56795873,-139.3753913,11.25410478,23.88730072,-13.72211438,145.6931977,
1536744000,-19.11276922,13.55017731,-18.55398375,-140.4958729,11.19803293,22.43368849,-13.74087273,145.3496368,
1548742000,-19.15074727,11.89578085,-18.54572784,-141.7305764,11.12642609,21.08417698,-13.77310255,144.9735257,
1560740000,-19.19594181,10.43039491,-18.53594394,-142.8291202,11.04697525,19.8769187,-13.81762682,144.6247962,
1572738000,-19.25365541,8.701354091,-18.54274792,-144.0022961,10.96850501,18.74057938,-13.88064481,144.411566,
1584736000,-19.2897403,7.11536124,-18.5303093,-145.0475386,10.89177931,17.7575268,-13.94913993,144.454341,
1596734000,-19.33687034,5.397303575,-18.51615986,-146.2599463,10.82440729,16.87044653,-14.03187217,144.5101674,
1608732000,-19.3875973,3.684995553,-18.51420344,-147.423282,10.77327251,16.04745472,-14.1293171,144.3419008,
1620730000,-19.42216795,2.152544493,-18.49211582,-148.5355477,10.74891733,15.18632832,-14.19158285,144.1320759,
1632728000,-19.43865919,0.5231192182,-18.49790716,-149.5766238,10.74918628,14.45348941,-14.2602398,143.9354219,
1644726000,-19.48017124,-0.8675748899,-18.49462029,-150.7730511,10.77152642,13.72840122,-14.32853679,143.7122886,
1656724000,-19.52848339,-2.188529104,-18.49030953,-151.9024052,10.8131231,12.93273298,-14.3902796,143.3459087,
1668722000,-19.54362019,-3.394223343,-18.48255621,-153.0383445,10.86495201,12.09821852,-14.39165891,143.2046114,
1680720000,-19.53375195,-4.641418884,-18.49386822,-154.1682426,10.94278031,11.244773,-14.42209364,143.0860725,
1692718000,-19.54508761,-6.115880207,-18.49809633,-155.3577302,11.01338559,10.36371936,-14.44456936,143.1477758,
1704716000,-19.54393289,-7.570848879,-18.48520427,-156.5084647,11.0848597,9.352768307,-14.46685574,143.1329878,
1716714000,-19.53447606,-9.121647526,-18.48077598,-157.7555791,11.15447791,8.254768072,-14.50675915,143.1739197,
1728712000,-19.55194958,-10.63385042,-18.46704138,-158.8725164,11.22828884,7.038939344,-14.56771349,142.8419019,
1740710000,-19.59646963,-12.41423035,-18.4800537,-159.947925,11.2940589,5.606141254,-14.62360647,142.4138938,
1752708000,-19.58951805,-13.95830251,-18.49247707,-161.1011444,11.35505521,4.045001221,-14.66342343,142.0191726,
1764706000,-19.50841183,-15.57596264,-18.47572416,-162.4390993,11.40602345,2.255137166,-14.71417708,141.1456894,
1776704000,-19.49403617,-17.31462613,-18.47407113,-163.5930572,11.45123481,0.4526757365,-14.73367285,140.4124143,
1788702000,-19.47546634,-19.1008872,-18.47821657,-164.7159144,11.47935643,-1.422385125,-14.78019671,139.620116,
1800700000,-19.42586889,-21.27919791,-18.47269979,-165.9026961,11.49649725,-3.448504521,-14.80033476,138.8141042,
1812698000,-19.47204278,-23.03709513,-18.49601949,-167.1131131,11.4661071,-5.268214378,-14.83668383,138.1755179,
1824696000,-19.46989538,-24.54535926,-18.4750955,-168.2838911,11.41912925,-7.025296711,-14.87670442,137.6203068,
1836694000,-19.46979735,-26.28322683,-18.45861505,-169.4020181,11.35265789,-8.628503442,-14.92659283,137.0780599,
1848692000,-19.50587344,-27.7601085,-18.467018,-170.6165607,11.26931316,-10.22524241,-14.99896949,136.8017081,
1860690000,-19.49667442,-29.05195778,-18.47013591,-171.6589432,11.17857195,-11.43462243,-15.08262976,136.8679725,
1872688000,-19.52722353,-30.26306502,-18.46683002,-172.774254,11.08502264,-12.60910731,-15.14924751,136.8654431,
1884686000,-19.56337869,-31.49912782,-18.47799635,-173.9953645,10.97817913,-13.62265665,-15.22365319,137.1031469,
1896684000,-19.56983018,-32.87109045,-18.47784979,-175.1090763,10.88533135,-14.54155578,-15.29039823,137.4350021,
1908682000,-19.56123402,-34.21836224,-18.49411019,-176.2901634,10.81489321,-15.42784715,-15.37362234,137.6247775,
1920680000,-19.57709736,-35.79265022,-18.48935564,-177.3620232,10.76402386,-16.18053926,-15.43143402,137.5948109,
1932678000,-19.58881578,-37.06375427,-18.50530712,-178.5858705,10.73640696,-16.86241128,-15.47628933,137.5887891,
1944676000,-19.60652087,-38.51388004,-18.51081917,-179.6662131,10.7378678,-17.52403498,-15.50619321,137.5318145,
1956674000,-19.61163987,-39.75740906,-18.5066843,179.1742183,10.7669469,-18.16525795,-15.49876608,137.2623246,
1968672000,-19.6062106,-41.11771649,-18.52194636,177.9926085,10.81615262,-18.86388959,-15.51470696,136.9621229,
1980670000,-19.5785946,-42.50145548,-18.53775806,176.8650921,10.89311236,-19.57238291,-15.51643554,136.5170248,
1992668000,-19.55519173,-44.08730252,-18.53734655,175.7941404,10.98877678,-20.39218858,-15.52625919,135.9754822,
2004666000,-19.54276172,-45.66137738,-18.53709113,174.5601305,11.09355209,-21.29210819,-15.54242605,135.635207,
2016664000,-19.55325636,-47.4149943,-18.54792078,173.5236257,11.18970739,-22.41344728,-15.57025114,135.3839915,
2028662000,-19.55626807,-48.91969438,-18.54089714,172.3779849,11.29224102,-23.65007525,-15.65037995,134.620512,
2040660000,-19.5601663,-50.91862718,-18.55818634,171.2375517,11.38511796,-24.92533146,-15.70268389,133.7691856,
2052658000,-19.60314515,-52.895052,-18.56879678,170.1020488,11.46026978,-26.48632682,-15.76579143,132.7974867,
2064656000,-19.62349474,-54.57516866,-18.58216957,168.9742335,11.51767856,-28.25158655,-15.85426472,132.1120089,
2076654000,-19.66873767,-56.4854022,-18.5923774,167.8785279,11.56107835,-30.09615531,-15.94164351,131.5197677,
2088652000,-19.72308018,-58.18730888,-18.61597721,166.7268307,11.5871416,-32.07115845,-16.04767344,130.943105,
2100650000,-19.79387919,-59.62638117,-18.61719047,165.6030546,11.59517826,-33.97517723,-16.11760899,130.4117379,
2112648000,-19.83975159,-61.33379619,-18.6142682,164.4823655,11.58330796,-35.89004742,-16.22086962,130.0584448,
2124646000,-19.89442328,-62.8576658,-18.63465284,163.3781127,11.54350104,-37.74071345,-16.36603919,129.8973419,
2136644000,-19.94275251,-64.18207961,-18.64106303,162.2422715,11.48340138,-39.481439,-16.52191165,129.6861591,
