Frequency,S11_Magnitude,S12_Magnitude,S21_Magnitude,S22_Magnitude,
1000000000,-3.90804339,-45.46699997,28.84787838,-17.95303675,
1004995004,-3.955514187,-46.92418924,28.91439285,-17.99629393,
1009990009,-3.991501973,-46.47107489,28.98011291,-18.20222781,
1014985014,-4.06153965,-48.56538959,29.03107334,-18.22460202,
1019980019,-4.032382524,-47.64481507,29.09084733,-18.56914219,
1024975024,-4.045273629,-48.20744533,29.16397592,-18.72839845,
1029970029,-4.111248667,-50.24818169,29.2434277,-18.71909024,
1034965034,-4.119360646,-47.24546389,29.30448323,-18.98031927,
1039960039,-4.081914655,-47.93281485,29.36256284,-19.00191276,
1044955044,-4.115217689,-50.62090187,29.43141031,-18.90553878,
1049950049,-4.338129149,-47.37697188,29.32788351,-18.95971275,
1054945054,-4.178426815,-51.45103708,29.57569007,-18.61691362,
1059940059,-4.14418474,-47.38170479,29.64622377,-18.99504505,
1064935064,-4.129127415,-47.73450132,29.69921828,-18.76716048,
1069930069,-4.115332622,-47.66923617,29.74623588,-18.68139887,
1074925074,-4.14193819,-48.86361226,29.79081757,-18.37914948,
1079920079,-4.156497438,-46.50981216,29.81906915,-18.29033187,
1084915084,-4.091311409,-47.81243138,29.86208099,-18.28651105,
1089910089,-4.079215984,-50.33405237,29.9029232,-18.14497958,
1094905094,-4.063875061,-46.95363874,29.94133818,-17.91527304,
1099900099,-4.044093707,-47.35421353,29.96532231,-17.87066916,
1104895104,-3.977478584,-47.37432726,29.99194811,-17.8724877,
1109890109,-3.993058994,-46.37213685,30.01693213,-17.75828761,
1114885114,-4.027791573,-45.39256201,30.06934523,-17.42806993,
1119880119,-3.96023023,-49.06726934,30.12743594,-17.63219468,
1124875124,-4.0056878,-46.51575088,30.18672268,-17.37390108,
1129870129,-4.010929462,-46.15097765,30.25260055,-17.04628348,
1134865134,-4.040193176,-45.31625308,30.30369997,-16.92953102,
1139860139,-4.009478703,-48.5092045,30.34995915,-17.24912308,
1144855144,-4.045914429,-46.47416797,30.41818319,-17.06470645,
1149850149,-4.011012429,-49.01989487,30.47213202,-17.13201174,
1154845154,-4.077714965,-45.12858422,30.54955568,-16.69206554,
1159840159,-4.056970257,-44.66537846,30.61673448,-16.68816865,
1164835164,-4.024710047,-47.10893526,30.6684819,-16.8282792,
1169830169,-4.132359271,-46.77306528,30.71384207,-16.49608006,
1174825174,-4.0835619,-47.66171701,30.77576509,-16.3896422,
1179820179,-4.137797285,-47.04808912,30.83983069,-16.15235758,
1184815184,-4.062535588,-46.12480709,30.89677545,-16.12894398,
1189810189,-4.086080965,-47.21090289,30.93933082,-15.93045945,
1194805194,-4.073009325,-45.72747364,30.97187279,-15.77929757,
1199800199,-4.084127541,-46.28931804,30.99389125,-15.72556668,
1204795204,-4.040303778,-45.29531857,31.03397626,-15.5165313,
1209790209,-3.967049642,-45.8490163,31.08741947,-15.55746496,
1214785214,-3.932129993,-47.39806941,31.13147607,-15.57048522,
1219780219,-3.99304504,-45.12411798,31.17566087,-15.05325898,
1224775224,-3.836761111,-46.10453918,31.22534206,-15.3423792,
1229770229,-3.94810583,-44.59209614,31.28890255,-14.94978675,
1234765234,-3.877242079,-45.02986252,31.3652708,-14.96196991,
1239760239,-3.756158533,-45.08408552,31.44051767,-15.0760303,
1244755244,-3.90643269,-45.95123231,31.50535478,-14.70587796,
1249750249,-3.794653062,-44.69506002,31.5565623,-14.81061294,
1254745254,-3.8838819,-44.65379436,31.61733125,-14.65597388,
1259740259,-4.008565403,-46.80199227,31.62924771,-14.48299501,
1264735264,-3.936457769,-43.59819464,31.68288586,-14.64164699,
1269730269,-3.91739811,-44.18404885,31.72423796,-14.71354377,
1274725274,-4.093663337,-47.08652887,31.75742959,-14.35408451,
1279720279,-4.086616243,-45.9069354,31.78556174,-14.17543724,
1284715284,-4.095915986,-45.4576634,31.79630067,-14.19638533,
1289710289,-4.093079423,-44.37776877,31.79826419,-14.16026885,
1294705294,-4.110029052,-44.59725437,31.82461118,-14.07095332,
1299700299,-4.210586117,-45.33983438,31.85410529,-13.81694587,
1304695304,-4.224398945,-44.67776812,31.85737371,-13.65850379,
1309690309,-4.110354209,-42.82579176,31.85928113,-13.84196773,
1314685314,-4.257613716,-45.43966415,31.86519927,-13.46729058,
1319680319,-4.230148036,-44.27981039,31.85366503,-13.32955973,
1324675324,-4.255867694,-45.33058649,31.85983586,-13.14871274,
1329670329,-4.089604212,-42.29755155,31.8558601,-13.14460616,
1334665334,-4.157788678,-44.8753184,31.85805133,-13.08602368,
1339660339,-4.192969614,-44.77148062,31.86599279,-12.65048224,
1344655344,-4.210470833,-44.13211179,31.86036925,-12.54725311,
1349650349,-4.226342686,-44.41526148,31.84650057,-12.39700526,
1354645354,-4.14136468,-43.7255073,31.83644497,-12.53196778,
1359640359,-3.951658972,-41.6521709,31.82563602,-12.8142317,
1364635364,-4.07577184,-45.38399773,31.83064343,-12.57334901,
1369630369,-4.021444487,-42.60929604,31.83091884,-12.45111113,
1374625374,-4.155410424,-42.87932295,31.81817615,-12.19118115,
1379620379,-4.173302502,-43.96155363,31.77692852,-12.25327584,
1384615384,-4.122844922,-46.42509528,31.74790004,-12.5357268,
1389610389,-4.226868988,-43.66955328,31.75358132,-12.08643012,
1394605394,-4.349247126,-41.98916916,31.7447009,-11.68909997,
1399600399,-3.768309286,-41.26789159,31.90440808,-12.23150905,
1404595404,-4.382347955,-42.38570404,31.67670239,-11.65921362,
1409590409,-4.346525397,-42.16289262,31.63546296,-11.73393309,
1414585414,-4.41038918,-41.96038892,31.62665969,-11.53518315,
1419580419,-4.439620118,-43.1753287,31.60384059,-11.55588269,
1424575424,-4.556935283,-42.00435429,31.59825691,-11.31301104,
1429570429,-4.534625788,-43.16187114,31.58272602,-11.323718,
1434565434,-4.569025599,-43.49118297,31.57950706,-11.28299792,
1439560439,-4.628939645,-42.07514968,31.55570243,-11.09163221,
1444555444,-4.579643458,-42.416464,31.57147493,-11.07356955,
1449550449,-4.693112743,-40.46487599,31.57780393,-10.77535306,
1454545454,-4.787082655,-39.80935287,31.59856193,-10.78303775,
1459540459,-4.686913416,-41.6133417,31.62502704,-10.86566133,
1464535464,-4.7046849,-40.90936735,31.65013897,-10.88186416,
1469530469,-4.688745942,-41.60697658,31.66381995,-10.79107787,
1474525474,-4.663355957,-41.49939894,31.71902391,-10.79291963,
1479520479,-4.744282951,-40.16884747,31.77717068,-10.70914251,
1484515484,-4.636644711,-42.28276713,31.83319374,-10.78697836,
1489510489,-4.576406511,-41.80240853,31.89597735,-10.82607501,
1494505494,-4.59371527,-42.2168308,31.92963108,-10.84697799,
1499500499,-4.575054745,-43.32773358,31.97291885,-10.81581459,
1504495504,-4.498017049,-42.59728095,32.02724259,-10.91358619,
1509490509,-4.672651663,-41.14323693,32.08996776,-10.6712139,
1514485514,-4.560387397,-42.47044338,32.14173635,-10.78817691,
1519480519,-4.586285703,-42.7948032,32.19805372,-10.80505745,
1524475524,-4.640262106,-44.21991904,32.23502639,-10.79232748,
1529470529,-4.632963503,-41.76042461,32.27194786,-10.81598775,
1534465534,-4.730346089,-41.79987314,32.33119426,-10.71418226,
1539460539,-4.710158522,-42.15353937,32.37411145,-10.82675348,
1544455544,-4.82735189,-41.85340807,32.41932757,-10.74843032,
1549450549,-4.933235596,-43.10464306,32.45263501,-10.62280198,
1554445554,-4.798893544,-41.84678713,32.47711219,-10.82394609,
1559440559,-5.047172258,-41.98139207,32.49750966,-10.65204645,
1564435564,-4.911919965,-42.38705484,32.51090173,-10.75448765,
1569430569,-4.839597389,-41.0097608,32.53835549,-10.91201342,
1574425574,-5.009422981,-42.60618532,32.55159668,-10.63317775,
1579420579,-4.944276957,-41.26904439,32.55401673,-10.89696103,
1584415584,-4.883602853,-40.97380202,32.53383928,-11.01268435,
1589410589,-4.997060244,-42.46638856,32.52455902,-10.65358922,
1594405594,-4.77543971,-40.48871388,32.50789096,-10.96823274,
1599400599,-4.969979997,-42.1527468,32.49895359,-10.65865005,
1604395604,-4.821989372,-41.11263513,32.48718377,-10.76355079,
1609390609,-4.616813414,-39.70421883,32.44371571,-10.78870605,
1614385614,-4.841054341,-41.47363434,32.41565622,-10.47834697,
1619380619,-4.671441587,-40.40473903,32.34483555,-10.71819135,
1624375624,-4.657544727,-40.45560254,32.29214726,-10.77813073,
1629370629,-4.601779835,-39.84303831,32.26027832,-10.63123578,
1634365634,-4.633193685,-39.72591502,32.22851338,-10.30910459,
1639360639,-4.752248259,-40.60906495,32.15792164,-10.30389941,
1644355644,-4.566302248,-38.78807926,32.09926807,-10.31676014,
1649350649,-4.764339514,-39.05090997,32.03967829,-9.960770148,
1654345654,-4.776937639,-39.8874344,31.97435813,-10.12057326,
1659340659,-4.898129957,-39.87160563,31.91974777,-9.954971592,
1664335664,-4.901801644,-39.77615835,31.8551063,-9.941140781,
1669330669,-4.814800349,-37.94955688,31.80442995,-9.765689964,
1674325674,-5.162235562,-39.21585524,31.71481168,-9.79431235,
1679320679,-5.112319,-38.76917523,31.6225217,-9.82401823,
1684315684,-5.174965572,-38.70286657,31.56567999,-9.833387821,
1689310689,-5.227488621,-38.1197196,31.52575946,-9.834392857,
1694305694,-5.328443924,-40.40152961,31.44652233,-10.19640905,
1699300699,-5.431826289,-39.68325746,31.40354084,-10.04800723,
1704295704,-5.435459344,-38.97301251,31.34501934,-10.0853215,
1709290709,-5.429874712,-38.06724844,31.29079793,-10.02300308,
1714285714,-5.702110866,-38.95203602,31.22892336,-10.13125395,
1719280719,-5.609589506,-38.30495241,31.20036543,-10.04104178,
1724275724,-5.691076097,-38.32912149,31.17898032,-9.963864735,
1729270729,-5.81837363,-39.90373564,31.1428407,-10.31811258,
1734265734,-5.684555696,-38.73826583,31.11279201,-10.01931565,
1739260739,-5.692491129,-39.09798245,31.07902869,-10.06481761,
1744255744,-5.64532129,-39.43560585,31.07953985,-10.06005836,
1749250749,-5.571845931,-41.14175336,31.07975417,-10.3719386,
1754245754,-5.669407206,-40.35517877,31.08934734,-10.24869576,
1759240759,-5.782445126,-39.21649248,31.10246858,-10.10187019,
1764235764,-5.580589485,-41.30146638,31.13823186,-10.21329945,
1769230769,-5.747593784,-39.719412,31.16793667,-10.1309404,
1774225774,-5.677482967,-40.14532048,31.24265289,-10.27406088,
1779220779,-5.717567072,-40.02371212,31.31512045,-10.156067,
1784215784,-5.702018242,-40.68588374,31.38563412,-10.19505609,
1789210789,-5.901410891,-39.69448253,31.44764633,-9.884644931,
1794205794,-5.694735005,-42.34433735,31.51228837,-10.0216821,
1799200799,-5.996748198,-39.57004166,31.59692429,-9.948203336,
1804195804,-5.843963107,-40.03773386,31.69189679,-10.26337496,
1809190809,-5.992464218,-40.19284045,31.78142187,-10.0867677,
1814185814,-6.030571142,-40.45402118,31.86485232,-10.10810531,
1819180819,-5.891229737,-39.71409425,31.95407966,-10.54698658,
1824175824,-5.989855574,-39.60701233,32.01738557,-10.49050632,
1829170829,-5.954410435,-39.95947691,32.0475503,-10.54932567,
1834165834,-5.980999933,-41.19350112,32.07967284,-10.42385838,
1839160839,-6.066015084,-40.19316051,32.13513486,-10.58412464,
1844155844,-6.05314669,-39.61445924,32.17073745,-10.6334531,
1849150849,-5.966216599,-39.28117498,32.17149955,-10.77895977,
1854145854,-6.03394209,-39.33328244,32.19647957,-10.7496075,
1859140859,-6.044441698,-39.46933119,32.20632055,-10.68027326,
1864135864,-5.973117169,-39.0495598,32.21383629,-10.71056033,
1869130869,-5.880372501,-39.74284121,32.23204274,-10.42280106,
1874125874,-5.983393421,-39.70212628,32.25061002,-10.34444239,
1879120879,-5.830095096,-38.91767986,32.22606939,-10.43595728,
1884115884,-5.844775545,-39.53964019,32.20146136,-10.00204591,
1889110889,-5.814862529,-38.99741559,32.14126231,-10.12638371,
1894105894,-5.860743615,-39.37219831,32.10583694,-9.784544573,
1899100899,-5.675430104,-38.35004002,32.07415273,-9.635601502,
1904095904,-5.784296132,-38.75793065,32.02314367,-9.697474235,
1909090909,-5.871388581,-39.05554598,32.00275354,-9.288887363,
1914085914,-5.648250087,-37.82830716,31.90134343,-9.588336499,
1919080919,-5.780305305,-38.05829268,31.84345825,-9.266444649,
1924075924,-5.964928934,-39.20492986,31.74394082,-9.335534431,
1929070929,-5.769492536,-37.96938157,31.67814983,-9.320028798,
1934065934,-5.742663472,-37.87034371,31.58997454,-9.367827336,
1939060939,-5.871562457,-37.51199127,31.50705867,-8.952689052,
1944055944,-5.847553896,-37.68007847,31.37576789,-9.166532964,
1949050949,-5.763052251,-37.21732408,31.26492393,-9.16102366,
1954045954,-6.077260629,-38.57576429,31.14176145,-9.174032862,
1959040959,-6.034089262,-36.75637573,31.07487136,-8.756972382,
1964035964,-6.697575804,-38.89587711,30.92203204,-8.935796088,
1969030969,-6.28534931,-37.17508795,30.86307338,-8.870913873,
1974025974,-6.06953478,-36.61732746,30.79049721,-8.836106094,
1979020979,-6.332913052,-36.43151389,30.67933048,-8.684981581,
1984015984,-6.415542768,-37.55850897,30.59265327,-8.877895436,
1989010989,-6.49887727,-37.83963636,30.52237579,-8.918522249,
1994005994,-6.290373113,-37.39868112,30.47376518,-8.808492429,
1999000999,-6.525856592,-37.37874059,30.3808513,-8.765724351,
2003996003,-6.831383875,-38.08741392,30.30406851,-9.069091815,
2008991008,-6.937855777,-38.49314021,30.22424617,-9.250611378,
2013986013,-6.724544603,-37.84310326,30.20455509,-9.068232125,
2018981018,-6.846449018,-37.51157858,30.18301813,-9.114823274,
2023976023,-6.912904686,-37.98830898,30.16077997,-9.237033775,
2028971028,-6.86429997,-38.00823375,30.16585367,-9.274296428,
2033966033,-7.107114006,-37.64306761,30.14593733,-9.42573298,
2038961038,-6.959061637,-38.54794242,30.17562943,-9.520281061,
2043956043,-6.901467922,-39.41018802,30.20441665,-9.688938501,
2048951048,-7.142696969,-38.38415671,30.26911127,-9.719771041,
2053946053,-7.067623705,-38.84123726,30.31161186,-9.680049638,
2058941058,-7.207894949,-37.91746051,30.35352124,-9.510633104,
2063936063,-7.080136772,-38.64580179,30.40529591,-9.572696187,
2068931068,-7.224898175,-38.17842478,30.44971931,-9.760753943,
2073926073,-7.117879368,-38.7322499,30.53307131,-9.744059476,
2078921078,-7.223742068,-37.83461952,30.6637933,-9.823268011,
2083916083,-7.081299148,-39.19027739,30.73141075,-9.639332999,
2088911088,-7.240260643,-38.7198178,30.82398698,-9.547279613,
2093906093,-7.187925882,-38.76073853,30.92876292,-9.847261859,
2098901098,-7.116822217,-39.17223913,31.00702644,-10.02220659,
2103896103,-7.350961377,-38.48600095,31.11932382,-9.850044186,
2108891108,-7.262478791,-38.65079514,31.21318689,-10.05098891,
2113886113,-7.327403816,-39.69786739,31.28927673,-9.783865046,
2118881118,-7.19717805,-39.20628088,31.33779901,-10.16990516,
2123876123,-7.271296563,-39.35743138,31.37599067,-10.23001357,
2128871128,-7.440492063,-39.1025849,31.43599274,-10.19253851,
2133866133,-7.346753442,-38.71711429,31.46892055,-10.5116568,
2138861138,-7.25659985,-39.58620512,31.50782356,-10.40306454,
2143856143,-7.190034282,-38.4967297,31.52413344,-10.75809433,
2148851148,-7.366723038,-38.29192515,31.53428385,-10.88877006,
2153846153,-7.225078345,-37.66792259,31.51048186,-11.06541464,
2158841158,-7.298560152,-38.12045214,31.49132805,-10.87960278,
2163836163,-7.176479441,-37.55929064,31.46407359,-10.92822705,
2168831168,-7.205226408,-38.17131907,31.48007267,-10.50412334,
2173826173,-7.236579327,-38.19446282,31.45103937,-10.4108362,
2178821178,-7.166310531,-37.60427639,31.40136252,-10.46302032,
2183816183,-6.83896081,-36.28561175,31.34582868,-10.33806714,
2188811188,-7.031208409,-37.44690072,31.31381825,-9.753589133,
2193806193,-7.140986528,-37.92639155,31.25581849,-9.652462913,
2198801198,-6.887777917,-36.93592671,31.21783591,-9.494370439,
2203796203,-6.963578323,-37.43547548,31.13704034,-9.569888537,
2208791208,-6.668687909,-36.15012564,31.07914552,-9.393855064,
2213786213,-6.84928054,-36.69248577,31.00952591,-9.04213447,
2218781218,-7.033401992,-37.37772016,30.89906078,-9.089137558,
2223776223,-6.702693703,-36.24007408,30.81735715,-9.101010349,
2228771228,-6.709954893,-35.78400838,30.73397475,-8.959532799,
2233766233,-6.880765234,-36.11571736,30.6197176,-8.922892698,
2238761238,-7.029356539,-36.28364874,30.49223746,-8.960905176,
2243756243,-7.064872489,-36.81536663,30.3509174,-9.307360639,
2248751248,-7.093313975,-36.53079489,30.21854761,-9.296865128,
2253746253,-7.423862973,-37.31903136,30.08037815,-9.394746752,
2258741258,-7.248104488,-36.56465445,30.01343737,-9.309455388,
2263736263,-7.339333273,-36.65966937,29.89728136,-9.391978658,
2268731268,-7.364690925,-36.05268948,29.80882481,-9.172599967,
2273726273,-7.68792891,-37.10225166,29.69305237,-9.459530252,
2278721278,-7.70161087,-36.32759251,29.5898247,-9.345183145,
2283716283,-8.038851924,-37.32965983,29.49417904,-9.538806105,
2288711288,-7.866578588,-37.87820609,29.46767326,-9.645324885,
2293706293,-8.037655747,-37.18839093,29.40230419,-9.449149091,
2298701298,-8.048052061,-37.56625929,29.35924642,-9.497808481,
2303696303,-8.257688299,-36.61822598,29.31154494,-9.337322296,
2308691308,-8.343908155,-36.81233776,29.27876291,-9.31257286,
2313686313,-8.16414815,-37.04537384,29.27701629,-9.218846151,
2318681318,-8.302513075,-37.31503333,29.31483799,-9.361760754,
2323676323,-8.25545318,-37.89293576,29.34133809,-9.439423735,
2328671328,-8.061175614,-37.53298965,29.33380757,-9.125587462,
2333666333,-8.125477885,-38.42749934,29.37299196,-9.534739353,
2338661338,-8.361825831,-37.6279014,29.398874,-9.708730718,
2343656343,-8.248171414,-37.89388023,29.43456955,-9.469740116,
2348651348,-8.049707822,-39.4167787,29.53248332,-9.658388196,
2353646353,-8.272211452,-38.11689966,29.61916259,-9.716647094,
2358641358,-8.402792113,-37.60410487,29.71216166,-9.699592777,
2363636363,-8.250878395,-38.41361173,29.79868817,-9.763422091,
2368631368,-8.403775826,-37.8696499,29.8944889,-9.766592114,
2373626373,-8.419683447,-37.50703529,30.00594093,-9.890702355,
2378621378,-8.383815069,-38.0655777,30.09389099,-9.814103571,
2383616383,-8.288263865,-38.26192394,30.1868034,-10.05818066,
2388611388,-8.4536016,-37.49578857,30.29227832,-10.08576168,
2393606393,-8.300939518,-38.32547796,30.33764638,-10.2331448,
2398601398,-8.398533851,-38.24138438,30.39972724,-10.26355049,
2403596403,-8.2274783,-38.92517388,30.46329609,-10.5052395,
2408591408,-8.367549494,-37.97056184,30.57993115,-10.72250048,
2413586413,-8.37208416,-38.08566125,30.65935133,-10.68328369,
2418581418,-8.456530371,-37.55991144,30.71180737,-10.82040619,
2423576423,-8.524940381,-38.40098669,30.77684799,-10.46626718,
2428571428,-8.482205984,-37.90884065,30.79271434,-10.50126746,
2433566433,-8.587802256,-37.66190625,30.81456543,-10.45042019,
2438561438,-8.626774198,-37.80079948,30.83346602,-10.2998718,
2443556443,-8.46197894,-36.41992284,30.81401894,-10.54041294,
2448551448,-8.523207797,-37.43023796,30.81241986,-10.19571574,
2453546453,-8.330281952,-36.3896297,30.77304027,-10.43550071,
2458541458,-8.51146461,-37.82190534,30.72769298,-10.10860486,
2463536463,-8.141368396,-36.53375609,30.68202424,-10.08363266,
2468531468,-8.429042804,-37.70043421,30.64198398,-10.17335378,
2473526473,-8.07495163,-36.03829984,30.61806535,-10.20698894,
2478521478,-8.148303874,-36.45564016,30.57322809,-10.07783273,
2483516483,-7.945788894,-35.66041693,30.51930589,-9.900642616,
2488511488,-7.863702247,-35.67070221,30.46119775,-9.775300356,
2493506493,-7.916061058,-35.95796793,30.36826527,-9.633116496,
2498501498,-7.82163608,-35.65565496,30.28297308,-9.649278175,
2503496503,-8.041910735,-36.50061358,30.17590464,-9.504306719,
2508491508,-7.947374148,-36.03760393,30.08842572,-9.337658279,
2513486513,-7.933428953,-36.03039767,29.97917759,-9.274357995,
2518481518,-7.861940984,-35.65616946,29.86536549,-9.206368631,
2523476523,-8.143992285,-36.42934003,29.74102485,-9.145963804,
2528471528,-8.20231445,-36.40934403,29.62985974,-9.134224158,
2533466533,-8.404545381,-36.56494894,29.52625098,-9.101001411,
2538461538,-8.335728796,-36.42754534,29.42352678,-9.07123935,
2543456543,-8.429810433,-35.57579139,29.30881069,-8.945786557,
2548451548,-8.744586886,-36.40114593,29.18020444,-9.243041799,
2553446553,-8.842039648,-37.19569472,29.0944764,-9.486139884,
2558441558,-8.99791441,-37.52892414,29.03274391,-9.614374028,
