Frequency,S11_Magnitude,S11_Phase,S12_Magnitude,S12_Phase,S21_Magnitude,S21_Phase,S22_Magnitude,S22_Phase,
1000000,-17.24382276,-179.5072664,-19.03151214,4.7279318,10.65511677,-178.8263722,-10.06675175,-178.863404,
12998000,-17.72297324,178.4878466,-18.81866855,-1.441521693,10.58995038,179.5389445,-10.59365116,179.688582,
24996000,-17.62876576,177.119543,-18.83673436,-2.847791661,10.64188562,177.9762409,-10.59234599,179.7276114,
36994000,-17.65733839,175.3745129,-18.86767944,-4.384864688,10.62068377,177.2848837,-10.54625205,179.5327035,
48992000,-17.66197514,174.065683,-18.87568538,-5.36814738,10.61225404,175.9204099,-10.54280367,179.1264576,
60990000,-17.71316025,172.8136248,-18.88162867,-6.341508971,10.60979143,174.3710687,-10.54502329,178.7672334,
72988000,-17.70594845,171.5745702,-18.8921239,-7.388386868,10.61171262,173.2014432,-10.54850747,178.4313275,
84986000,-17.73592628,170.2135085,-18.89602693,-8.497148177,10.61316923,171.9479072,-10.55227308,178.1822177,
96984000,-17.74330279,168.9658106,-18.8978579,-9.606317126,10.60904244,170.7405027,-10.55670524,177.9136748,
108982000,-17.75660099,167.7211585,-18.9073996,-10.62360007,10.60973833,169.5274153,-10.56912713,177.668261,
120980000,-17.77498756,166.477971,-18.91169554,-11.67655847,10.60748512,168.2325709,-10.58624224,177.3631424,
132978000,-17.77389728,165.313521,-18.90204427,-12.64663702,10.61113413,166.9360011,-10.59525426,177.1075246,
144976000,-17.76925289,164.2043052,-18.90749437,-13.74870889,10.61669356,165.6212709,-10.60380382,176.7700118,
156974000,-17.78137209,162.8150966,-18.90838986,-14.83975566,10.62292241,164.4377534,-10.61879905,176.4549741,
168972000,-17.78477875,161.4566916,-18.91763584,-15.97662942,10.62558554,163.267828,-10.63130149,176.1281671,
180970000,-17.80111061,160.2188737,-18.91576623,-17.15501305,10.63279482,162.0570983,-10.64112032,175.8417503,
192968000,-17.80070274,158.9711773,-18.9076413,-18.17810077,10.63793106,160.8265163,-10.64795237,175.4755829,
204966000,-17.81520706,157.7656159,-18.91920237,-19.32060998,10.63964189,159.6006761,-10.65594679,175.1389507,
216964000,-17.81979834,156.5433835,-18.9202417,-20.3694372,10.64157158,158.3207109,-10.66540305,174.8480602,
228962000,-17.80078276,155.3717501,-18.91428938,-21.45748161,10.63789869,157.050711,-10.66963855,174.5249435,
240960000,-17.80450294,154.2577123,-18.92707077,-22.43362757,10.63189713,155.7781622,-10.67753404,174.1675429,
252958000,-17.8072076,153.0140147,-18.92384433,-23.58918636,10.62247669,154.4962667,-10.69045355,173.8358736,
264956000,-17.78917447,151.7172555,-18.91526261,-24.66467512,10.61348446,153.2359368,-10.69657497,173.6105736,
276954000,-17.79381646,150.6328797,-18.93394938,-25.66966185,10.59953348,152.0230073,-10.70581978,173.3250282,
288952000,-17.77873683,149.3805634,-18.93049959,-26.78709425,10.58161682,150.7780354,-10.71726741,172.9994268,
300950000,-17.77523491,148.2140568,-18.93225703,-27.8862531,10.56517733,149.5782516,-10.72356896,172.7085505,
312948000,-17.77754158,146.959277,-18.93393998,-28.9533992,10.54471562,148.3595695,-10.73026803,172.4157403,
324946000,-17.77118791,145.7210744,-18.92780048,-30.0250061,10.53421719,147.243817,-10.73088359,172.1279632,
336944000,-17.75333801,144.4828984,-18.92661125,-31.06497417,10.52326323,146.0847168,-10.73499824,171.8004802,
348942000,-17.76246817,143.3199632,-18.92859911,-32.1570963,10.51728074,144.9452352,-10.74809044,171.5577918,
360940000,-17.74657542,141.9999544,-18.93720865,-33.23465528,10.51296053,143.8420768,-10.7442523,171.3166791,
372938000,-17.74570074,140.6872396,-18.92881819,-34.24964448,10.51435989,142.7066903,-10.75755227,171.0228519,
384936000,-17.73930665,139.4283541,-18.92259821,-35.28075848,10.52173597,141.6001219,-10.7616238,170.7036554,
396934000,-17.73018698,138.1636134,-18.92902962,-36.33723302,10.53311913,140.4653429,-10.77580272,170.4359354,
408932000,-17.73022906,137.0663088,-18.9146894,-37.47883652,10.55062001,139.3666394,-10.78691862,170.1332104,
420930000,-17.72319284,135.8031751,-18.92795319,-38.52499055,10.56541469,138.2252766,-10.80486353,169.9069416,
432928000,-17.72029139,134.5599034,-18.92099274,-39.5944822,10.58667614,137.0364624,-10.82133103,169.6728672,
444926000,-17.72383273,133.3919534,-18.90550661,-40.65989692,10.60755248,135.8654302,-10.83733518,169.3140784,
456924000,-17.71829123,132.1565254,-18.91541466,-41.66007903,10.6256098,134.6111334,-10.84363148,168.9455158,
468922000,-17.70934977,130.9211507,-18.91001581,-42.75598984,10.64627445,133.343146,-10.86738077,168.6445229,
480920000,-17.70843701,129.6936818,-18.90821357,-43.7952575,10.66328871,132.0610382,-10.88353445,168.3144323,
492918000,-17.69978353,128.4478851,-18.90694843,-45.02457549,10.68029112,130.7338244,-10.90224728,168.0517623,
504916000,-17.70822779,127.3237931,-18.90508305,-46.11393507,10.68574448,129.3890425,-10.9267505,167.8074344,
516914000,-17.67906887,126.0063681,-18.90346352,-47.09860063,10.6882959,128.0235706,-10.94219784,167.4868184,
528912000,-17.68117836,124.8415991,-18.89644794,-48.13793449,10.6846659,126.6246669,-10.96350414,167.1318688,
540910000,-17.66385782,123.5726356,-18.88906392,-49.21451882,10.67973951,125.3202165,-10.98331711,166.8650316,
552908000,-17.65950693,122.3184029,-18.89688234,-50.30815956,10.66837749,123.9084467,-10.99756361,166.5522652,
564906000,-17.64667152,120.9953668,-18.88877868,-51.42434133,10.65123802,122.6120022,-11.01122933,166.2267885,
576904000,-17.62627631,119.8502263,-18.89247686,-52.44217608,10.62993255,121.3070175,-11.01542536,165.9594497,
588902000,-17.62533112,118.6192126,-18.87229066,-53.5561231,10.60332706,120.1010772,-11.03921764,165.7889601,
600900000,-17.59531168,117.2630753,-18.87803745,-54.61966067,10.57679618,118.9143151,-11.05587709,165.4817013,
612898000,-17.58205418,116.0206195,-18.87450756,-55.66252651,10.54752649,117.7489534,-11.07365575,165.2346923,
624896000,-17.58505496,114.6134221,-18.8672236,-56.8166183,10.53091163,116.6364099,-11.08232076,164.9541608,
636894000,-17.58809078,113.192667,-18.86463618,-57.93462987,10.51657091,115.5396473,-11.09608883,164.615942,
648892000,-17.58031491,111.8157083,-18.85339119,-58.91407061,10.49878638,114.5001166,-11.11328107,164.2900109,
660890000,-17.57739343,110.5392189,-18.84689151,-60.03533606,10.49479975,113.4203799,-11.12926922,164.0302543,
672888000,-17.57434287,109.0933078,-18.83266227,-61.11966014,10.49448962,112.3627056,-11.15338321,163.6249823,
684886000,-17.57763364,107.7758435,-18.84753595,-62.15903331,10.50802347,111.2996582,-11.18088602,163.2490242,
696884000,-17.58268259,106.442467,-18.8328722,-63.19397128,10.51460356,110.2102438,-11.19184867,162.9551688,
708882000,-17.57584264,105.0172787,-18.81868218,-64.22531919,10.54615879,109.1407449,-11.21241006,162.679869,
720880000,-17.58177446,103.7127656,-18.82086931,-65.27892307,10.5719091,108.0256177,-11.24034218,162.4890046,
732878000,-17.57984109,102.4075994,-18.83180785,-66.42178512,10.60254219,106.9123573,-11.26366308,162.1765052,
744876000,-17.58163319,101.2050471,-18.82072423,-67.44840299,10.62967857,105.7683549,-11.29020037,161.9652745,
756874000,-17.59299055,99.85852467,-18.81399286,-68.54219721,10.66473179,104.5491052,-11.32271864,161.7109359,
768872000,-17.60495281,98.5444222,-18.79549193,-69.60037391,10.6941543,103.298007,-11.34721863,161.4512206,
780870000,-17.59466604,97.34876905,-18.78953026,-70.75008896,10.72302408,102.0079713,-11.37549151,161.1486059,
792868000,-17.60376575,95.92233927,-18.78643127,-71.84110547,10.75060471,100.6607524,-11.40591761,160.7809004,
804866000,-17.58963703,94.63098056,-18.78288444,-72.88444758,10.77047382,99.25934153,-11.43411825,160.4672772,
816864000,-17.5901459,93.34046926,-18.77762955,-74.01880277,10.78029638,97.8230401,-11.46399775,160.1901484,
828862000,-17.56891659,91.92241912,-18.78715899,-75.08590715,10.78783632,96.33302099,-11.48801854,159.8680321,
840860000,-17.54810917,90.57339008,-18.77574288,-76.12293598,10.78041501,94.87599395,-11.51503627,159.5986705,
852858000,-17.53420057,89.24497438,-18.77114605,-77.22651495,10.78109946,93.48553566,-11.53893982,159.2166767,
864856000,-17.50920314,87.93888283,-18.76458668,-78.39125517,10.76654448,92.05657296,-11.55638869,158.9773086,
876854000,-17.48895458,86.62819135,-18.74891632,-79.45060806,10.75210417,90.71976169,-11.57687886,158.6943109,
888852000,-17.46399902,85.36821566,-18.75609105,-80.63047562,10.72913165,89.368144,-11.59556623,158.36223,
900850000,-17.42010839,84.18139056,-18.75002621,-81.68935703,10.70108858,88.17384035,-11.60510037,158.0688854,
912848000,-17.40223122,82.79200669,-18.74897758,-82.82169933,10.66964521,86.94944681,-11.61508728,157.7472078,
924846000,-17.40727723,81.38203192,-18.74249008,-83.93781573,10.63075508,85.78953593,-11.62051851,157.4680789,
936844000,-17.41235411,79.84688736,-18.72333252,-85.03315538,10.59979361,84.69617202,-11.65135915,157.1095571,
948842000,-17.41279859,78.53865778,-18.72966604,-86.19295971,10.56787858,83.6376497,-11.68131255,156.7677083,
960840000,-17.40366002,77.17422231,-18.70890083,-87.31756796,10.54877463,82.58042199,-11.71313183,156.533142,
972838000,-17.39860238,75.7617813,-18.71266493,-88.46782065,10.53411795,81.50887826,-11.75119556,156.2158284,
984836000,-17.40173976,74.24696956,-18.70617795,-89.46888979,10.52944838,80.49144364,-11.78244299,156.0806324,
996834000,-17.42718737,72.78606413,-18.70199509,-90.58169579,10.53167283,79.52504814,-11.82726316,155.8300046,
1008832000,-17.45049226,71.3160732,-18.69400035,-91.62014004,10.55146669,78.47681271,-11.86047143,155.5304179,
1020830000,-17.45745944,69.94674042,-18.68943627,-92.73155244,10.57818263,77.50354954,-11.88356625,155.290099,
1032828000,-17.4691974,68.66181308,-18.68898998,-93.85295042,10.61004518,76.47440875,-11.91419863,154.887934,
1044826000,-17.47240534,67.2176927,-18.68206264,-94.86663871,10.64648921,75.44042006,-11.94911755,154.4517124,
1056824000,-17.48070544,65.8148477,-18.66508694,-96.05165039,10.69133687,74.30080952,-11.98399882,154.2014244,
1068822000,-17.51415333,64.34098227,-18.67015473,-97.05195156,10.7300789,73.17144571,-12.02737526,153.9964134,
1080820000,-17.52707821,63.0536061,-18.66159674,-98.20053432,10.76054953,71.99847758,-12.06370293,153.7456399,
1092818000,-17.53166677,61.82895347,-18.64841724,-99.36374688,10.80611373,70.70459356,-12.08717498,153.5774595,
1104816000,-17.51285591,60.46968921,-18.64507238,-100.5090829,10.84372398,69.30962982,-12.11133878,153.4124668,
1116814000,-17.52244704,59.12792721,-18.64604045,-101.5962917,10.87248538,67.89684225,-12.14786138,153.1216159,
1128812000,-17.5266716,57.83374952,-18.62843245,-102.6678759,10.89787537,66.43573536,-12.18375408,152.8035042,
1140810000,-17.53204614,56.47185115,-18.6180946,-103.7501262,10.92003783,64.96942311,-12.22039612,152.4804826,
1152808000,-17.5077654,55.11853233,-18.60732181,-104.8446641,10.92789417,63.41791927,-12.25805494,152.0349961,
1164806000,-17.47809601,53.62958096,-18.61705889,-105.8889699,10.93347771,61.84844649,-12.27154929,151.7425733,
1176804000,-17.45482089,52.22302773,-18.60797749,-107.0351901,10.9334256,60.36093995,-12.29292843,151.3869157,
1188802000,-17.41756272,50.68049313,-18.59622464,-108.1657593,10.9181946,58.81793277,-12.30826324,150.9626923,
1200800000,-17.3955715,49.02427388,-18.59333433,-109.2383077,10.89240891,57.35249253,-12.33185639,150.6143544,
1212798000,-17.39019959,47.43421415,-18.5970125,-110.3733379,10.85615255,56.00425203,-12.34406608,150.2993651,
1224796000,-17.40567928,45.82513071,-18.57652884,-111.5261469,10.80918122,54.72841323,-12.36059521,150.1055534,
1236794000,-17.42247289,44.24199618,-18.56330476,-112.610155,10.75274808,53.44588826,-12.37540127,149.8096516,
1248792000,-17.45879744,42.6592173,-18.56251349,-113.7631345,10.69890284,52.28283621,-12.4010056,149.4993218,
1260790000,-17.47485543,41.06216308,-18.56300739,-114.7149628,10.64221107,51.1526329,-12.45498384,149.2175237,
1272788000,-17.50065232,39.43894648,-18.55175024,-115.8847826,10.60540825,50.06255729,-12.49471832,149.0739572,
1284786000,-17.52554538,37.82110118,-18.54635819,-116.9617537,10.56815958,49.0959454,-12.53021644,148.5948544,
1296784000,-17.540282,36.31287098,-18.53921296,-118.0924473,10.55495796,48.14377804,-12.57165308,148.3077589,
1308782000,-17.54340901,34.97632765,-18.54025929,-119.186605,10.54373323,47.2270165,-12.6352041,147.938327,
1320780000,-17.55256587,33.41023855,-18.51864753,-120.2682651,10.54679956,46.30382867,-12.67382824,147.5754056,
1332778000,-17.55167165,31.9691237,-18.53031147,-121.415288,10.56293886,45.44961666,-12.70914704,147.2481827,
1344776000,-17.57520677,30.57180322,-18.50082923,-122.4828401,10.59852389,44.53875325,-12.75449552,147.0572649,
1356774000,-17.59934076,29.30963925,-18.48933993,-123.7366154,10.64300976,43.59559954,-12.79936339,146.755657,
1368772000,-17.59507479,27.86568869,-18.5111369,-124.7596134,10.69818513,42.56831719,-12.84109408,146.4752065,
1380770000,-17.59269208,26.50457203,-18.50959234,-125.9556571,10.75877136,41.55772407,-12.89020376,146.1924374,
1392768000,-17.59965788,25.13069716,-18.48396769,-127.1350612,10.82082764,40.46375724,-12.91497164,145.8702938,
1404766000,-17.60144573,23.80219189,-18.47861428,-128.2073937,10.87567936,39.24758991,-12.95758857,145.6984306,
1416764000,-17.58616965,22.37840767,-18.49491901,-129.3815967,10.92628558,37.92463004,-12.99447708,145.3720326,
1428762000,-17.57234904,21.079839,-18.47047011,-130.5028826,10.96735759,36.58192409,-13.04036177,145.225042,
1440760000,-17.57893627,19.89233934,-18.43641887,-131.6166326,11.01187054,35.00665507,-13.0779281,144.9230148,
1452758000,-17.55135646,18.50037261,-18.45448476,-132.7747793,11.05337486,33.48389444,-13.11432018,144.5216662,
1464756000,-17.52084907,17.18073198,-18.43371501,-133.9252021,11.07670993,31.75638756,-13.13092065,144.0762832,
1476754000,-17.49457841,15.67741418,-18.4474609,-135.0882774,11.09159148,30.06352442,-13.14134911,143.6679406,
1488752000,-17.45232597,14.22931002,-18.42777818,-136.272111,11.10943884,28.41160765,-13.15390864,143.2475382,
1500750000,-17.45662494,12.7564047,-18.41010878,-137.3379291,11.09997566,26.74378511,-13.14526504,142.7745533,
1512748000,-17.41726607,11.12958384,-18.40962643,-138.5108801,11.05672471,25.08058765,-13.18357096,142.344569,
1524746000,-17.41132978,9.518083029,-18.39725253,-139.6855156,11.01023869,23.5117179,-13.19839065,141.8671681,
1536744000,-17.43044499,7.825578363,-18.38604447,-140.8147749,10.94632847,22.07339803,-13.21690892,141.4718066,
1548742000,-17.46172034,6.195368409,-18.38336842,-142.0299612,10.86923089,20.74261302,-13.24345611,141.0677168,
1560740000,-17.50375884,4.68548835,-18.36766228,-143.1400218,10.78601579,19.5630914,-13.27921482,140.7062058,
1572738000,-17.53986894,2.940777864,-18.37294968,-144.3201293,10.70450102,18.47107198,-13.34129168,140.4760821,
1584736000,-17.57139682,1.365396261,-18.36364407,-145.4091973,10.62690169,17.5279861,-13.40673491,140.4567644,
1596734000,-17.60725824,-0.3198866237,-18.34657374,-146.6319503,10.55945142,16.67535246,-13.48346694,140.4450837,
1608732000,-17.64576212,-2.007881449,-18.34415418,-147.838708,10.51194542,15.89647229,-13.57392262,140.2126939,
1620730000,-17.67035932,-3.564655842,-18.31852284,-148.9202092,10.49220869,15.06881665,-13.62362056,139.9928259,
1632728000,-17.68350373,-5.110127315,-18.32415764,-149.9999844,10.49635242,14.36322859,-13.68723328,139.7303239,
1644726000,-17.71000594,-6.483771989,-18.32635143,-151.2091397,10.52663355,13.67082653,-13.74874293,139.4582088,
1656724000,-17.74170418,-7.877723653,-18.32064257,-152.3375281,10.57567571,12.88264366,-13.79802948,139.061814,
1668722000,-17.75171659,-9.12963195,-18.31192429,-153.5147441,10.63540835,12.06029529,-13.79502843,138.8690878,
1680720000,-17.73734587,-10.3770227,-18.32404305,-154.6745987,10.72141569,11.19756511,-13.81894845,138.7147048,
1692718000,-17.73697315,-11.90564643,-18.32947816,-155.8562077,10.79786685,10.28395966,-13.83711953,138.715192,
1704716000,-17.72706275,-13.38690442,-18.3181564,-157.0191267,10.87725949,9.234577272,-13.8506229,138.6397506,
1716714000,-17.70327119,-14.95265644,-18.31456776,-158.2622508,10.94993202,8.111932773,-13.8863027,138.6525761,
1728712000,-17.71221072,-16.43901312,-18.3001471,-159.4007866,11.0295464,6.833792912,-13.93674224,138.2478323,
1740710000,-17.69924362,-18.2243232,-18.3160396,-160.5481303,11.09698384,5.340880499,-13.98611786,137.719541,
1752708000,-17.68289901,-19.97576715,-18.33044798,-161.7556772,11.15824739,3.72653635,-14.00762852,137.2646576,
1764706000,-17.63032005,-21.60134457,-18.31699597,-163.0615364,11.20826739,1.873076436,-14.05416901,136.3684285,
1776704000,-17.62319445,-23.27921676,-18.31802167,-164.1976302,11.25019224,0.007290640009,-14.0618209,135.5979837,
1788702000,-17.59831672,-25.02730477,-18.31954204,-165.377524,11.27141019,-1.926231813,-14.09343078,134.7769106,
1800700000,-17.55583646,-27.0477095,-18.31612274,-166.5021038,11.28344632,-3.980236438,-14.10328332,133.9730331,
1812698000,-17.58973231,-28.82376289,-18.33951814,-167.7432542,11.23809007,-5.84475792,-14.12999856,133.3263105,
1824696000,-17.5928569,-30.36708352,-18.32364001,-168.9479576,11.17921837,-7.615372846,-14.16218584,132.7249981,
1836694000,-17.59486723,-32.06592047,-18.3118315,-170.1059337,11.10589164,-9.224703309,-14.20270196,132.1705175,
1848692000,-17.62538823,-33.52365401,-18.32161439,-171.3392302,11.01033814,-10.77504057,-14.26115576,131.8972006,
1860690000,-17.62109577,-34.84823628,-18.32603907,-172.3978826,10.90807058,-11.96439333,-14.33103852,131.9273201,
1872688000,-17.64528081,-36.10150175,-18.32522603,-173.5174839,10.809812,-13.07159258,-14.38977904,131.9208393,
1884686000,-17.67428619,-37.39624768,-18.33575313,-174.7252418,10.69607333,-14.04639524,-14.45677989,132.1054502,
1896684000,-17.67347993,-38.76274122,-18.34062345,-175.8774314,10.59992641,-14.86159322,-14.51711062,132.3814573,
1908682000,-17.66725798,-40.11293741,-18.35615094,-177.0532872,10.53097122,-15.68919049,-14.58838552,132.4794152,
1920680000,-17.66520865,-41.62754989,-18.36004799,-178.1477321,10.484855,-16.36870199,-14.63136569,132.4426588,
1932678000,-17.66897502,-42.90419983,-18.375409,-179.3839332,10.46374292,-16.98266052,-14.65841616,132.3945253,
1944676000,-17.67317815,-44.35070061,-18.38356706,179.5205025,10.47377417,-17.59516547,-14.67375535,132.2802548,
1956674000,-17.65919839,-45.63985075,-18.38343755,178.3648474,10.51291307,-18.20279923,-14.65572976,132.0056019,
1968672000,-17.64030292,-47.01855812,-18.40353034,177.1555041,10.57489346,-18.878604,-14.66042652,131.6522001,
1980670000,-17.60193984,-48.47264538,-18.4242366,176.0346706,10.66309449,-19.58741848,-14.64896174,131.1716466,
1992668000,-17.56196019,-50.06212546,-18.42983578,174.922801,10.7705321,-20.4427412,-14.64416099,130.5975899,
2004666000,-17.54631472,-51.74836306,-18.42983879,173.7307136,10.88612256,-21.37285809,-14.65260016,130.2301193,
2016664000,-17.53706296,-53.53011593,-18.44239863,172.6488231,10.99360621,-22.56520018,-14.6711551,129.8919203,
2028662000,-17.53052002,-55.14465952,-18.44148063,171.5058142,11.1043068,-23.85705784,-14.73321334,129.1118494,
2040660000,-17.52695293,-57.14081342,-18.46236503,170.4151121,11.19988887,-25.20549583,-14.76912196,128.2890397,
2052658000,-17.55186522,-59.17553952,-18.47912995,169.2229928,11.2779785,-26.86346587,-14.82218593,127.3125729,
2064656000,-17.57045816,-60.8696851,-18.4909733,168.10063,11.33628915,-28.72806515,-14.89410303,126.5722201,
2076654000,-17.60888248,-62.8031238,-18.50768411,167.0402144,11.37598519,-30.66785926,-14.96670311,125.9706761,
2088652000,-17.65378776,-64.50367384,-18.53505272,165.8817305,11.39445293,-32.7224425,-15.05310958,125.3822666,
2100650000,-17.71954626,-65.99641159,-18.5422694,164.8247701,11.39319535,-34.70738756,-15.10518719,124.8934545,
2112648000,-17.76264607,-67.6467535,-18.54257007,163.6601717,11.36880054,-36.69881996,-15.19165263,124.4856079,
2124646000,-17.80482378,-69.12907203,-18.56382697,162.5860798,11.31237134,-38.57330609,-15.31215471,124.2989276,
2136644000,-17.84131383,-70.45180171,-18.57432024,161.4642299,11.23697523,-40.35275152,-15.42004277,124.0258649,
