Frequency,S11_Magnitude,S11_Phase,S12_Magnitude,S12_Phase,S21_Magnitude,S21_Phase,S22_Magnitude,S22_Phase,
1000000,-17.23860877,179.8224917,-19.15234698,4.604072256,10.8474054,-179.1455705,-10.00733578,-179.4622975,
12998000,-17.74234116,178.4254256,-18.93742162,-1.42330796,10.76965751,179.5216965,-10.55683761,179.6031869,
24996000,-17.59793877,177.2372858,-18.94701772,-2.807553034,10.83419898,178.0039372,-10.58173409,179.5523665,
36994000,-17.65613936,175.3204438,-18.98661124,-4.34720861,10.80418532,177.2754519,-10.5182979,179.4692685,
48992000,-17.66444759,173.9992476,-18.99319971,-5.328700122,10.79479794,175.9014911,-10.51624204,179.0346554,
60990000,-17.71861341,172.7348919,-18.99775665,-6.28424598,10.79214642,174.3545255,-10.51884048,178.6661803,
72988000,-17.71031195,171.4396407,-19.00496872,-7.328071569,10.79379108,173.1786398,-10.52544871,178.3268393,
84986000,-17.74089628,170.0770448,-19.00989037,-8.42032732,10.7940553,171.9145591,-10.5293561,178.0642906,
96984000,-17.75610652,168.7787692,-19.00584733,-9.505101675,10.78936397,170.7046424,-10.53481123,177.7946649,
108982000,-17.7732245,167.5481745,-19.01688616,-10.56391452,10.78829494,169.4949624,-10.5486161,177.5444821,
120980000,-17.79595699,166.2491897,-19.01848168,-11.56927703,10.78532047,168.1883397,-10.56619514,177.2232607,
132978000,-17.79908278,165.0902747,-19.00723776,-12.54199758,10.7887216,166.8866334,-10.57526438,176.9600383,
144976000,-17.80162507,164.0122353,-19.01395877,-13.67355844,10.79332169,165.5639481,-10.58584967,176.6119444,
156974000,-17.81438729,162.6033119,-19.01386228,-14.74415402,10.79908238,164.3912346,-10.59982398,176.3083669,
168972000,-17.82993951,161.2671491,-19.02001758,-15.89219688,10.80067464,163.2249834,-10.61237565,175.9942593,
180970000,-17.85297408,160.0246867,-19.01624044,-17.06466161,10.80698537,162.0191392,-10.62180498,175.6990701,
192968000,-17.85687669,158.7861389,-19.0083632,-18.0918606,10.81166361,160.7942559,-10.62916773,175.3326638,
204966000,-17.87352879,157.6039367,-19.01763846,-19.22529307,10.81294319,159.5668211,-10.63663702,175.0077835,
216964000,-17.88797758,156.3877913,-19.01895023,-20.27023702,10.81426358,158.2969544,-10.64542868,174.7138767,
228962000,-17.87264897,155.2433853,-19.01174541,-21.37957445,10.81018465,157.0324762,-10.65045681,174.3885173,
240960000,-17.88549255,154.1646837,-19.02559961,-22.36692372,10.8032753,155.75934,-10.65804968,174.0346301,
252958000,-17.8886915,152.9497927,-19.02065016,-23.52714912,10.79395552,154.4774934,-10.67102336,173.6837847,
264956000,-17.87461171,151.64275,-19.01372843,-24.6145076,10.78459348,153.2126853,-10.67630804,173.471821,
276954000,-17.88478036,150.6347726,-19.02781877,-25.58616565,10.77011626,152.0042864,-10.68493756,173.1714771,
288952000,-17.87374552,149.4233549,-19.02802587,-26.73723709,10.75168431,150.7686659,-10.69562409,172.8594119,
300950000,-17.87452183,148.2832383,-19.02614584,-27.79673395,10.73450345,149.5632164,-10.70204738,172.5664336,
312948000,-17.87596497,147.0713173,-19.02930986,-28.90138379,10.71435763,148.3509051,-10.70667048,172.2788699,
324946000,-17.87117388,145.8372814,-19.02141212,-29.96450332,10.70366311,147.2380938,-10.70781874,171.9881455,
336944000,-17.85535851,144.6451884,-19.02481013,-31.03390613,10.69193051,146.0769529,-10.7128662,171.6566395,
348942000,-17.86163856,143.5373951,-19.02151536,-32.09889966,10.68589774,144.9446367,-10.72495488,171.4123164,
360940000,-17.84978409,142.2179988,-19.02767824,-33.19047745,10.68164514,143.8383506,-10.72011481,171.1668582,
372938000,-17.84914511,140.9172967,-19.02274737,-34.185451,10.68201856,142.7179396,-10.73124095,170.8581764,
384936000,-17.84272349,139.6622999,-19.0139714,-35.2353854,10.68990868,141.6043675,-10.73562564,170.5352475,
396934000,-17.83263527,138.430117,-19.0229482,-36.31381004,10.7008,140.4655188,-10.74903459,170.2698288,
408932000,-17.8324635,137.3709011,-19.00975739,-37.45797393,10.71786088,139.3715982,-10.76090945,169.9737688,
420930000,-17.82781643,136.1011856,-19.02240164,-38.48550468,10.73238241,138.2317644,-10.77735197,169.7196919,
432928000,-17.82428355,134.8805273,-19.0144408,-39.57826223,10.75464058,137.0474449,-10.79295234,169.5112426,
444926000,-17.82871752,133.7355519,-18.99855805,-40.61691166,10.77591213,135.8820255,-10.80436686,169.1628726,
456924000,-17.82091397,132.5144262,-19.00671975,-41.61414175,10.79345475,134.6330239,-10.80878035,168.7708026,
468922000,-17.81398274,131.2653161,-19.00568825,-42.71137216,10.81373592,133.3729993,-10.83092649,168.4784606,
480920000,-17.81816117,130.0577241,-19.0033792,-43.73779839,10.83087373,132.0933216,-10.84601735,168.154476,
492918000,-17.80805817,128.8283936,-19.00037917,-44.98651241,10.84756047,130.7661065,-10.8638834,167.8828929,
504916000,-17.81553727,127.6929074,-18.99859418,-46.0853306,10.85402991,129.4262558,-10.88537908,167.6371363,
516914000,-17.79109638,126.3827602,-18.9973227,-47.05238934,10.85584245,128.0511498,-10.90084131,167.3247951,
528912000,-17.79319906,125.2328062,-18.99080151,-48.09740172,10.85304857,126.6600182,-10.91957386,166.9612419,
540910000,-17.78289015,123.9953302,-18.98581208,-49.16979446,10.84808233,125.3522257,-10.93660379,166.7161527,
552908000,-17.77625279,122.7240679,-18.99203364,-50.27752634,10.83629791,123.9490507,-10.94892978,166.3821374,
564906000,-17.76032849,121.4313131,-18.98054925,-51.41558693,10.81984324,122.6454787,-10.96176137,166.0853368,
576904000,-17.74349171,120.304016,-18.98598139,-52.40668583,10.79727218,121.3344808,-10.96550186,165.8146731,
588902000,-17.74492267,119.0873307,-18.96702111,-53.50017697,10.77081267,120.1303714,-10.98951291,165.6223461,
600900000,-17.71060845,117.7647732,-18.97038931,-54.57267777,10.7445965,118.9392608,-11.00532475,165.3179299,
612898000,-17.7034547,116.5148651,-18.96541521,-55.62958717,10.7145724,117.7730201,-11.02071508,165.0803342,
624896000,-17.70406835,115.1370406,-18.96476105,-56.79996345,10.69708155,116.6741488,-11.02875104,164.7936411,
636894000,-17.70631633,113.7353723,-18.96316558,-57.89662876,10.68336233,115.5842111,-11.04044511,164.4552761,
648892000,-17.69765586,112.3216658,-18.94669338,-58.90435363,10.6628934,114.5422244,-11.05462654,164.1289651,
660890000,-17.69382279,111.0897279,-18.94453443,-60.04705134,10.6611096,113.460443,-11.06994632,163.8650141,
672888000,-17.68863449,109.6406795,-18.92915633,-61.09949309,10.66047757,112.4101933,-11.09597569,163.4646132,
684886000,-17.68904283,108.3257586,-18.94242443,-62.12279835,10.67400666,111.3394016,-11.11944835,163.0726959,
696884000,-17.69438908,107.019981,-18.92963997,-63.20537391,10.68045228,110.255999,-11.12913281,162.7958066,
708882000,-17.68114043,105.549567,-18.92047521,-64.18690567,10.7122951,109.1854859,-11.14920363,162.5075614,
720880000,-17.69142815,104.2649843,-18.9148795,-65.24781566,10.73745318,108.0726323,-11.17524326,162.3172305,
732878000,-17.6917054,102.9340394,-18.92357552,-66.37164093,10.76778155,106.9663589,-11.19663608,162.0036863,
744876000,-17.69096116,101.7352001,-18.91257308,-67.43255772,10.79506969,105.816158,-11.22030506,161.792775,
756874000,-17.70137388,100.3928864,-18.90962104,-68.5228517,10.83063647,104.6076388,-11.24894588,161.5300763,
768872000,-17.71382539,99.04252028,-18.89174793,-69.55228454,10.86012132,103.3471463,-11.27343755,161.2777977,
780870000,-17.70084929,97.81303536,-18.88789794,-70.72891454,10.8899185,102.0571444,-11.2996585,160.9742575,
792868000,-17.71255441,96.43855223,-18.88443612,-71.81179909,10.91616688,100.7078316,-11.32566521,160.6183049,
804866000,-17.69565093,95.13334635,-18.88107208,-72.84832276,10.93735805,99.30762509,-11.35157445,160.3097554,
816864000,-17.69975026,93.80202324,-18.87652948,-73.9829966,10.94619493,97.86884581,-11.37974362,160.0465386,
828862000,-17.67913616,92.40415706,-18.88389292,-75.07026696,10.95446205,96.37772135,-11.40214746,159.7284163,
840860000,-17.66374433,91.00578427,-18.87624741,-76.1130421,10.94768586,94.92297672,-11.42559338,159.4786715,
852858000,-17.64885183,89.68723958,-18.86849197,-77.16820251,10.94679173,93.53385514,-11.4457211,159.1033652,
864856000,-17.62071848,88.38238103,-18.86344532,-78.35901512,10.93183109,92.10697382,-11.46199827,158.8753429,
876854000,-17.60147161,87.08186104,-18.84749073,-79.43311493,10.91695994,90.78257723,-11.48304536,158.6184692,
888852000,-17.57458578,85.7980848,-18.85559742,-80.61511176,10.8934156,89.42502881,-11.49997364,158.265144,
900850000,-17.52768571,84.61417787,-18.84772167,-81.63668493,10.865421,88.22695418,-11.50580568,157.9918094,
912848000,-17.51047876,83.28473105,-18.85124276,-82.77842841,10.83369047,87.00603769,-11.51667049,157.6648598,
924846000,-17.51293597,81.82597505,-18.84273393,-83.90118553,10.79448154,85.84422788,-11.52143466,157.4117323,
936844000,-17.51868878,80.3031485,-18.81982407,-85.00594333,10.76321667,84.75381119,-11.54867874,157.0442357,
948842000,-17.51901054,78.98517199,-18.83002531,-86.15214712,10.73028804,83.69008012,-11.57835916,156.7282965,
960840000,-17.50336266,77.60181113,-18.80878744,-87.24003361,10.71214837,82.640708,-11.60951216,156.478432,
972838000,-17.4949006,76.2186386,-18.81406752,-88.41029635,10.69414308,81.5813826,-11.64586303,156.1724632,
984836000,-17.50130128,74.6760634,-18.80765146,-89.44894807,10.69075029,80.54674537,-11.6794622,156.0426533,
996834000,-17.52195209,73.18853637,-18.80124844,-90.53155545,10.69412414,79.60252162,-11.71965214,155.7875293,
1008832000,-17.5417314,71.72403044,-18.79468889,-91.58008306,10.71062032,78.56302026,-11.7506335,155.4867115,
1020830000,-17.54604266,70.35342308,-18.7898734,-92.67259774,10.73936051,77.59622265,-11.76942189,155.2586798,
1032828000,-17.552188,69.08559179,-18.78972093,-93.79938258,10.76929301,76.58926902,-11.79785687,154.869184,
1044826000,-17.55027022,67.61569571,-18.7806731,-94.7891459,10.8064932,75.55448696,-11.83440969,154.4344458,
1056824000,-17.56914699,66.15589053,-18.76505142,-96.00215001,10.85089144,74.41444551,-11.8635939,154.1896734,
1068822000,-17.59495342,64.66473547,-18.77382192,-96.99751723,10.88996301,73.28646464,-11.90060004,153.9888074,
1080820000,-17.6085756,63.34951429,-18.76811318,-98.17954016,10.9212431,72.11992989,-11.93514075,153.7536759,
1092818000,-17.61430419,62.11548554,-18.75407023,-99.31582612,10.96657571,70.82797157,-11.95372597,153.6018917,
1104816000,-17.59672527,60.75326989,-18.7502159,-100.470115,11.00399535,69.4515785,-11.97617706,153.4369853,
1116814000,-17.60382278,59.35937348,-18.75253509,-101.52899,11.03288232,68.03540369,-12.00996775,153.1509261,
1128812000,-17.60672666,58.08486077,-18.7340162,-102.6074089,11.06075126,66.56524778,-12.03977214,152.8729883,
1140810000,-17.60408982,56.69251486,-18.72045105,-103.6756178,11.08369324,65.0865072,-12.07369644,152.5799982,
1152808000,-17.58222409,55.31719289,-18.71454173,-104.7861995,11.09070842,63.55041443,-12.11010124,152.1249186,
1164806000,-17.55048506,53.83533168,-18.7196257,-105.8172702,11.09713907,61.96026164,-12.11984515,151.8599807,
1176804000,-17.52921246,52.40787835,-18.7136929,-107.0002257,11.0961491,60.47749697,-12.13662276,151.5145794,
1188802000,-17.49224388,50.83977922,-18.69977689,-108.1006423,11.07904899,58.94804368,-12.15008665,151.1390736,
1200800000,-17.46484948,49.17498251,-18.69775253,-109.1814952,11.05355756,57.45589246,-12.17079355,150.7912669,
1212798000,-17.45758823,47.55917137,-18.70733122,-110.3050213,11.01703295,56.10192015,-12.18207984,150.484871,
1224796000,-17.46881895,45.96876974,-18.6835452,-111.44474,10.96953284,54.82769007,-12.19910018,150.2915027,
1236794000,-17.48847949,44.38342158,-18.66919345,-112.5500651,10.91165738,53.53917139,-12.21257181,150.028934,
1248792000,-17.52091383,42.76913459,-18.67044408,-113.6979927,10.85647514,52.37781941,-12.23363919,149.7306506,
1260790000,-17.52883875,41.17409716,-18.67058641,-114.6644431,10.79816939,51.25050533,-12.28108554,149.4614535,
1272788000,-17.55662848,39.50340542,-18.66270862,-115.8231619,10.75713951,50.16711575,-12.3228967,149.3193419,
1284786000,-17.57970927,37.86941239,-18.64938198,-116.9042491,10.72069111,49.20024961,-12.35589549,148.8596076,
1296784000,-17.5839234,36.36925437,-18.65282961,-117.9894094,10.70808489,48.2450972,-12.39590154,148.5828042,
1308782000,-17.58929001,34.98261741,-18.64897795,-119.1453707,10.69273141,47.35403611,-12.4583142,148.1977966,
1320780000,-17.59198259,33.36687158,-18.62958606,-120.1594928,10.69463555,46.44157824,-12.4918491,147.8779502,
1332778000,-17.59191702,31.93029006,-18.63710503,-121.337901,10.71425481,45.58601823,-12.52515645,147.5659754,
1344776000,-17.61286433,30.50897503,-18.60750149,-122.4276019,10.74794698,44.70354567,-12.56934244,147.3551698,
1356774000,-17.63191442,29.20089822,-18.59814201,-123.629192,10.79290123,43.78312328,-12.60732394,147.0737144,
1368772000,-17.62360846,27.76591153,-18.62227355,-124.6822551,10.84794748,42.7480612,-12.64610126,146.8131829,
1380770000,-17.62066327,26.37694925,-18.6208936,-125.8834819,10.909347,41.73783199,-12.69032907,146.5414533,
1392768000,-17.62162155,24.96706178,-18.59381909,-127.0446559,10.97353249,40.65469092,-12.70740252,146.2315612,
1404766000,-17.62172358,23.62501839,-18.58659852,-128.1266481,11.02954097,39.4478803,-12.7456005,146.0820221,
1416764000,-17.60439563,22.17428738,-18.60454417,-129.2907609,11.08038404,38.12109798,-12.77780816,145.7839881,
1428762000,-17.59007807,20.86830745,-18.57983706,-130.396424,11.12253258,36.79092748,-12.82004116,145.6776615,
1440760000,-17.59510005,19.66690858,-18.54643104,-131.5390785,11.16979387,35.21856066,-12.85277338,145.4052986,
1452758000,-17.56796376,18.25588062,-18.56183025,-132.6654337,11.21161422,33.70887491,-12.88542619,145.0418852,
1464756000,-17.53674354,16.90741769,-18.54276436,-133.8169096,11.23529309,31.97334885,-12.90218998,144.6289573,
1476754000,-17.50387539,15.41837889,-18.55574455,-134.9607265,11.25464476,30.23583672,-12.90612119,144.2733905,
1488752000,-17.4644461,13.90988481,-18.53798961,-136.1619106,11.2681817,28.59341851,-12.91452931,143.8422696,
1500750000,-17.46456326,12.47655911,-18.5143526,-137.1845511,11.26133851,26.92770244,-12.90385232,143.4152144,
1512748000,-17.42321691,10.81029806,-18.51982259,-138.3978161,11.2178819,25.24051832,-12.94132881,143.0123063,
1524746000,-17.41362161,9.18757023,-18.51007671,-139.5255179,11.16863628,23.65747591,-12.95594257,142.5633498,
1536744000,-17.42957531,7.470443779,-18.4972088,-140.690121,11.10492246,22.20612612,-12.97048867,142.1872674,
1548742000,-17.45324733,5.801095392,-18.48819546,-141.9081572,11.02523174,20.87362652,-12.99520479,141.792835,
1560740000,-17.49374031,4.322890009,-18.48270909,-143.0297402,10.93954773,19.70068972,-13.03315602,141.4644491,
1572738000,-17.52637571,2.533900124,-18.48426993,-144.2141418,10.85507501,18.59835247,-13.08950765,141.228266,
1584736000,-17.55761879,0.9515543988,-18.47026802,-145.2922423,10.77432684,17.66603148,-13.15200731,141.2311793,
1596734000,-17.58811775,-0.7409512194,-18.45829772,-146.5095713,10.70424435,16.83420614,-13.22800619,141.2468185,
1608732000,-17.62283349,-2.43484742,-18.4559096,-147.6675799,10.65372884,16.06677719,-13.3135631,141.0365624,
1620730000,-17.64363444,-4.020746334,-18.43088685,-148.8044195,10.63106873,15.25424248,-13.36322853,140.8028404,
1632728000,-17.65000824,-5.579774711,-18.43734494,-149.8692191,10.63381045,14.56598067,-13.42237499,140.5791647,
1644726000,-17.67519916,-6.997154093,-18.43751909,-151.0683846,10.66260802,13.88625491,-13.4772232,140.2882036,
1656724000,-17.70340031,-8.375969848,-18.43352628,-152.2128959,10.71419493,13.12978517,-13.5247111,139.91639,
1668722000,-17.70714909,-9.663402586,-18.42830494,-153.3761963,10.77284016,12.30405851,-13.51625723,139.721518,
1680720000,-17.69551427,-10.92698804,-18.43429838,-154.5389936,10.85953692,11.4640964,-13.53135633,139.5937833,
1692718000,-17.68774039,-12.47149768,-18.44571091,-155.6979986,10.93772518,10.56694603,-13.5466042,139.5890184,
1704716000,-17.6722117,-13.97527427,-18.43292177,-156.8633975,11.01921718,9.529729165,-13.55274659,139.5381038,
1716714000,-17.64524601,-15.55762969,-18.42889528,-158.1291115,11.09565946,8.413520594,-13.58300417,139.5528888,
1728712000,-17.65058598,-17.060717,-18.41907865,-159.2475962,11.17736287,7.157414059,-13.62854008,139.2054671,
1740710000,-17.63850564,-18.86038593,-18.42576211,-160.3983147,11.24678302,5.671201968,-13.66122261,138.7545232,
1752708000,-17.62005296,-20.65126246,-18.44882613,-161.5686241,11.31153636,4.059057855,-13.68480787,138.3298682,
1764706000,-17.55932879,-22.27059657,-18.42784354,-162.8963771,11.36368403,2.211897934,-13.72151869,137.4848387,
1776704000,-17.54838723,-23.98762385,-18.42890468,-164.0139714,11.40800312,0.3303545252,-13.726469,136.7585846,
1788702000,-17.5253605,-25.75605048,-18.43566551,-165.1548511,11.4324206,-1.624828977,-13.75466139,136.0105539,
1800700000,-17.47000837,-27.84273671,-18.41656409,-166.3195516,11.45431234,-3.777176335,-13.75484882,135.2395365,
1812698000,-17.51158756,-29.63094428,-18.45390703,-167.607007,11.40184766,-5.575737429,-13.78773671,134.6341923,
1824696000,-17.51496986,-31.14684602,-18.44233042,-168.7613329,11.34369459,-7.392627522,-13.82010825,134.0914308,
1836694000,-17.51044459,-32.87508761,-18.42708302,-169.9178866,11.26868718,-9.027412468,-13.85814042,133.6082016,
1848692000,-17.53714306,-34.32154129,-18.43634476,-171.1238789,11.16818743,-10.59177571,-13.91747035,133.3645406,
1860690000,-17.53194565,-35.66300875,-18.44391986,-172.1895436,11.06492872,-11.7869761,-13.98784687,133.4108902,
1872688000,-17.55716712,-36.94542495,-18.43873897,-173.3111621,10.9584332,-12.91939389,-14.04607189,133.4255268,
1884686000,-17.58530987,-38.21361234,-18.45381531,-174.5604107,10.84113719,-13.88426356,-14.11491265,133.6117374,
1896684000,-17.58269052,-39.57749475,-18.45863251,-175.6782448,10.74059802,-14.70571123,-14.17524428,133.9109043,
1908682000,-17.57432541,-40.92537945,-18.47697303,-176.8590672,10.66532465,-15.51160188,-14.24440323,134.0503079,
1920680000,-17.57037467,-42.45152114,-18.47706799,-177.9244427,10.61523583,-16.16899511,-14.28146441,134.0158815,
1932678000,-17.56989724,-43.71336572,-18.49627017,-179.1745868,10.58994483,-16.76569984,-14.3128881,133.9653481,
1944676000,-17.56990294,-45.14988653,-18.50713118,179.7150601,10.59703489,-17.35405353,-14.33005185,133.8670343,
1956674000,-17.55395893,-46.4438156,-18.50346635,178.5611726,10.63574255,-17.91127833,-14.30342159,133.5883008,
1968672000,-17.52865959,-47.85046544,-18.52822178,177.3534947,10.69448743,-18.54956181,-14.30699362,133.2415394,
1980670000,-17.49068731,-49.31457949,-18.54738961,176.2362692,10.78679038,-19.23328944,-14.28652417,132.7978828,
1992668000,-17.45291731,-50.92974176,-18.5471296,175.1696581,10.89536309,-20.04987575,-14.27701445,132.2686553,
2004666000,-17.42893811,-52.56848536,-18.55132951,173.9130375,11.01551315,-20.96940611,-14.2783672,131.8770355,
2016664000,-17.41914569,-54.39870101,-18.5645914,172.8869393,11.12649082,-22.13215427,-14.29229181,131.5691804,
2028662000,-17.40619889,-56.03095092,-18.56589812,171.7444322,11.23917356,-23.399213,-14.34766701,130.8485123,
2040660000,-17.39887536,-58.05175746,-18.58902628,170.5986913,11.34025104,-24.74192935,-14.38090237,130.0545684,
2052658000,-17.42363566,-60.0574796,-18.60003276,169.4636978,11.42327283,-26.38456729,-14.42433051,129.1216999,
2064656000,-17.44323369,-61.83137304,-18.62080925,168.3303317,11.48660567,-28.2546348,-14.4924767,128.4449755,
2076654000,-17.47652512,-63.74934903,-18.63383972,167.2484836,11.52978191,-30.20755472,-14.56383927,127.898803,
2088652000,-17.53031798,-65.46932332,-18.6622185,166.1405598,11.55284407,-32.28922936,-14.64461995,127.3563631,
2100650000,-17.58892202,-66.96630852,-18.66659757,165.043644,11.5541742,-34.29594686,-14.69828421,126.8960284,
2112648000,-17.63077276,-68.63892495,-18.66809196,163.9161095,11.53309647,-36.31371663,-14.77612685,126.5641023,
2124646000,-17.67305205,-70.14504995,-18.6897816,162.8174727,11.4778503,-38.23842787,-14.89526269,126.4657849,
2136644000,-17.71088198,-71.48180004,-18.70193266,161.6999293,11.40100562,-40.04244109,-15.00813181,126.2745894,
