Frequency,S11_Magnitude,S11_Phase,S12_Magnitude,S12_Phase,S21_Magnitude,S21_Phase,S22_Magnitude,S22_Phase,
1000000,-19.75462384,-179.0974614,-18.82080058,4.586837115,10.29195175,-178.8446832,-10.81650337,-178.3478896,
12998000,-20.42073362,178.843133,-18.60876259,-1.405236236,10.20519862,179.4903879,-11.41494128,179.66865,
24996000,-20.27648696,178.2422799,-18.62201862,-2.696206744,10.25500446,178.0595732,-11.42473227,179.5219231,
36994000,-20.28621539,175.9857699,-18.64862056,-4.378703165,10.24136896,177.2108048,-11.38304038,179.7448397,
48992000,-20.30152059,174.9945667,-18.65651129,-5.346257484,10.23252792,175.8740419,-11.36848954,179.2823891,
60990000,-20.35719793,173.9458074,-18.6573896,-6.311786065,10.23118818,174.3461691,-11.36640135,178.9218245,
72988000,-20.33815477,172.8969759,-18.66774921,-7.379040479,10.23485031,173.1720966,-11.3713872,178.5871313,
84986000,-20.36710603,171.7231251,-18.6752033,-8.483950159,10.23711638,171.9163636,-11.37475457,178.3415279,
96984000,-20.36910928,170.6230507,-18.67306787,-9.581360292,10.23423727,170.7186215,-11.37939195,178.110806,
108982000,-20.38328537,169.5817498,-18.67940466,-10.61102886,10.23504085,169.5227124,-11.39288964,177.8954755,
120980000,-20.40036257,168.4824278,-18.6867518,-11.68531916,10.23339597,168.2327539,-11.41333382,177.5968684,
132978000,-20.38585929,167.4511448,-18.67343459,-12.64340611,10.23705379,166.947283,-11.4237263,177.3712989,
144976000,-20.37669456,166.5357655,-18.67909205,-13.76182421,10.24265384,165.6463795,-11.43591556,177.0466258,
156974000,-20.38267701,165.2890757,-18.684229,-14.83867588,10.24833925,164.4497239,-11.45153666,176.7464572,
168972000,-20.38478089,164.0699517,-18.69157058,-16.00123136,10.25114415,163.2789779,-11.46908661,176.4471406,
180970000,-20.40283533,162.989549,-18.68640194,-17.14708122,10.25760599,162.0593681,-11.48376593,176.191834,
192968000,-20.40194618,161.8520369,-18.6802293,-18.24821186,10.26243117,160.827788,-11.4939566,175.8397437,
204966000,-20.42030643,160.8137141,-18.68582639,-19.36890501,10.26445583,159.5964654,-11.50241705,175.5273389,
216964000,-20.42297281,159.7615585,-18.68855234,-20.43720071,10.26623297,158.3260717,-11.51569449,175.2716682,
228962000,-20.3979905,158.7533037,-18.68497003,-21.54315462,10.26225873,157.0621767,-11.52330673,174.9566608,
240960000,-20.40296679,157.8278966,-18.69463514,-22.52452751,10.25663282,155.7964091,-11.53336343,174.6299772,
252958000,-20.4061734,156.7256086,-18.69392908,-23.6975876,10.24816049,154.5154,-11.54953184,174.3177483,
264956000,-20.38529259,155.5940706,-18.68194857,-24.75005872,10.24013848,153.2766339,-11.55537534,174.1339656,
276954000,-20.39231315,154.7220134,-18.70125287,-25.77665192,10.22750166,152.0618748,-11.57019577,173.8653954,
288952000,-20.37041188,153.6632937,-18.69903522,-26.91190147,10.21159034,150.8294338,-11.58318123,173.5829738,
300950000,-20.36796759,152.6883315,-18.70014529,-27.98992802,10.19658841,149.6309768,-11.59246021,173.3019094,
312948000,-20.37099557,151.5846116,-18.6995034,-29.08178871,10.17800268,148.4132416,-11.60054188,173.0257034,
324946000,-20.36213852,150.4954602,-18.69363397,-30.17235914,10.16861414,147.2903144,-11.60392285,172.768778,
336944000,-20.33193873,149.4258709,-18.69096468,-31.21027616,10.15861569,146.1256825,-11.61265455,172.4587491,
348942000,-20.34503268,148.4760806,-18.69118485,-32.28900366,10.15367003,144.9831875,-11.62843959,172.241019,
360940000,-20.32611373,147.2510475,-18.70013512,-33.40824574,10.14994812,143.8719299,-11.62736997,172.0236816,
372938000,-20.32365853,146.0838658,-18.69584112,-34.3805206,10.15071567,142.729195,-11.64398043,171.7494797,
384936000,-20.31571337,144.900445,-18.68937851,-35.47199047,10.15821889,141.617499,-11.65189051,171.4514309,
396934000,-20.30212088,143.8557502,-18.69379377,-36.54660957,10.16803149,140.4722685,-11.67091644,171.224268,
408932000,-20.29546703,142.9766206,-18.68115876,-37.7116509,10.18459125,139.3564149,-11.68409331,170.9235269,
420930000,-20.2866634,141.8249813,-18.69312699,-38.73398823,10.19818837,138.2256002,-11.70674105,170.7399953,
432928000,-20.27915393,140.7505252,-18.68673817,-39.85739534,10.21856823,137.0472903,-11.72721215,170.5533872,
444926000,-20.28412686,139.7548969,-18.67112417,-40.9211668,10.23870539,135.8756263,-11.74762604,170.2249904,
456924000,-20.26938858,138.7229998,-18.67830985,-41.88418754,10.25421303,134.630422,-11.7574862,169.8567572,
468922000,-20.25717875,137.6323301,-18.67522302,-43.02641148,10.27220959,133.3655865,-11.78451831,169.5905799,
480920000,-20.25988472,136.5533689,-18.67648539,-44.07861426,10.28808819,132.0983927,-11.8055327,169.2779709,
492918000,-20.2486602,135.4088941,-18.67580257,-45.29678752,10.303354,130.7755371,-11.83159051,169.0516331,
504916000,-20.25356553,134.5203739,-18.67104865,-46.42100491,10.30865613,129.4493955,-11.86241012,168.8406919,
516914000,-20.21689373,133.2750486,-18.667901,-47.41914087,10.31157044,128.0954866,-11.88130861,168.5449202,
528912000,-20.21939195,132.306137,-18.66335442,-48.4452148,10.30870061,126.7156898,-11.90832473,168.222018,
540910000,-20.20037264,131.1517323,-18.65731785,-49.52202984,10.30476803,125.4198745,-11.93198597,167.9762581,
552908000,-20.20092508,129.9896493,-18.66530816,-50.63717664,10.2958132,124.0256803,-11.95242076,167.6794624,
564906000,-20.18247122,128.8381256,-18.65745634,-51.76197702,10.28176831,122.7224773,-11.97045539,167.3885239,
576904000,-20.15624399,127.9054647,-18.65716295,-52.76476571,10.26341383,121.4441495,-11.97980188,167.169479,
588902000,-20.1541052,126.7588499,-18.6428121,-53.91134644,10.24038575,120.2446827,-12.0116376,167.0286762,
600900000,-20.12164442,125.547648,-18.64639867,-54.97032395,10.21554446,119.0665273,-12.03384919,166.7571235,
612898000,-20.10508658,124.4655077,-18.63997362,-56.02887481,10.19061192,117.8845817,-12.05683402,166.5412684,
624896000,-20.10853458,123.1553689,-18.63755727,-57.18379532,10.17604975,116.7704161,-12.07084627,166.3036505,
636894000,-20.12335401,121.8503744,-18.63853287,-58.30157157,10.1631893,115.6631343,-12.09204518,165.9789694,
648892000,-20.11370685,120.5482014,-18.61960429,-59.30376214,10.14541946,114.5913706,-12.11350026,165.6648096,
660890000,-20.10659046,119.4233664,-18.61820498,-60.42887629,10.14255334,113.4992616,-12.1381263,165.4447897,
672888000,-20.11181875,118.051255,-18.60362861,-61.52886853,10.14182178,112.408576,-12.17183875,165.0669283,
684886000,-20.11063906,116.8757811,-18.61589351,-62.56834822,10.1541473,111.3383699,-12.20320882,164.7212669,
696884000,-20.12324922,115.6571994,-18.60471056,-63.65005512,10.15919597,110.2299543,-12.21899103,164.457321,
708882000,-20.11665236,114.3168464,-18.59367817,-64.65533213,10.18859737,109.1488355,-12.24861284,164.2012863,
720880000,-20.11846394,113.1118403,-18.59726905,-65.68436401,10.21167246,108.0155456,-12.28326233,164.0205724,
732878000,-20.12857062,111.9522265,-18.60016453,-66.88056121,10.23989161,106.9038065,-12.31337339,163.7519905,
744876000,-20.12568132,110.8604046,-18.59721714,-67.90152841,10.26252924,105.7724601,-12.34602779,163.6093627,
756874000,-20.13745712,109.6578259,-18.58857708,-69.00512617,10.29601886,104.5708039,-12.38683939,163.4103857,
768872000,-20.15085447,108.452156,-18.56784738,-70.06646068,10.32213331,103.3217589,-12.42280351,163.1814638,
780870000,-20.14112299,107.3118934,-18.56882389,-71.24277815,10.35116217,102.0331972,-12.45782098,162.9135593,
792868000,-20.15801234,106.0483077,-18.56645324,-72.33019816,10.37255964,100.7133479,-12.49933248,162.5899415,
804866000,-20.14257585,104.8009227,-18.56053492,-73.37057013,10.3919327,99.33410664,-12.53525027,162.2988092,
816864000,-20.1376148,103.6370829,-18.5592872,-74.50622532,10.40001531,97.92273618,-12.57480251,162.0474131,
828862000,-20.12503852,102.30402,-18.56411437,-75.57553483,10.40806248,96.47289111,-12.60593771,161.7869594,
840860000,-20.10453494,100.9830417,-18.5567245,-76.62863519,10.40162388,95.03704959,-12.63909121,161.5515996,
852858000,-20.09174748,99.75815194,-18.55156934,-77.71612407,10.40527532,93.66244477,-12.67337886,161.1869616,
864856000,-20.06024818,98.58099801,-18.54507155,-78.90561404,10.39358113,92.25705474,-12.69980734,160.9579692,
876854000,-20.03095599,97.34910285,-18.52897855,-79.95851198,10.38323682,90.92710965,-12.73094745,160.6954382,
888852000,-20.00663789,96.17396759,-18.54045742,-81.20521364,10.36472803,89.60237128,-12.7551511,160.3806613,
900850000,-19.94194791,95.12761129,-18.53494883,-82.21003556,10.34532747,88.41841287,-12.77196515,160.1739926,
912848000,-19.92378816,93.90182793,-18.53065038,-83.36739509,10.31724961,87.20717954,-12.79137161,159.9074712,
924846000,-19.9350021,92.59088903,-18.52296473,-84.48029724,10.28417847,86.02602511,-12.8075458,159.6824259,
936844000,-19.95131527,91.11958734,-18.50328434,-85.58830777,10.25529652,84.90916195,-12.8496472,159.3253468,
948842000,-19.94829949,89.98848031,-18.51371555,-86.7683444,10.22819467,83.82367521,-12.89021299,159.0076359,
960840000,-19.93116557,88.66398782,-18.48945028,-87.84636779,10.21109427,82.73135703,-12.93190151,158.8043034,
972838000,-19.93015511,87.38831415,-18.49417529,-89.0189056,10.19600067,81.64784615,-12.97963485,158.5346484,
984836000,-19.94506784,85.96394489,-18.48926922,-90.06134329,10.19115329,80.58439949,-13.01954967,158.4569026,
996834000,-19.98166157,84.59125217,-18.48517107,-91.15774691,10.19151763,79.5945283,-13.07537538,158.2306917,
1008832000,-20.0132892,83.26601917,-18.48291193,-92.24621785,10.20878403,78.50896746,-13.12258644,157.9390576,
1020830000,-20.02159668,82.00750449,-18.47789892,-93.37969441,10.23398461,77.49801138,-13.15070457,157.7113129,
1032828000,-20.03213816,80.81150205,-18.47471316,-94.46225233,10.26039489,76.43661238,-13.19645434,157.3344363,
1044826000,-20.03668517,79.43531269,-18.46761566,-95.48181353,10.29284247,75.39772469,-13.24721708,156.936778,
1056824000,-20.06797199,78.05237377,-18.44802591,-96.68172881,10.33218181,74.26754987,-13.28864915,156.762997,
1068822000,-20.10918658,76.76106187,-18.46006255,-97.67345369,10.36687638,73.14541325,-13.34292087,156.612072,
1080820000,-20.13505124,75.61175878,-18.45143159,-98.81693001,10.39327181,71.99730254,-13.38948538,156.4289473,
1092818000,-20.13110888,74.48464492,-18.43847022,-99.99715305,10.43304633,70.71403369,-13.42346346,156.3019058,
1104816000,-20.11211675,73.19408012,-18.4403385,-101.1547372,10.46662398,69.34275958,-13.45933821,156.1700641,
1116814000,-20.12907507,71.92714027,-18.43950375,-102.2402805,10.49109767,67.9635553,-13.5073009,155.918215,
1128812000,-20.13915501,70.7921439,-18.4240581,-103.3098727,10.51540035,66.54977667,-13.5549374,155.6676732,
1140810000,-20.14585686,69.55600692,-18.41380762,-104.3651347,10.53468889,65.09881235,-13.60433695,155.3610417,
1152808000,-20.11274191,68.20220095,-18.40181106,-105.492131,10.54483936,63.58756018,-13.65515192,154.9005723,
1164806000,-20.09466631,66.74066563,-18.41042674,-106.5276173,10.55344712,62.04507202,-13.68012252,154.6655486,
1176804000,-20.07640583,65.40192312,-18.40216647,-107.7241784,10.55460481,60.61293698,-13.71231418,154.3134648,
1188802000,-20.04977552,63.75764653,-18.39226002,-108.8259223,10.54369565,59.09927544,-13.74260586,153.9081592,
1200800000,-20.03929526,62.13460183,-18.39032851,-109.8949676,10.52587013,57.65738925,-13.77919127,153.5796891,
1212798000,-20.04358798,60.54766558,-18.39807117,-111.0771564,10.49815469,56.33356344,-13.80116021,153.3061742,
1224796000,-20.08173912,59.06335857,-18.38050273,-112.1796782,10.46074194,55.07346997,-13.83431772,153.1861002,
1236794000,-20.11283346,57.57901959,-18.36293521,-113.3242464,10.41411506,53.79367514,-13.85551383,152.9226776,
1248792000,-20.16427563,56.02349993,-18.36769618,-114.4544273,10.36722179,52.59856889,-13.89083071,152.6626263,
1260790000,-20.1988701,54.49990402,-18.36741146,-115.4331122,10.31717002,51.44289452,-13.95581474,152.4106671,
1272788000,-20.24131625,52.91227212,-18.35373243,-116.5956306,10.28398137,50.32387731,-14.01042729,152.3510944,
1284786000,-20.27600816,51.40649351,-18.34983517,-117.657823,10.25116929,49.28394564,-14.05828861,151.9027269,
1296784000,-20.28964132,49.98492699,-18.35069251,-118.7571795,10.23713895,48.27700411,-14.11216969,151.6673164,
1308782000,-20.28700416,48.74599234,-18.34636209,-119.9078187,10.22493001,47.29489962,-14.19582082,151.2989494,
1320780000,-20.30755333,47.18449655,-18.33174483,-120.9662476,10.22720237,46.32829966,-14.2493859,150.980522,
1332778000,-20.30162016,45.81142417,-18.33749335,-122.1093169,10.23930605,45.39597774,-14.29878606,150.6795454,
1344776000,-20.33717663,44.53468698,-18.30985138,-123.2240571,10.26888684,44.4349284,-14.35792657,150.5065434,
1356774000,-20.36283595,43.40400103,-18.30156874,-124.4136823,10.30709502,43.45463266,-14.42090133,150.2212735,
1368772000,-20.36019374,41.98300061,-18.32488808,-125.471695,10.35222335,42.4363594,-14.47808487,149.9848246,
1380770000,-20.35870032,40.68427218,-18.32447772,-126.671493,10.40403328,41.41484264,-14.53903604,149.7835054,
1392768000,-20.36825711,39.36998098,-18.29809608,-127.8617873,10.45580196,40.32993304,-14.58111986,149.5125022,
1404766000,-20.37132059,38.1187199,-18.29180832,-128.9053606,10.50040592,39.12964656,-14.64059522,149.4203031,
1416764000,-20.36079557,36.75575672,-18.30799543,-130.0752452,10.54196692,37.85536187,-14.69045174,149.1264673,
1428762000,-20.34379594,35.59816064,-18.28441367,-131.2159666,10.57656541,36.57718678,-14.75002888,149.0685212,
1440760000,-20.35177835,34.54767532,-18.25245129,-132.3431458,10.61406787,35.04775592,-14.80415946,148.7606386,
1452758000,-20.33139691,33.2308061,-18.2703875,-133.4620849,10.64938349,33.60106506,-14.85733635,148.3969303,
1464756000,-20.30919578,31.98188926,-18.25808921,-134.6094503,10.67228837,31.95176389,-14.89600824,147.9422092,
1476754000,-20.28180446,30.55359736,-18.26963701,-135.7503823,10.6938001,30.28080235,-14.92262921,147.5318508,
1488752000,-20.24121079,29.07857341,-18.24975738,-136.9374134,10.71091045,28.72761507,-14.95353868,147.1066825,
1500750000,-20.2457659,27.7666504,-18.22757396,-137.9878911,10.71070216,27.14465411,-14.96056565,146.6600248,
1512748000,-20.21131903,26.02676626,-18.23201763,-139.177402,10.67890344,25.52833996,-15.02037122,146.210354,
1524746000,-20.204128,24.53262694,-18.2241093,-140.2775127,10.64774688,24.0089279,-15.04973876,145.7809816,
1536744000,-20.23802497,22.93034094,-18.20879288,-141.4135899,10.59947746,22.58317467,-15.07422569,145.4489285,
1548742000,-20.2842989,21.39042664,-18.20307352,-142.6598704,10.54145363,21.26300189,-15.11458964,145.0782376,
1560740000,-20.32740867,20.04088488,-18.19287115,-143.768023,10.47355343,20.07352694,-15.16519481,144.7676481,
1572738000,-20.38432718,18.38469582,-18.19603507,-144.9465812,10.40532117,18.93724403,-15.2410543,144.5975927,
1584736000,-20.42316887,16.84870214,-18.18252517,-145.9912869,10.33727374,17.90303912,-15.31749051,144.6646403,
1596734000,-20.48159524,15.17350375,-18.17123574,-147.2136024,10.27752527,16.95157768,-15.41129689,144.7502912,
1608732000,-20.54431087,13.52320045,-18.16842219,-148.3830682,10.23342452,16.05144494,-15.52797307,144.523068,
1620730000,-20.58212353,12.00080672,-18.14340306,-149.486844,10.21312365,15.12868513,-15.60082001,144.3427565,
1632728000,-20.60939198,10.42256695,-18.14885735,-150.538005,10.21136383,14.30825372,-15.68934003,144.0891916,
1644726000,-20.64570152,9.164300198,-18.15023486,-151.7690647,10.23272402,13.49326273,-15.76912659,143.8394332,
1656724000,-20.68042671,7.893719149,-18.14523015,-152.8725407,10.27279522,12.60559881,-15.84918176,143.4016121,
1668722000,-20.69416594,6.734872538,-18.132866,-154.0289159,10.31739658,11.70935494,-15.85716902,143.2154764,
1680720000,-20.67411493,5.495969454,-18.14612128,-155.1805404,10.38567389,10.82686537,-15.9001376,143.1387474,
1692718000,-20.68968678,4.049965027,-18.14965904,-156.3369434,10.44483532,9.907876402,-15.93769042,143.2132854,
1704716000,-20.69916847,2.660033991,-18.1382873,-157.4604403,10.50830856,8.890478806,-15.96672598,143.2275905,
1716714000,-20.69662267,1.268735661,-18.12650729,-158.6863895,10.56548485,7.81460695,-16.01777502,143.3734283,
1728712000,-20.72945648,0.1174232819,-18.11421502,-159.7881243,10.62962911,6.605131873,-16.09309723,143.0179767,
1740710000,-20.78244259,-1.673488649,-18.12466968,-160.937509,10.68242063,5.186426733,-16.16429434,142.5184749,
1752708000,-20.76423224,-3.496890078,-18.14075283,-162.0863528,10.73255707,3.662663851,-16.22466214,142.1050755,
1764706000,-20.67394285,-5.255417119,-18.11979783,-163.4377264,10.77601961,1.931271186,-16.29703454,141.1697145,
1776704000,-20.66858104,-7.011523865,-18.11783172,-164.5630805,10.81588169,0.1979664134,-16.32897285,140.3817581,
1788702000,-20.64562116,-8.843895033,-18.12142018,-165.715609,10.84192325,-1.607349054,-16.38381504,139.5191794,
1800700000,-20.59739919,-11.1171954,-18.10412601,-166.8551663,10.86786915,-3.564405884,-16.40984379,138.6716786,
1812698000,-20.64442639,-12.85042655,-18.1266539,-168.1298394,10.83375445,-5.280587661,-16.45624755,137.9489655,
1824696000,-20.63594577,-14.34624558,-18.11201012,-169.2844911,10.79703976,-6.972216482,-16.5053831,137.3242267,
1836694000,-20.63926155,-16.1522017,-18.09455433,-170.4409968,10.74210831,-8.522856135,-16.55919887,136.7420334,
1848692000,-20.66194229,-17.54009023,-18.09557199,-171.6348594,10.6712777,-10.00906155,-16.63151001,136.506759,
1860690000,-20.64906913,-18.83332311,-18.10147188,-172.7184759,10.59726071,-11.19640025,-16.71630464,136.598588,
1872688000,-20.67006831,-19.98638931,-18.09735245,-173.8297448,10.52273527,-12.36839158,-16.78893819,136.6383373,
1884686000,-20.69741884,-21.16506909,-18.10261226,-175.0566093,10.42852172,-13.41380806,-16.8733423,136.9191468,
1896684000,-20.70123031,-22.50534142,-18.10748404,-176.197259,10.34990813,-14.40404591,-16.9532542,137.3067955,
1908682000,-20.69930006,-23.79975424,-18.11669979,-177.3870306,10.29047543,-15.39744666,-17.0528286,137.4888701,
1920680000,-20.7094323,-25.36227741,-18.11312482,-178.4533116,10.24784857,-16.24169983,-17.12283982,137.46812,
1932678000,-20.71126176,-26.59048629,-18.12726143,-179.7059793,10.22502288,-17.02701875,-17.18718933,137.438427,
1944676000,-20.74022221,-28.06776379,-18.12707194,179.1848946,10.22773199,-17.79430952,-17.23557958,137.3705774,
1956674000,-20.7481098,-29.26397094,-18.11975896,178.0424627,10.25075155,-18.5444357,-17.23292169,137.0693461,
1968672000,-20.73044558,-30.55456052,-18.13962254,176.799533,10.29448656,-19.36592064,-17.27745205,136.651412,
1980670000,-20.69332193,-31.89020962,-18.15209177,175.6780434,10.36133388,-20.15969216,-17.29469508,136.1718665,
1992668000,-20.6612018,-33.4478464,-18.14793612,174.5765386,10.43823963,-21.04035683,-17.31494584,135.5952945,
2004666000,-20.6542147,-34.88993487,-18.14083502,173.3218845,10.52943477,-21.96571567,-17.34670666,135.2482623,
2016664000,-20.66106852,-36.61857681,-18.1491227,172.2742444,10.61199226,-23.09259573,-17.38205803,135.0383907,
2028662000,-20.65672436,-38.07536457,-18.14381431,171.1205083,10.69700414,-24.28995753,-17.47597375,134.2473355,
2040660000,-20.66958447,-40.12800141,-18.16126118,169.9556692,10.77239382,-25.56765103,-17.54270854,133.400081,
2052658000,-20.71696591,-42.02034532,-18.16933319,168.7819343,10.83415225,-27.09506325,-17.62289139,132.3113339,
2064656000,-20.71838579,-43.6783627,-18.17872727,167.6148103,10.87989487,-28.779983,-17.72533763,131.5576198,
2076654000,-20.76985916,-45.5390806,-18.1905339,166.4911924,10.91587506,-30.53163994,-17.82063162,131.0188525,
2088652000,-20.81764651,-47.20294571,-18.21277427,165.3536203,10.93968951,-32.39116479,-17.92284822,130.4505882,
2100650000,-20.8825835,-48.67366497,-18.21280226,164.2121634,10.94617487,-34.20300533,-18.00426365,129.8090007,
2112648000,-20.93842083,-50.38709226,-18.20921183,163.0533504,10.93588219,-36.02617945,-18.11632788,129.3791974,
2124646000,-20.9928823,-51.89443308,-18.22593495,161.9184938,10.90194072,-37.77701716,-18.27608356,129.1805255,
2136644000,-21.03689691,-53.15860629,-18.22999001,160.7737455,10.85484536,-39.41734192,-18.44634175,128.7450835,
