Frequency,S11_Magnitude,S11_Phase,S11_VSWR,S12_Magnitude,S12_Phase,S12_VSWR,S21_Magnitude,S21_Phase,S21_VSWR,S22_Magnitude,S22_Phase,S22_VSWR,
100000,-14.56360756,-146.8646924,1.459995958,-21.56724571,32.56813952,1.182192627,10.00449393,-153.9824424,nan,-8.426383619,-144.7729115,2.220800253,
12123847,-19.12933255,179.7375159,1.248564255,-19.04551813,-0.3718300857,1.251277189,10.91816207,179.4864127,nan,-10.89297556,179.1037188,1.798504149,
24147695,-18.93530591,-179.3614446,1.254894809,-19.0255525,-1.239330066,1.251928285,10.92579121,178.992219,nan,-10.89600756,179.3044436,1.79811425,
36171543,-18.95882827,179.9438189,1.254117871,-19.05779147,-2.050646507,1.250877873,10.91474944,178.1004219,nan,-10.90299897,179.6208985,1.797216126,
48195390,-18.98694268,-179.5907772,1.253192714,-19.06568231,-2.486758992,1.250621515,10.90533962,177.4921473,nan,-10.89034006,179.2563318,1.798843259,
60219238,-19.00782135,-179.5790833,1.252508087,-19.08331362,-3.004334813,1.25004976,10.89940106,176.8744931,nan,-10.90901771,179.0303199,1.796443991,
72243086,-18.97840842,-179.358824,1.253473153,-19.09655018,-3.480036006,1.249621472,10.89356503,176.2855966,nan,-10.91705175,178.7301972,1.795414813,
84266933,-18.9517212,-179.2709275,1.254352338,-19.09595011,-3.998650648,1.24964087,10.8932746,175.7054675,nan,-10.92267385,178.4741093,1.794695626,
96290781,-18.9439237,-179.334195,1.254609859,-19.08358973,-4.267402974,1.250040818,10.88825739,175.1261352,nan,-10.92339227,178.2856624,1.794603785,
108314629,-18.94011628,-179.3293642,1.254735709,-19.11134642,-4.845120366,1.249143683,10.89220349,174.604917,nan,-10.94591205,178.0337358,1.791731805,
120338476,-18.88041053,-179.3427857,1.256718297,-19.10987327,-5.263826829,1.249191207,10.89178693,174.0616406,nan,-10.96492673,177.7892166,1.789317205,
132362324,-18.86914778,-179.4971775,1.257094211,-19.10191246,-5.819525509,1.249448199,10.89476225,173.4598758,nan,-10.95967175,177.4223397,1.789983568,
144386172,-18.83232116,-179.4564898,1.25832765,-19.08189305,-6.11354358,1.250095773,10.90076444,172.8688923,nan,-10.96081683,177.0611402,1.789838303,
156410020,-18.84927111,-179.5659399,1.257759126,-19.09364572,-6.568767351,1.24971538,10.90662909,172.2604531,nan,-10.98665301,176.7525685,1.786569819,
168433867,-18.84498821,-179.5316236,1.257902649,-19.08520075,-7.074224978,1.249988649,10.91425312,171.6340228,nan,-10.98820579,176.4635198,1.786373934,
180457715,-18.89012697,-179.5487319,1.256394486,-19.07993971,-7.530897728,1.250159058,10.92296003,170.9861076,nan,-10.99703255,176.0920888,1.785261609,
192481563,-18.85422915,-179.5572919,1.257593091,-19.09200835,-8.102174259,1.249768337,10.92682549,170.3650939,nan,-11.00029669,175.769599,1.784850782,
204505410,-18.89282175,-179.6924043,1.25630476,-19.10042281,-8.383663781,1.249496321,10.93364915,169.681499,nan,-10.99781255,175.4837172,1.785163412,
216529258,-18.89215153,-179.4888231,1.256327073,-19.0862095,-8.922546477,1.24995599,10.93403863,169.0743421,nan,-10.99582323,175.2801097,1.785413885,
228553106,-18.89573781,-179.5760686,1.256207706,-19.08805006,-9.301154267,1.249896412,10.93770984,168.3712008,nan,-10.99946467,174.9246166,1.784955475,
240576953,-18.88537224,-179.498728,1.256552886,-19.09146703,-9.793900297,1.249785848,10.93989852,167.6664925,nan,-11.00245533,174.6166422,1.784579245,
252600801,-18.8718198,-179.4205876,1.257004972,-19.10433946,-10.28951809,1.249369819,10.9314876,167.0003139,nan,-11.00082216,174.4396222,1.784784672,
264624649,-18.86097516,-179.2688507,1.25736737,-19.08418166,-10.71401558,1.250021648,10.92781797,166.3526851,nan,-11.00986425,174.2081898,1.783648187,
276648496,-18.84214108,-179.1223558,1.257998107,-19.07426764,-11.25132462,1.250342925,10.91598988,165.6782652,nan,-11.02025211,173.9641033,1.782345157,
288672344,-18.84816712,-178.8850062,1.257796113,-19.08384748,-11.69540618,1.25003247,10.90158303,165.0466802,nan,-11.01614861,173.7735879,1.78285956,
300696192,-18.82843978,-178.6001567,1.258458034,-19.08093647,-12.11703653,1.250126762,10.88267517,164.422783,nan,-11.02128936,173.5531587,1.7822152,
312720040,-18.82431625,-178.3992902,1.258596632,-19.0733404,-12.5717753,1.250372997,10.87286996,163.8504342,nan,-11.03107054,173.3338272,1.780991068,
324743887,-18.79980848,-178.2882084,1.259422085,-19.05964267,-13.07981517,1.250817705,10.86057838,163.3006671,nan,-11.03484856,173.1554012,1.780518899,
336767735,-18.78545094,-178.0514499,1.25990703,-19.08537063,-13.72901298,1.249983149,10.85003202,162.7190782,nan,-11.05395691,172.9038134,1.77813637,
348791583,-18.78056847,-178.0605996,1.260072172,-19.07711259,-14.09223203,1.250250684,10.84475037,162.1858454,nan,-11.06734334,172.6416015,1.776472823,
360815430,-18.762437,-177.9843957,1.260686466,-19.06793645,-14.59048084,1.250548336,10.84157409,161.697281,nan,-11.07085011,172.4183723,1.776037786,
372839278,-18.74462024,-177.9577526,1.261291674,-19.07671313,-15.12896803,1.250263633,10.84482342,161.1949129,nan,-11.09231795,172.2570337,1.773381346,
384863126,-18.72501322,-178.1121723,1.261959507,-19.05888777,-15.53013802,1.250842239,10.85116077,160.6468184,nan,-11.10561451,171.897253,1.771741855,
396886973,-18.68634521,-178.0048678,1.263282165,-19.0554482,-16.00297231,1.250954057,10.85877613,160.0955609,nan,-11.13450812,171.6470013,1.768194505,
408910821,-18.64624653,-177.9380186,1.264661639,-19.08582646,-16.38567297,1.249968391,10.87595976,159.5787006,nan,-11.15241822,171.3443498,1.766006086,
420934669,-18.60901277,-178.0923295,1.265949784,-19.06387539,-16.84411367,1.250680192,10.88853197,159.0442027,nan,-11.16866849,171.0590555,1.764027365,
432958517,-18.61669631,-178.0945227,1.265683391,-19.06522982,-17.35335985,1.250636208,10.90508414,158.5019741,nan,-11.18619789,170.7324676,1.761900198,
444982364,-18.60075606,-178.1390677,1.266236383,-19.05398864,-17.80060822,1.251001523,10.92594442,157.932201,nan,-11.19984029,170.3138084,1.76024994,
457006212,-18.58685041,-178.0548308,1.266719842,-19.08033186,-18.20625776,1.250146352,10.94680404,157.3199519,nan,-11.18996002,169.8237837,1.761444655,
469030060,-18.57079763,-178.0171801,1.267279172,-19.05432865,-18.65458578,1.250990465,10.95882054,156.6469149,nan,-11.19729736,169.4069905,1.7605572,
481053907,-18.59804042,-178.0565311,1.266330721,-19.05015867,-19.04457445,1.251126125,10.98335841,155.9631294,nan,-11.18837587,169.0767107,1.761636432,
493077755,-18.53983608,-178.3953886,1.268361677,-19.03059857,-19.65936697,1.251763552,10.99444434,155.3025385,nan,-11.20038781,168.8631337,1.760183804,
505101603,-18.53978308,-178.2664715,1.268363534,-19.02269602,-20.05035207,1.252021591,11.00972336,154.5447009,nan,-11.19287693,168.5886886,1.761091695,
517125450,-18.5349551,-178.4206032,1.268532777,-19.05843797,-20.64261728,1.250856858,11.01565567,153.7487099,nan,-11.1987555,168.3200085,1.760380996,
529149298,-18.51776083,-178.4609589,1.269136486,-19.03356222,-21.06826757,1.251666856,11.01438416,152.9682438,nan,-11.2066322,168.1691445,1.759430054,
541173146,-18.50365563,-178.3593734,1.269632868,-19.03566584,-21.53073308,1.251598246,11.00836618,152.1506687,nan,-11.22380007,167.862287,1.757362653,
553196993,-18.50085694,-178.3651987,1.269731479,-19.03309141,-21.98256244,1.251682215,11.00190769,151.4055726,nan,-11.23263231,167.6310614,1.756301847,
565220841,-18.48559873,-178.3879281,1.270269811,-19.04243737,-22.36739633,1.251377533,10.98528481,150.6327683,nan,-11.22930059,167.3345883,1.756701783,
577244689,-18.47389821,-178.3714137,1.270683437,-19.01471426,-22.9780285,1.252282515,10.97096329,149.8899328,nan,-11.23597672,167.1484115,1.755900655,
589268537,-18.45117275,-178.2868086,1.271488831,-18.99622635,-23.49012602,1.252888041,10.94415149,149.2505159,nan,-11.25984727,166.9386549,1.753045042,
601292384,-18.44892354,-178.1491709,1.27156869,-18.9834733,-23.96674006,1.253306678,10.91942202,148.6422223,nan,-11.28468521,166.7484268,1.750088268,
613316232,-18.44644269,-178.1387672,1.271656803,-18.99718749,-24.5295805,1.252856521,10.89535629,148.1553922,nan,-11.31154816,166.5648922,1.746907044,
625340080,-18.40543397,-178.0631373,1.273117971,-19.00643925,-24.92657684,1.252553343,10.87917911,147.6260872,nan,-11.31610387,166.2797169,1.74636924,
637363927,-18.40058777,-178.1786924,1.273291225,-18.98554099,-25.51713036,1.253238751,10.86734461,147.126421,nan,-11.33830363,166.0499333,1.743755585,
649387775,-18.39328053,-178.2528237,1.273552695,-18.97196747,-25.99271,1.253685034,10.85193994,146.7064887,nan,-11.34386137,165.6263175,1.743103075,
661411623,-18.35231384,-178.2265572,1.275023781,-18.97704457,-26.39518799,1.253518002,10.84810178,146.2004377,nan,-11.37681014,165.4194255,1.739249604,
673435470,-18.32929425,-178.3202943,1.275854289,-18.96409211,-27.02257567,1.253944369,10.84630714,145.7133402,nan,-11.41543446,165.116333,1.734764605,
685459318,-18.31878366,-178.4514661,1.276234428,-18.96896665,-27.37927467,1.253783816,10.85269215,145.1832148,nan,-11.45150157,164.6398239,1.73060767,
697483166,-18.30123257,-178.4003128,1.276870512,-18.96140195,-27.77749794,1.254033023,10.86161405,144.7306199,nan,-11.47998614,164.3555228,1.727345715,
709507014,-18.26340401,-178.7299414,1.278247085,-18.96707296,-28.29011744,1.253846175,10.88689782,144.2351341,nan,-11.49692107,164.0101201,1.725415129,
721530861,-18.25836088,-178.7260527,1.278431183,-18.9514784,-28.55675312,1.254360352,10.91491444,143.830714,nan,-11.53939509,163.7507682,1.720601538,
733554709,-18.23463684,-178.8401233,1.279299056,-18.96775616,-29.01084612,1.253823676,10.93955291,143.3445595,nan,-11.54607775,163.4866332,1.719847874,
745578557,-18.22901624,-178.8065289,1.279505114,-18.92719304,-29.56030513,1.255163388,10.96144106,142.825183,nan,-11.58498339,163.1726261,1.715479867,
757602404,-18.21732546,-179.0384667,1.279934259,-18.92397491,-30.05276984,1.255270012,10.99580089,142.1422286,nan,-11.60386206,162.8192541,1.713372394,
769626252,-18.21767302,-178.9995793,1.27992149,-18.91367916,-30.56513659,1.255611469,11.03114853,141.5250294,nan,-11.6243134,162.4194367,1.711098199,
781650100,-18.20368994,-178.978286,1.280435726,-18.91132344,-30.92905793,1.255689667,11.06615574,140.7805361,nan,-11.63607239,162.0500602,1.709794739,
793673947,-18.16785827,-179.0866135,1.281758305,-18.91418964,-31.35236452,1.255594527,11.09225718,140.0607342,nan,-11.63372119,161.5144893,1.710055122,
805697795,-18.18091257,-179.1753376,1.28127565,-18.91814018,-31.84758154,1.255463458,11.10878295,139.2030959,nan,-11.63127568,161.0866841,1.71032608,
817721643,-18.1614867,-179.1922697,1.281994219,-18.88346578,-32.31042806,1.256616429,11.12278918,138.3049747,nan,-11.63294955,160.7928368,1.710140604,
829745490,-18.09945008,-179.2707196,1.284302823,-18.89605078,-33.03544509,1.256197292,11.12503738,137.4362099,nan,-11.63972958,160.5943845,1.709389961,
841769338,-18.08506404,-179.6564752,1.284841209,-18.88407676,-33.46126296,1.256596063,11.11352223,136.5873632,nan,-11.64166043,160.3976057,1.709176372,
853793186,-18.05925337,-179.6921566,1.28581003,-18.89253882,-33.78775612,1.256314179,11.11044212,135.7967417,nan,-11.65354353,160.2150942,1.707863661,
865817034,-18.06357244,-179.9115143,1.285647653,-18.89057718,-34.27650058,1.256379493,11.099139,135.0103709,nan,-11.67099867,160.129834,1.705940964,
877840881,-18.02773641,-179.7675987,1.286998071,-18.86827993,-34.79537227,1.257123202,11.08155589,134.3160912,nan,-11.68358156,159.8474273,1.704559033,
889864729,-18.00644866,-179.7144845,1.287803664,-18.87787268,-35.43987856,1.256802949,11.05656084,133.5750008,nan,-11.71157583,159.6070173,1.701496738,
901888577,-17.94374564,-179.4042772,1.290191369,-18.90444166,-35.87665589,1.255918262,11.03003277,132.9506489,nan,-11.72425142,159.438493,1.70011567,
913912424,-17.92969268,-179.3771543,1.290729556,-18.86722919,-36.38742933,1.257158309,11.00687962,132.2763041,nan,-11.7546484,159.2762297,1.696817692,
925936272,-17.90888466,-179.3333765,1.291528509,-18.86722722,-36.81494246,1.257158374,10.97962869,131.7301501,nan,-11.78339677,159.0931552,1.693716551,
937960120,-17.93271853,-179.298172,1.29061358,-18.86638534,-37.31176668,1.257186506,10.95319325,131.210645,nan,-11.84683454,158.8206205,1.686934551,
949983967,-17.92124842,-179.3737719,1.291053488,-18.84969447,-37.88566973,1.257744944,10.91970969,130.7325001,nan,-11.89977742,158.515602,1.681338169,
962007815,-17.8864762,-179.2304185,1.292391682,-18.86036417,-38.38678089,1.257387805,10.88979267,130.2557746,nan,-11.94817979,158.2824944,1.676271697,
974031663,-17.86596887,-179.1583741,1.29318415,-18.84622253,-38.97329215,1.257861277,10.87480721,129.8606943,nan,-12.00188783,157.8448985,1.670704967,
986055511,-17.87312572,-179.1588492,1.292907312,-18.84038445,-39.32739454,1.258057023,10.86425966,129.4852193,nan,-12.04490259,157.5998862,1.666287871,
998079358,-17.87605795,-179.206433,1.292793974,-18.82608745,-39.86191783,1.258537089,10.86649568,129.114707,nan,-12.10262737,157.1562588,1.660417206,
1010103206,-17.86461739,-179.5785412,1.29323646,-18.81224472,-40.37835272,1.25900285,10.88336966,128.7030016,nan,-12.14260404,156.7610834,1.656389355,
1022127054,-17.84529313,-179.7658393,1.293985579,-18.8094671,-40.8015886,1.25909642,10.90918694,128.3014998,nan,-12.1723948,156.432932,1.653407694,
1034150901,-17.82144563,-179.7010072,1.294913021,-18.81455068,-41.40323122,1.258925197,10.94327144,127.977252,nan,-12.19477356,156.2168508,1.651178973,
1046174749,-17.84853726,-179.6480463,1.293859667,-18.80081119,-41.75556034,1.259388255,10.98228702,127.5503539,nan,-12.22383467,155.8343712,1.648298865,
1058198597,-17.84434001,-179.9664715,1.294022583,-18.81216949,-42.28923022,1.259005384,11.01922857,127.0424209,nan,-12.25617493,155.4911255,1.645112391,
1070222444,-17.86406254,179.9917479,1.293257939,-18.79358091,-42.7643466,1.259632305,11.06242719,126.5360375,nan,-12.29472024,155.2229876,1.641339939,
1082246292,-17.85990856,-179.7932236,1.293418803,-18.79039782,-43.20836615,1.259739828,11.10095262,125.8785194,nan,-12.32287843,154.8577099,1.638601402,
1094270140,-17.85114422,-179.512073,1.29375853,-18.80147862,-43.71429984,1.259365739,11.13685224,125.2625892,nan,-12.33128828,154.6852071,1.637786316,
1106293987,-17.85950091,-179.502383,1.293434594,-18.77302697,-44.28144352,1.260327481,11.1802701,124.5384246,nan,-12.33181709,154.4207085,1.637735106,
1118317835,-17.81672587,-179.4906094,1.295096967,-18.75909334,-44.74623756,1.260799925,11.20618488,123.7134911,nan,-12.34033235,154.121393,1.636911203,
1130341683,-17.79880942,-179.7773244,1.295796412,-18.77983771,-45.12934775,1.260096899,11.22524417,122.8393776,nan,-12.35060828,153.7584919,1.635918702,
1142365531,-17.81513007,-179.8941429,1.29515919,-18.76883059,-45.6004656,1.260469667,11.23677872,121.9393774,nan,-12.37811713,153.3907341,1.633271191,
1154389378,-17.76904564,179.9737687,1.29696251,-18.7732216,-46.234048,1.260320889,11.24238522,120.9478414,nan,-12.37953407,153.126038,1.633135192,
1166413226,-17.7328,179.9988504,1.298389573,-18.74601907,-46.65835224,1.261244101,11.24919464,119.9942348,nan,-12.39456069,152.9833022,1.631695156,
1178437074,-17.71563731,-179.9747805,1.299068004,-18.75082426,-47.0935148,1.261080755,11.24377036,119.0334357,nan,-12.40706481,152.6794986,1.630499951,
1190460921,-17.7033387,179.9682077,1.299555233,-18.75407549,-47.6419161,1.260970299,11.23039505,118.1278721,nan,-12.44309722,152.4400628,1.627071442,
1202484769,-17.70490845,179.9770813,1.299492995,-18.73544088,-48.05529999,1.261604095,11.21216022,117.3332223,nan,-12.48151155,152.2146823,1.623441685,
1214508617,-17.70225721,179.947081,1.299598121,-18.73246816,-48.48793668,1.261705361,11.17847867,116.5836114,nan,-12.48588218,152.1088298,1.623030356,
1226532464,-17.74223739,179.9770708,1.298017259,-18.7362991,-49.04899721,1.261574868,11.12979914,115.9116035,nan,-12.50752598,151.925846,1.620998354,
1238556312,-17.74598683,-179.8799456,1.297869486,-18.70908217,-49.39336812,1.262503536,11.08612461,115.2373162,nan,-12.54096234,151.8502932,1.617875308,
1250580160,-17.80084381,179.965501,1.295716897,-18.72381543,-49.97546775,1.262000367,11.0400327,114.7245651,nan,-12.59070317,151.6338517,1.61326521,
1262604008,-17.84516218,179.6810057,1.293990662,-18.70496272,-50.49297933,1.262644416,10.98344886,114.2220532,nan,-12.64827521,151.437821,1.607982196,
1274627855,-17.84208633,179.4390762,1.294110101,-18.70250171,-50.93201378,1.26272862,10.93825729,113.705009,nan,-12.74265781,151.1499741,1.59944213,
1286651703,-17.87308688,179.5587293,1.292908814,-18.70625746,-51.48741391,1.262600129,10.90196965,113.3187286,nan,-12.82587551,150.7588988,1.592034476,
1298675551,-17.87534883,179.322843,1.292821379,-18.67165434,-51.96478778,1.263786626,10.88047053,113.0083093,nan,-12.92290972,150.3527988,1.583538391,
1310699398,-17.84963094,179.3241207,1.293817233,-18.68313474,-52.39198632,1.263392315,10.87778976,112.6601656,nan,-13.0068067,149.821756,1.576312785,
1322723246,-17.84912993,179.3385214,1.293836671,-18.65979173,-53.07746861,1.264194756,10.87614931,112.3638931,nan,-13.06328299,149.2555168,1.571510396,
1334747094,-17.84367709,179.5331552,1.294048323,-18.68060094,-53.59666507,1.263479286,10.89599731,112.1033296,nan,-13.10016133,148.8312686,1.568400883,
1346770941,-17.85927709,179.6791489,1.293443265,-18.66412385,-53.84052632,1.264045629,10.93049971,111.8522753,nan,-13.13046503,148.4927685,1.565861187,
1358794789,-17.89944198,-179.9399177,1.29189189,-18.65028735,-54.36117267,1.264522261,10.97966748,111.5371945,nan,-13.16158242,148.2280164,1.563267694,
1370818637,-17.90438551,-179.5544185,1.291701585,-18.64383502,-54.98845392,1.264744856,11.03479968,111.2004353,nan,-13.18101441,147.951666,1.561655479,
1382842484,-17.9119828,-179.2119685,1.291409395,-18.63068083,-55.54021573,1.265199303,11.09434243,110.7125914,nan,-13.19155168,147.7525125,1.560783586,
1394866332,-17.88416728,-179.1098514,1.292480786,-18.63259449,-55.96829684,1.265133136,11.16648311,110.1419471,nan,-13.1998725,147.5049423,1.560096256,
1406890180,-17.86686377,-178.8823026,1.293149518,-18.59053121,-56.61504965,1.266591776,11.2216549,109.5018448,nan,-13.22398355,147.1792551,1.558110384,
1418914028,-17.86976653,-179.1561079,1.293037214,-18.59289667,-56.96174337,1.266509511,11.26897071,108.7869627,nan,-13.25130834,147.0219704,1.555870176,
1430937875,-17.87114147,-179.1566093,1.292984036,-18.59884442,-57.40133426,1.266302787,11.3098585,107.9746713,nan,-13.28271455,146.9232179,1.55330886,
1442961723,-17.85777787,-179.2408726,1.293501353,-18.57265296,-58.04144537,1.267214459,11.35022443,107.1350733,nan,-13.32655756,146.6239815,1.549757237,
1454985571,-17.85831209,-179.1578647,1.293480653,-18.56658624,-58.37027485,1.267426127,11.38664984,106.0615696,nan,-13.34286013,146.3284186,1.548443676,
1467009418,-17.84087438,-179.274895,1.294157178,-18.56829248,-59.10299943,1.267366577,11.40926766,104.9318492,nan,-13.34865065,145.8900875,1.54797803,
1479033266,-17.82321697,-179.3523549,1.29484402,-18.55249844,-59.40911784,1.267918373,11.43047398,103.8456981,nan,-13.35023664,145.7712308,1.547850576,
1491057114,-17.84620464,-179.4703268,1.293950195,-18.5314914,-60.04727177,1.268654269,11.42984256,102.7933156,nan,-13.32618013,145.4544889,1.549787693,
1503080961,-17.87354495,-179.3683206,1.292891105,-18.5445587,-60.40829679,1.268196244,11.41977397,101.7710652,nan,-13.34580743,145.1461097,1.548206608,
1515104809,-17.92136604,-179.3672683,1.291048973,-18.53853708,-60.98007605,1.268407201,11.38123386,100.7721266,nan,-13.3805201,144.8364555,1.545423817,
1527128657,-17.94921757,-179.4819039,1.289982114,-18.52899545,-61.59714607,1.268741855,11.33550608,99.84514522,nan,-13.41209978,144.5044579,1.542907075,
1539152505,-18.03635013,-179.4730049,1.286672824,-18.54030235,-62.21022344,1.268345339,11.27322564,99.06803703,nan,-13.45812103,144.1733123,1.539264591,
1551176352,-18.09283658,-179.6191008,1.284550186,-18.52321049,-62.68652861,1.268944978,11.19949879,98.41153409,nan,-13.52289158,143.9973517,1.534188192,
