Frequency,S11_Magnitude,S11_Phase,S12_Magnitude,S12_Phase,S22_Magnitude,S22_Phase,
30000000,-0.5744137123,-110.3655696,-73.37954142,42.27206366,0.06814148078,-8.735461449,
30071111,-0.5175785146,-110.9469277,-75.71143386,22.34955701,0.03580414229,-8.778613459,
30142222,-0.5146745479,-111.6784371,-77.38356339,18.78412607,0.03479889136,-8.791359516,
30213333,-0.5131685732,-112.3983318,-73.54438282,14.22045142,0.03550089412,-8.791711194,
30284444,-0.5111407887,-113.138816,-73.6901102,12.32888811,0.0352956841,-8.80726915,
30355555,-0.5086878378,-113.8720432,-73.36630588,15.24382966,0.03473448333,-8.834007332,
30426666,-0.5069975443,-114.607666,-72.18190498,22.15558072,0.03536755356,-8.833010108,
30497777,-0.5080222133,-115.3475872,-71.34696697,24.95980312,0.03432610484,-8.854436766,
30568888,-0.5069789587,-116.0826759,-71.30561567,26.07222195,0.03519881236,-8.879650231,
30640000,-0.5051844567,-116.8338323,-71.36950947,30.62737298,0.0351943689,-8.903692721,
30711111,-0.5042440301,-117.5698282,-71.99091665,33.17397326,0.03379779305,-8.923287349,
30782222,-0.503479983,-118.3244352,-72.67102227,40.88055668,0.03388971672,-8.941403908,
30853333,-0.5014349258,-119.0892034,-73.07993575,32.38481586,0.03297160592,-8.965338713,
30924444,-0.4954742718,-119.7356535,-77.52623212,42.70468464,0.01890045168,-9.034207508,
30995555,-0.4975438775,-120.5803016,-72.33739542,31.08962315,0.0322777781,-9.009446396,
31066666,-0.5270964631,-121.1305192,-70.02363398,60.20049769,0.04314800546,-9.01889156,
31137777,-0.5025246142,-122.0750823,-71.76455271,21.8081385,0.03205974351,-9.069505063,
31208888,-0.4974809598,-122.8470865,-72.04233524,27.25758244,0.03135785594,-9.066909013,
31280000,-0.4979736569,-123.6026462,-71.55806771,25.33604871,0.03295216576,-9.089315015,
31351111,-0.4963767255,-124.3738499,-71.49651334,31.18428311,0.03360916103,-9.140200824,
31422222,-0.4967653531,-125.1336247,-71.65270282,25.40633357,0.03289995373,-9.17914199,
31493333,-0.4959108474,-125.9018465,-71.46300801,23.56263255,0.03268652575,-9.196253582,
31564444,-0.49530202,-126.6660413,-69.85338093,24.87265621,0.03176830739,-9.204138195,
31635555,-0.4971995168,-127.435167,-69.93989255,25.56706229,0.03228110599,-9.219017918,
31706666,-0.4959639855,-128.2145261,-70.17964927,22.80604623,0.03293633656,-9.244198515,
31777777,-0.4954928815,-128.9756476,-69.84042554,25.8257456,0.03551096215,-9.257634671,
31848888,-0.4959685211,-129.7606023,-70.20276622,25.64195695,0.03541484409,-9.277955672,
31920000,-0.4961871411,-130.5349488,-68.85714143,19.33134993,0.03381543499,-9.272941588,
31991111,-0.4974417626,-131.3075414,-69.65942499,16.94465902,0.0333971056,-9.305031119,
32062222,-0.4986148759,-132.1035546,-69.02536766,22.60257734,0.03237236681,-9.321156475,
32133333,-0.4986149387,-132.8810583,-69.33214139,18.75778301,0.03270151626,-9.344974214,
32204444,-0.499183543,-133.6633066,-70.51209255,14.06414351,0.03303392667,-9.384167985,
32275555,-0.4986452565,-134.4395689,-69.14805844,17.8351173,0.03363393061,-9.416127523,
32346666,-0.4995061305,-135.2304773,-68.80822448,20.44733161,0.03235363161,-9.429585672,
32417777,-0.5016613924,-136.0200886,-68.30084103,22.55286088,0.0321091644,-9.449811922,
32488888,-0.5039272617,-136.8025949,-69.06340104,22.01661442,0.03034232834,-9.457149057,
32560000,-0.5056964353,-137.6009475,-68.10803747,18.69535425,0.03077803938,-9.484110208,
32631111,-0.505916581,-138.3960135,-67.80452861,20.10671307,0.03062347154,-9.509096217,
32702222,-0.5063539141,-139.1942054,-68.54454896,21.02107895,0.03061192213,-9.520481268,
32773333,-0.5087866212,-139.9707178,-68.81091987,18.65312745,0.03100519172,-9.541433289,
32844444,-0.5126198687,-140.7598179,-68.36241759,16.8953021,0.03174673835,-9.578614685,
32915555,-0.5139432542,-141.5565093,-68.85262084,14.63994917,0.03045355384,-9.601032337,
32986666,-0.5158966945,-142.3541678,-68.77314388,14.66178182,0.03083179908,-9.60492406,
33057777,-0.5173168381,-143.156706,-67.81462295,20.44109092,0.03158526305,-9.636458741,
33128888,-0.5195788199,-143.9510731,-69.61862767,15.83654929,0.03206962872,-9.646185288,
33200000,-0.518941176,-144.7831529,-68.25144505,13.37623604,0.03282059512,-9.681660563,
33271111,-0.5221617423,-145.5620867,-68.24901033,12.23110714,0.02954023585,-9.699671987,
33342222,-0.5241929069,-146.3700984,-68.23680478,9.670402098,0.02945768707,-9.719595268,
33413333,-0.525732832,-147.1824961,-67.97499968,9.981539461,0.03002695694,-9.74397815,
33484444,-0.5270010934,-147.9882381,-67.91563466,8.764203868,0.02785683568,-9.756291531,
33555555,-0.5285401279,-148.7971236,-67.52653746,8.262297328,0.02834550078,-9.783666627,
33626666,-0.5312288364,-149.6118844,-67.86317746,6.003873994,0.02891179958,-9.802806546,
33697777,-0.5326091561,-150.4276158,-67.89233104,5.051819618,0.02915996473,-9.822208672,
33768888,-0.5337330272,-151.2373292,-67.32322415,4.910680226,0.02905178411,-9.842390703,
33840000,-0.5356077336,-152.0546962,-67.62588972,4.997667885,0.02964582733,-9.873148793,
33911111,-0.5369921214,-152.8784363,-67.33322884,2.648563539,0.02913997643,-9.887870949,
33982222,-0.5390842276,-153.6977674,-66.68015871,7.288396508,0.02975152401,-9.909803608,
34053333,-0.5413615241,-154.5188148,-67.39165492,3.69376402,0.03036360361,-9.925116823,
34124444,-0.5433212556,-155.3442571,-66.97363003,4.564240262,0.03042908386,-9.952203898,
34195555,-0.5458988098,-156.1674911,-66.84317774,1.247723872,0.03004608312,-9.957171554,
34266666,-0.547971394,-156.9787318,-66.549421,1.443141501,0.03175728243,-10.00051707,
34337777,-0.549533592,-157.8049043,-66.81363487,4.278589977,0.02920220606,-10.00149684,
34408888,-0.5514885507,-158.6262327,-66.76754329,1.080575514,0.02906743129,-10.02349553,
34480000,-0.5541614064,-159.4376953,-66.93304427,1.598649659,0.02783574156,-10.05791891,
34551111,-0.5563651203,-160.2690931,-66.81218517,1.707993885,0.02570536197,-10.08113962,
34622222,-0.5596225772,-161.0842251,-66.82131998,2.574965178,0.02399950682,-10.10401505,
34693333,-0.5617777078,-161.9030899,-66.8503988,-0.3725407029,0.02270501486,-10.11190777,
34764444,-0.5640642772,-162.7172907,-66.51435294,-1.786979439,0.02273799835,-10.14079164,
34835555,-0.566908301,-163.5402619,-66.25977862,-1.938435405,0.02176460583,-10.17125791,
34906666,-0.5705399478,-164.3577957,-66.46322454,-0.4374693783,0.02186161885,-10.19377867,
34977777,-0.5729273105,-165.1857973,-65.89295611,0.4367137991,0.02436763763,-10.21426261,
35048888,-0.5745207229,-166.0047949,-66.02426903,-3.028654742,0.02632057931,-10.23077621,
35120000,-0.5763598095,-166.8262521,-66.03237799,-4.15593308,0.02442717832,-10.24835629,
35191111,-0.5792677017,-167.663562,-65.59495414,-4.931689646,0.02346413394,-10.27339771,
35262222,-0.5803798368,-168.4914732,-65.45245108,-2.914704191,0.02240618499,-10.30342086,
35333333,-0.5831701833,-169.3155464,-65.86127243,-2.390686533,0.02153786463,-10.32334899,
35404444,-0.585196093,-170.148904,-65.8102826,-4.781748891,0.02147567372,-10.3481209,
35475555,-0.5874512875,-170.9789328,-65.51716909,-7.250948904,0.02156924768,-10.37301929,
35546666,-0.5897308288,-171.8002816,-65.46531398,-6.80579124,0.02087496162,-10.38889883,
35617777,-0.5923104162,-172.6252219,-65.15877905,-10.00412103,0.02048348626,-10.42164776,
35688888,-0.594409453,-173.4401956,-65.2055205,-4.495279237,0.02188144649,-10.44158184,
35760000,-0.5959897194,-174.265657,-65.22914916,-3.5911225,0.02258773785,-10.44906055,
35831111,-0.5970339063,-175.0994003,-64.97510469,-8.094582676,0.0216877374,-10.47815754,
35902222,-0.5990410966,-175.9261136,-65.17282731,-8.651266293,0.0218804494,-10.49783437,
35973333,-0.6007492864,-176.7379915,-65.09271796,-10.33026377,0.02251013109,-10.52092683,
36044444,-0.603998849,-177.549375,-64.92646792,-9.86846354,0.02342508458,-10.54119453,
36115555,-0.605987434,-178.3594808,-64.65462187,-10.31751273,0.02219237362,-10.56551208,
36186666,-0.6075631802,-179.1913754,-64.61848764,-10.04975472,0.02290746884,-10.58523287,
36257777,-0.6099181986,179.9962968,-64.61290366,-12.26733232,0.02337887709,-10.60083345,
36328888,-0.6121249282,179.1732057,-64.49414186,-12.16705965,0.02349996641,-10.62461339,
36400000,-0.6125211395,178.3419202,-64.46711458,-14.34778483,0.02291377603,-10.65337631,
36471111,-0.6153841183,177.5285801,-64.84285046,-12.63454302,0.0233924464,-10.66380392,
36542222,-0.6159418928,176.7129699,-64.05132814,-14.54046717,0.02360570658,-10.68384914,
36613333,-0.6173232269,175.8939076,-64.6048214,-15.10265306,0.02315441911,-10.71413324,
36684444,-0.6183731474,175.0680928,-64.46054815,-16.66294146,0.02230079724,-10.72523751,
36755555,-0.6202283298,174.2448616,-64.23154584,-19.41690885,0.02278385874,-10.75239583,
36826666,-0.6218940874,173.4272994,-64.39705815,-17.95525246,0.02283583453,-10.76637522,
36897777,-0.6240510196,172.6112998,-63.52048616,-22.05913947,0.02120767542,-10.79971954,
36968888,-0.6248329125,171.7927774,-63.57128324,-21.29329474,0.02136460185,-10.81557029,
37040000,-0.6383751147,171.0395555,-63.53211688,-24.20499571,0.01194959891,-10.87997701,
37111111,-0.6255992138,170.1472805,-63.72308773,-20.15560133,0.02039190091,-10.87226763,
37182222,-0.627694007,169.327921,-63.60105319,-21.88988462,0.02034202789,-10.90481305,
37253333,-0.6284627109,168.5018305,-62.82631643,-21.4708596,0.01914563139,-10.94544535,
37324444,-0.6293209828,167.6778426,-63.04864991,-19.60320749,0.01965021672,-10.96925932,
37395555,-0.6285897449,166.8240239,-62.70932831,-21.30934207,0.02157652769,-10.99460025,
37466666,-0.6290540302,165.9796145,-62.52537023,-21.17906036,0.02144058942,-11.02396891,
37537777,-0.6302900434,165.1676273,-62.74413997,-21.05000002,0.02162380192,-11.04877323,
37608888,-0.6310655823,164.3761163,-62.38900112,-16.6573134,0.02232564402,-11.07156607,
37680000,-0.6303636224,163.5648018,-62.01222725,-15.0266615,0.02211363588,-11.12131347,
37751111,-0.6355714736,162.8304737,-62.05818647,-14.36836196,0.02175836589,-11.17174775,
37822222,-0.6418932009,162.1367314,-62.17811384,-14.81472301,0.02102523493,-11.1664565,
37893333,-0.6449281357,161.3969831,-62.7838752,-16.12588419,0.02188920359,-11.15333796,
37964444,-0.645959512,160.6211775,-62.93235909,-18.65621214,0.02167537345,-11.1616953,
38035555,-0.6472224379,159.83091,-62.87284232,-20.92924477,0.02049904553,-11.17027208,
38106666,-0.6478812628,159.0420216,-62.93579758,-22.2356626,0.01966085796,-11.18769376,
38177777,-0.6496893604,158.2491956,-62.9548202,-19.9600807,0.0185494131,-11.20360649,
38248888,-0.6503643388,157.441646,-62.4265826,-22.69884742,0.0184056639,-11.22075651,
38320000,-0.6526422858,156.64866,-63.30482188,-23.22869746,0.01816248209,-11.23606695,
38391111,-0.6552177199,155.8406656,-63.47646076,-23.05179706,0.01725739503,-11.26019546,
38462222,-0.6575477617,155.0434421,-62.49859914,-26.21268617,0.01752532866,-11.28061171,
38533333,-0.6575066222,154.221421,-62.42478006,-27.80437083,0.01673757784,-11.30507225,
38604444,-0.6564427562,153.4023455,-61.96642571,-28.71314504,0.01682315951,-11.32599902,
38675555,-0.6569067339,152.5905682,-61.90985913,-31.03781806,0.01664694872,-11.34636618,
38746666,-0.6581947979,151.7953644,-62.32555318,-29.44987688,0.01777073177,-11.37138905,
38817777,-0.6601470814,150.9873347,-62.09978379,-29.12488089,0.01726396918,-11.39105846,
38888888,-0.6614743262,150.1721063,-61.79864459,-30.61656018,0.0187166522,-11.41951118,
38960000,-0.660678163,149.3806889,-61.85159038,-29.32003413,0.01859193606,-11.4444547,
39031111,-0.6635145064,148.6067333,-61.90378619,-30.95215313,0.01704286932,-11.46436576,
39102222,-0.6651953734,147.805983,-61.68694024,-32.58781965,0.01727388484,-11.48405466,
39173333,-0.6669658267,147.0387793,-61.37975382,-33.15399741,0.01757686503,-11.51224178,
39244444,-0.6697167352,146.2596919,-61.32850415,-35.38831374,0.01918584809,-11.52787187,
39315555,-0.6727839008,145.4741564,-61.55626698,-34.0842129,0.01899378147,-11.54844036,
39386666,-0.6744055303,144.6755913,-61.45620403,-35.69455043,0.01863998841,-11.57278767,
39457777,-0.6774474675,143.8802082,-61.27025413,-36.11038827,0.01748069993,-11.59514214,
39528888,-0.679106393,143.096856,-61.14471973,-35.42956092,0.01739166935,-11.61412998,
39600000,-0.6788182967,142.3133579,-60.75385513,-38.16154609,0.0178202755,-11.6362035,
39671111,-0.6815685652,141.529349,-60.93326924,-37.83945502,0.01673846577,-11.65933544,
39742222,-0.6847211502,140.7480443,-60.63293274,-37.05712844,0.01783910661,-11.69472328,
39813333,-0.6872928877,139.9711018,-61.06083848,-39.76259008,0.01627271136,-11.71559076,
39884444,-0.6904833008,139.20225,-60.69801671,-40.98622437,0.01740145472,-11.73620803,
39955555,-0.6930951746,138.43564,-60.60557813,-39.56465643,0.01618238614,-11.76171484,
40026666,-0.6975256015,137.6583253,-60.30156367,-39.12209867,0.01674254524,-11.779351,
40097777,-0.6996634362,136.8980367,-60.23575522,-41.22057009,0.01622263206,-11.79638892,
40168888,-0.7041918999,136.1236544,-60.55025552,-40.64721561,0.01561005853,-11.82130036,
40240000,-0.7086197259,135.3764484,-60.54623026,-41.51412388,0.01549441545,-11.84672619,
40311111,-0.7131046915,134.6175439,-60.31492655,-42.42821828,0.01657380088,-11.87409144,
40382222,-0.7188272018,133.85077,-60.37797316,-43.05151091,0.01713344324,-11.92068755,
40453333,-0.7228814098,133.0871931,-60.28826401,-43.81557486,0.01764228475,-11.97929624,
40524444,-0.7279751673,132.2740993,-60.03388087,-42.25605291,0.02077467004,-12.08145535,
40595555,-0.7320402084,131.3872434,-60.41244157,-45.3015444,0.02202872182,-12.11835231,
40666666,-0.7427916062,130.5674784,-60.43782955,-45.94792059,0.01805867241,-12.03332755,
40737777,-0.7407773495,129.8208626,-60.12743105,-47.43794219,0.01949300124,-12.06524657,
40808888,-0.7454053161,129.0699423,-59.9634487,-46.40891674,0.01959791281,-12.08164688,
40880000,-0.7502449159,128.3787503,-59.83606939,-48.80322797,0.01791027682,-12.07421757,
40951111,-0.7568619675,127.711656,-59.87874664,-48.07726644,0.01774001281,-12.07453312,
41022222,-0.7633190353,127.0263899,-59.57274536,-48.93976431,0.01692695421,-12.07701814,
41093333,-0.7695972592,126.3416613,-59.5990327,-51.78970456,0.01619279599,-12.08850526,
41164444,-0.7768379635,125.6416615,-59.47257266,-51.66109302,0.01577558098,-12.10707151,
41235555,-0.7839546023,124.9361337,-60.47919237,-51.19548484,0.01621818105,-12.13452481,
41306666,-0.7901624913,124.2363899,-60.3618028,-51.43822314,0.0159563694,-12.15076372,
41377777,-0.7977909133,123.5176445,-59.92565573,-52.45311066,0.009255363884,-12.17265851,
41448888,-0.8064957602,122.8123664,-60.16704145,-54.30201592,0.01580789833,-12.19674208,
41520000,-0.8125330859,122.1217418,-59.66170909,-53.69205942,0.01524202876,-12.22466191,
41591111,-0.8213569964,121.415993,-58.99767823,-55.38238093,0.0154982151,-12.23694707,
41662222,-0.8303159366,120.7167641,-58.80539149,-56.56852357,0.01553417317,-12.25960534,
41733333,-0.8487405412,120.0815556,-59.03569302,-59.43163416,0.01990936448,-12.33167163,
41804444,-0.8465567728,119.3406172,-58.57603665,-59.1744896,0.01552509718,-12.30015531,
41875555,-0.8551224345,118.6593294,-58.72764458,-59.65476289,0.01533454651,-12.31596617,
41946666,-0.8652968166,117.9569908,-58.85605268,-61.39068102,0.01490902304,-12.34424597,
42017777,-0.8740800955,117.2705791,-58.52123383,-63.07244731,0.0152705287,-12.35808408,
42088888,-0.8840409339,116.5949101,-58.46246628,-64.26617528,0.01450954992,-12.38280482,
42160000,-0.8956795927,115.9069821,-58.1581122,-65.37597428,0.01358333978,-12.41169694,
42231111,-0.9051526349,115.236442,-58.32764139,-65.54262335,0.01453344976,-12.43065572,
42302222,-0.9155321922,114.5576593,-58.30748846,-67.47005709,0.01486253449,-12.45543776,
42373333,-0.9262160549,113.8950318,-58.2154392,-67.38590439,0.01481261542,-12.46734739,
42444444,-0.9369580521,113.2268068,-58.28042078,-70.32414462,0.01515785527,-12.49259113,
42515555,-0.9479507116,112.5533282,-58.33800331,-70.33364632,0.01496474407,-12.52757728,
42586666,-0.9588282327,111.8951544,-58.13146723,-71.20750967,0.01509596224,-12.55007451,
42657777,-0.9677876948,111.2208883,-58.23524317,-71.94168213,0.01585023224,-12.57769193,
42728888,-0.9796223115,110.550834,-58.07921987,-72.85346394,0.01527050104,-12.60685033,
42800000,-0.9908212305,109.8693986,-58.11270819,-72.98923977,0.01475305931,-12.61572242,
42871111,-1.001925949,109.1601097,-57.85560493,-76.263145,0.0142561891,-12.63801044,
42942222,-1.013973077,108.4298685,-57.97588148,-77.93676158,0.01502354802,-12.66660192,
43013333,-1.024066032,107.6881026,-57.65208019,-78.00235245,0.0139167803,-12.6829438,
43084444,-1.037490621,107.0080659,-57.4091088,-77.1905983,0.01467501957,-12.71368638,
43155555,-1.050881645,106.4191051,-57.34780707,-76.75405689,0.0147720373,-12.73409129,
43226666,-1.06382945,105.8475646,-57.38881243,-78.11946301,0.01323658455,-12.7571334,
43297777,-1.078264139,105.2744731,-57.41680053,-79.27802193,0.01394261312,-12.77822898,
43368888,-1.089420074,104.6961458,-57.48294024,-80.3323807,0.01393519471,-12.81629929,
43440000,-1.103903809,104.1070777,-57.46610409,-79.71957549,0.01447945476,-12.8424462,
43511111,-1.113338589,103.5076554,-57.32797246,-80.44231451,0.01530112828,-12.88492777,
43582222,-1.126212568,102.9114513,-57.52196924,-82.15510039,0.01480787768,-12.90636035,
43653333,-1.138916946,102.3179084,-57.43838181,-83.69335294,0.01437582911,-12.93739152,
43724444,-1.152709745,101.7162842,-57.43284305,-84.76156829,0.01562207866,-13.00096504,
43795555,-1.166187084,101.0926991,-57.46326025,-84.42514921,0.01703165687,-13.05695611,
43866666,-1.177199678,100.4775844,-57.47535485,-85.89905612,0.01733564341,-13.0746458,
43937777,-1.190594975,99.85657272,-57.47635858,-86.82341983,0.01607888667,-13.06134104,
44008888,-1.203044168,99.23707455,-57.3532478,-88.73169452,0.01519108283,-13.04168384,
44080000,-1.215462579,98.63036776,-57.5278772,-89.42929634,0.01367417654,-13.04312216,
44151111,-1.228599804,98.02790292,-57.43734704,-89.43324301,0.01319534133,-13.04989284,
44222222,-1.242208053,97.42886869,-57.42111133,-91.28492948,0.01287940553,-13.05339047,
44293333,-1.25488393,96.84249193,-57.47033404,-91.60342033,0.01219246191,-13.0732461,
44364444,-1.267768215,96.25341235,-57.46371471,-92.45679585,0.01246826825,-13.08783871,
44435555,-1.281470701,95.65387244,-57.5692198,-92.80241992,0.01184345651,-13.1013129,
44506666,-1.295044419,95.06388206,-57.42841246,-94.07276839,0.01262764135,-13.1261487,
44577777,-1.307616728,94.48457124,-57.30328748,-95.22081651,0.01234017639,-13.15107055,
44648888,-1.321020598,93.90964388,-57.48141846,-95.6858832,0.01109603759,-13.16364853,
44720000,-1.336558815,93.32655311,-57.44754055,-95.48644817,0.01206873703,-13.18467788,
44791111,-1.350218545,92.75584027,-57.52856454,-97.3317645,0.01226300009,-13.2018637,
44862222,-1.363428185,92.16789816,-57.54201768,-98.92440853,0.01176999596,-13.22490509,
44933333,-1.378328323,91.5941377,-57.47024793,-99.0599501,0.01247487085,-13.24343919,
45004444,-1.393164509,91.03009277,-57.41660778,-100.8424358,0.01320114587,-13.27388818,
45075555,-1.407520831,90.4561305,-57.55386825,-101.0556296,0.01262286819,-13.30114149,
45146666,-1.421440561,89.88367626,-57.40741238,-102.6355809,0.01407476719,-13.34003821,
45217777,-1.436505888,89.32274885,-57.31650741,-102.5468696,0.01464339571,-13.37355364,
45288888,-1.451809461,88.75150783,-57.35855587,-103.174176,0.01591393412,-13.42558481,
45360000,-1.466723898,88.17718002,-57.38387279,-103.9998894,0.01924252555,-13.49846052,
45431111,-1.482890733,87.60559314,-57.3542155,-107.0270885,0.02128834047,-13.58165486,
45502222,-1.498736736,87.02451151,-57.26836996,-105.8579582,0.02107374584,-13.63014427,
45573333,-1.514940233,86.43740399,-57.51163768,-109.0493893,0.0197006116,-13.63690185,
45644444,-1.530415716,85.85097834,-57.52390421,-108.4357682,0.01817825151,-13.63247645,
45715555,-1.54666636,85.31166768,-57.58233404,-109.2037716,0.01688423477,-13.59010324,
45786666,-1.56293481,84.81363285,-57.49308085,-111.1228519,0.01481965937,-13.56413,
45857777,-1.579905941,84.30658226,-57.56873593,-110.8175641,0.01483253118,-13.58345957,
45928888,-1.597664374,83.7818734,-57.55410214,-112.0260541,0.01369605682,-13.60166398,
