Frequency,S11_Magnitude,S11_Phase,S12_Magnitude,S12_Phase,S22_Magnitude,S22_Phase,
30000000,-0.6195248986,-111.0075866,-65.16717434,46.48844726,0.0081429283,-8.505233917,
30071111,-0.5668968824,-111.740372,-82.61042382,25.85228036,0.03549404115,-8.767073232,
30142222,-0.5626759471,-112.4553616,-86.97595404,52.62498781,0.03526819134,-8.7824857,
30213333,-0.5598865714,-113.173292,-81.99730395,20.87247572,0.03519990836,-8.786878022,
30284444,-0.5563169628,-113.901499,-94.72208251,34.11911602,0.03517702447,-8.795539214,
30355555,-0.5541751782,-114.6291643,-88.09412283,41.11930303,0.03590890821,-8.815959025,
30426666,-0.5510982797,-115.3536047,-92.420603,-9.952663177,0.03684874455,-8.83316815,
30497777,-0.5488603718,-116.0790839,-90.64496103,40.11359525,0.03547982914,-8.8517436,
30568888,-0.5469694231,-116.8066882,-90.86753139,-3.969240199,0.03518540689,-8.87562859,
30640000,-0.5426408299,-117.5476802,-95.94551987,4.777395167,0.03510392352,-8.887695315,
30711111,-0.5414489126,-118.2784488,-82.53495187,13.475164,0.03449794669,-8.913284806,
30782222,-0.5394648801,-119.0217269,-81.52966182,25.40063445,0.03529981728,-8.934798287,
30853333,-0.5345046334,-119.7697974,-80.67275438,-0.8279091813,0.03372517499,-8.963835775,
30924444,-0.519533155,-120.4641103,-84.39612192,16.5642432,0.02569314853,-8.977563345,
30995555,-0.5285905024,-121.2682302,-80.68428627,35.38568107,0.03310815259,-9.02537292,
31066666,-0.5804522357,-121.721228,-64.78047949,-173.0357801,0.03109275352,-8.913858304,
31137777,-0.5225731104,-122.7209061,-81.89692283,8.967036498,0.02489085837,-9.015520723,
31208888,-0.5225233091,-123.5033826,-81.88825543,33.391911,0.03258370581,-9.078787201,
31280000,-0.5211641427,-124.2509039,-83.35503173,26.16395287,0.03315383578,-9.090608247,
31351111,-0.5201762874,-125.0087704,-82.99210959,33.79518789,0.03486231615,-9.114925141,
31422222,-0.5178464707,-125.7800271,-83.32304723,28.32256729,0.03411815506,-9.171959261,
31493333,-0.5164931304,-126.5299329,-83.35587261,29.73699583,0.03528233177,-9.180791979,
31564444,-0.5150678931,-127.289044,-81.66807325,30.61363487,0.03579307023,-9.202955049,
31635555,-0.5147137854,-128.0565291,-82.39960428,16.75378527,0.03615744004,-9.212776534,
31706666,-0.512389961,-128.8332093,-82.89827674,1.694399738,0.03578356519,-9.247418657,
31777777,-0.5113857344,-129.5914519,-81.4936007,13.36277021,0.03662594868,-9.24367052,
31848888,-0.5112649629,-130.3739743,-83.37996587,18.41717747,0.0357217925,-9.264605502,
31920000,-0.510885623,-131.1491571,-80.31188771,15.44282894,0.03408225705,-9.273172782,
31991111,-0.5115417634,-131.9179486,-80.31726696,-4.164778925,0.03343337179,-9.305857888,
32062222,-0.5102641902,-132.7021096,-78.17039705,30.39122408,0.03430598815,-9.31181517,
32133333,-0.5103221006,-133.4811318,-77.38444512,18.16283699,0.03223861125,-9.34183696,
32204444,-0.5111219747,-134.2591167,-81.23751702,-8.876464197,0.03239570693,-9.377591425,
32275555,-0.5076928968,-135.0212071,-79.43895905,18.54981458,0.03545450843,-9.420539192,
32346666,-0.5121450684,-135.8037426,-76.95714625,16.0564064,0.03155924637,-9.404226031,
32417777,-0.5123866732,-136.6040509,-75.30412242,23.77955052,0.03108719537,-9.42885044,
32488888,-0.5133721347,-137.3854272,-75.92386832,11.74075307,0.03042684738,-9.455888106,
32560000,-0.5131756013,-138.1803315,-78.44465912,19.66792467,0.03081968022,-9.466971049,
32631111,-0.513250486,-138.9661583,-73.7096791,16.45345898,0.03124124601,-9.487987715,
32702222,-0.5135727605,-139.7725263,-77.31925476,16.49778898,0.03152564536,-9.512882194,
32773333,-0.5151728934,-140.5516016,-75.64568685,25.30183815,0.02998508953,-9.536287956,
32844444,-0.5164253262,-141.3384652,-77.18554196,8.557448228,0.03050108541,-9.563141089,
32915555,-0.5171971609,-142.134476,-80.018966,12.54598067,0.03140385234,-9.585196437,
32986666,-0.518335539,-142.9234666,-76.38699948,13.81786395,0.03201372429,-9.601717127,
33057777,-0.5191599102,-143.7208149,-73.75565368,23.55763269,0.03184121848,-9.626917892,
33128888,-0.5209409907,-144.5112243,-75.40615453,13.38070666,0.03121529596,-9.65662493,
33200000,-0.5214265336,-145.3354483,-76.25763788,3.314054574,0.03210250704,-9.685132,
33271111,-0.5227795372,-146.1155639,-74.32460271,11.30762777,0.03067036121,-9.699754907,
33342222,-0.5240471587,-146.9217891,-75.61575674,26.66869489,0.03000434722,-9.722076771,
33413333,-0.525769762,-147.725453,-74.78303472,24.70032501,0.03001418599,-9.735637565,
33484444,-0.5268017844,-148.535167,-75.13851915,20.10464794,0.02977054618,-9.77007294,
33555555,-0.5270369751,-149.3553911,-76.03028177,21.88589587,0.02990537899,-9.783105326,
33626666,-0.5286932906,-150.1667549,-75.29818402,21.71281254,0.03077999801,-9.799996105,
33697777,-0.5303480017,-150.9696565,-76.0964954,37.47136444,0.03077405002,-9.827949158,
33768888,-0.5321801177,-151.7779918,-75.9871607,22.48037818,0.03079773354,-9.856269224,
33840000,-0.533922481,-152.5964442,-76.26812926,35.0019848,0.03184080878,-9.879840123,
33911111,-0.5353387236,-153.4047051,-76.61526726,33.75759614,0.03120056536,-9.89889325,
33982222,-0.5373173529,-154.2232024,-74.88378417,36.94611045,0.03041560104,-9.918714329,
34053333,-0.5388679329,-155.0375768,-75.83954455,39.04348978,0.03101040462,-9.928303688,
34124444,-0.5403397251,-155.86127,-78.59403233,38.93448359,0.03133149794,-9.953117753,
34195555,-0.542718125,-156.6811665,-76.94554698,33.22475114,0.03199531548,-9.968020223,
34266666,-0.5431267114,-157.4942112,-77.50666349,32.64195462,0.03478922569,-9.990407995,
34337777,-0.545846368,-158.3067489,-78.17623749,46.93677412,0.0311131162,-9.994849307,
34408888,-0.5470141002,-159.1156747,-79.03745083,34.8473969,0.03032673493,-10.01604185,
34480000,-0.5503072131,-159.9422927,-78.66099397,34.44702265,0.02919388716,-10.05131922,
34551111,-0.5520306569,-160.756736,-82.34692782,19.21845827,0.02789733687,-10.07030733,
34622222,-0.5541593161,-161.5772039,-80.64635868,13.50610431,0.02784955438,-10.10222753,
34693333,-0.5560333116,-162.3759268,-81.35993579,7.406816529,0.02564795501,-10.11603156,
34764444,-0.5581310852,-163.1840276,-77.56600609,8.840237988,0.02505355589,-10.14262138,
34835555,-0.5597745573,-164.0118237,-80.15227524,-4.209987807,0.02394961788,-10.15676468,
34906666,-0.5621880964,-164.8518579,-77.50262125,-3.825267832,0.02490623549,-10.18471279,
34977777,-0.5627961152,-165.7184555,-78.41243964,1.859261304,0.02417907191,-10.19733893,
35048888,-0.5646015907,-166.5652272,-77.92972127,-8.081088457,0.0232843799,-10.22762719,
35120000,-0.5664387386,-167.3759295,-78.56936441,-12.85494919,0.02278143094,-10.25412017,
35191111,-0.5695451559,-168.1965455,-74.94475452,-13.46910113,0.02252929834,-10.26922006,
35262222,-0.5712888285,-169.0053354,-76.68780724,-11.90297513,0.02287113215,-10.30173655,
35333333,-0.5736678571,-169.8140653,-76.3187197,-8.610584916,0.02266140734,-10.32815948,
35404444,-0.5757388764,-170.6262895,-75.76935581,-14.08014491,0.02425116997,-10.34772261,
35475555,-0.5789527379,-171.442063,-75.51201483,-18.51660167,0.02645985236,-10.36490422,
35546666,-0.5812257063,-172.2467091,-75.61632123,-15.7654431,0.02402978894,-10.37586441,
35617777,-0.5842169941,-173.0582554,-74.88703125,-16.97984327,0.02190686828,-10.41591395,
35688888,-0.5871274682,-173.8564904,-74.45575364,-17.55253059,0.02375944273,-10.44301786,
35760000,-0.5880886574,-174.660265,-74.4593976,-6.737912134,0.02281622862,-10.44933584,
35831111,-0.5903383127,-175.4673857,-74.55862837,-15.9017384,0.02109652436,-10.47140989,
35902222,-0.5924782266,-176.2718312,-75.05438174,-13.57863533,0.02217463176,-10.49401828,
35973333,-0.5943376307,-177.0753784,-74.51701599,-9.70281082,0.02299104275,-10.51887291,
36044444,-0.5949393738,-177.8834213,-73.97381972,-13.46436002,0.02289411998,-10.54334757,
36115555,-0.5984627661,-178.6947426,-74.13474726,-12.04749288,0.02311868789,-10.57417633,
36186666,-0.5992801141,-179.5054925,-74.38522973,-11.66793275,0.02329898408,-10.58624141,
36257777,-0.6013072245,179.7085662,-72.74206299,-9.899249941,0.02343445497,-10.60303156,
36328888,-0.6035852366,178.8951706,-73.4981719,-10.07838195,0.02416201764,-10.62469842,
36400000,-0.6049371468,178.0889137,-73.0428556,-17.17730701,0.0235876308,-10.65252516,
36471111,-0.6076004601,177.2806126,-73.33834499,-12.66548857,0.0237776399,-10.67178241,
36542222,-0.6088518143,176.4865736,-72.30265416,-12.57763073,0.02386516098,-10.6992234,
36613333,-0.6102829,175.6783019,-73.02224234,-19.39559437,0.02473131029,-10.71602328,
36684444,-0.6115585229,174.8794913,-74.19979862,-15.69538616,0.02405377799,-10.73267065,
36755555,-0.6142210261,174.0787535,-74.83035046,-19.78618071,0.0229045615,-10.75470152,
36826666,-0.6164034392,173.279284,-73.7952602,-14.98406929,0.02383247952,-10.77106785,
36897777,-0.6173779557,172.4761616,-71.73456701,-19.3456993,0.02292177789,-10.8021796,
36968888,-0.618756788,171.6844383,-72.40885938,-18.22906251,0.02257022838,-10.81129391,
37040000,-0.6280565595,170.9613744,-74.81529797,-33.96863546,0.01463331731,-10.85455886,
37111111,-0.6196367561,170.0870352,-73.65055321,-17.3254527,0.0226699899,-10.88077643,
37182222,-0.6219223688,169.2921268,-73.4604828,-22.52604366,0.02234471545,-10.90777027,
37253333,-0.6229880206,168.5015911,-71.73395806,-14.90456835,0.02242107658,-10.93673561,
37324444,-0.6245137538,167.7175143,-71.36038709,-17.6391249,0.021618183,-10.95892357,
37395555,-0.6244454265,166.8750253,-71.14342592,-16.27923672,0.02191549807,-10.97431628,
37466666,-0.6222560928,165.9640419,-71.30213917,-15.71351476,0.02092857628,-10.9959111,
37537777,-0.6181740973,165.0495189,-71.59109885,-20.33679759,0.02151779973,-11.02638206,
37608888,-0.6170571399,164.2165705,-71.40032697,-18.72574164,0.02178218458,-11.05906785,
37680000,-0.6148443084,163.4003452,-71.73695068,-27.99945458,0.02167229527,-11.09637908,
37751111,-0.6216010515,162.6953279,-71.98028777,-15.99751526,0.02279079195,-11.1737419,
37822222,-0.6272237101,162.0266006,-70.86050485,-13.60631392,0.02274252119,-11.19564182,
37893333,-0.6298025635,161.3010398,-71.78362722,-21.10538634,0.02384949011,-11.17856296,
37964444,-0.6323292846,160.5400556,-71.07621491,-22.26218918,0.0227052991,-11.19846902,
38035555,-0.6350355063,159.7848688,-71.38741313,-20.58242543,0.02039612132,-11.19804575,
38106666,-0.6382782975,159.0130486,-70.83761717,-29.04894873,0.01953035968,-11.20532342,
38177777,-0.6405917999,158.2453413,-70.89430968,-23.3652052,0.01943637437,-11.22508302,
38248888,-0.6403833129,157.4665123,-70.62437234,-23.84517049,0.01921478033,-11.24295569,
38320000,-0.6433946101,156.6930361,-71.58189628,-26.67330913,0.01930786794,-11.26302562,
38391111,-0.6435943406,155.9092576,-71.51103926,-26.68254148,0.01847550827,-11.28084551,
38462222,-0.6459964747,155.1295892,-70.10947221,-31.63936814,0.01856941961,-11.30540625,
38533333,-0.6458908533,154.3458033,-70.73012549,-30.79170941,0.01927986022,-11.32159042,
38604444,-0.6446116719,153.5501565,-69.32409152,-30.99620105,0.01802462322,-11.35190287,
38675555,-0.644363706,152.7516095,-69.48176454,-36.55711153,0.01842889704,-11.36901755,
38746666,-0.6450498133,151.9627142,-70.02325484,-32.26409709,0.01867021437,-11.39400705,
38817777,-0.646802844,151.1777772,-69.96681836,-31.28177945,0.01941632099,-11.40904335,
38888888,-0.6479880793,150.3907412,-69.44503327,-33.50720132,0.02015759335,-11.43103774,
38960000,-0.6485588997,149.584775,-69.03863975,-32.34737245,0.01874213036,-11.4553191,
39031111,-0.6490630207,148.7818992,-69.97624713,-33.64836119,0.0192529472,-11.48250633,
39102222,-0.6505321584,147.9831148,-69.14045396,-38.69512734,0.01827820829,-11.50557664,
39173333,-0.650037038,147.1969243,-69.06800539,-36.88871865,0.01811761458,-11.53690925,
39244444,-0.6504272103,146.430505,-69.30260543,-35.82612448,0.01915446619,-11.55423645,
39315555,-0.6521586615,145.6786531,-69.09906975,-37.70732094,0.0194272633,-11.57635026,
39386666,-0.6543098003,144.9247614,-69.07597018,-39.16931611,0.02026221632,-11.60145567,
39457777,-0.6574894268,144.1830834,-69.47038723,-37.707343,0.01926097753,-11.61801392,
39528888,-0.661369525,143.4428505,-69.10355194,-38.29446508,0.01950459518,-11.63051225,
39600000,-0.6635301129,142.6765016,-68.27013877,-43.66208409,0.0186250993,-11.6571908,
39671111,-0.6640350351,141.9227639,-68.85934071,-44.95428574,0.01861685517,-11.67473388,
39742222,-0.666436054,141.1666997,-68.44065275,-43.43125879,0.01835961263,-11.69627883,
39813333,-0.6689181623,140.4196602,-68.73677675,-45.77946265,0.01829970987,-11.71864777,
39884444,-0.6715088491,139.6562761,-68.53356785,-46.39855091,0.01860779641,-11.74674938,
39955555,-0.6741733715,138.9167195,-68.14752679,-45.85495857,0.01763131085,-11.77018455,
40026666,-0.6770294336,138.1622094,-67.26407535,-45.45824032,0.01806920562,-11.78756345,
40097777,-0.6801047428,137.4085141,-67.44069078,-47.29210755,0.018774417,-11.81161059,
40168888,-0.6826034546,136.662679,-68.13900815,-49.96918125,0.01756775731,-11.8331696,
40240000,-0.6856458095,135.9127381,-68.12917006,-49.75538127,0.01777755207,-11.85728744,
40311111,-0.688846841,135.1651595,-68.11703736,-49.58988923,0.01832762067,-11.88407306,
40382222,-0.6934857983,134.4150865,-67.99089091,-47.64641464,0.01808213065,-11.92182626,
40453333,-0.6961251142,133.6497354,-67.74657718,-52.44682256,0.01787005455,-11.9682109,
40524444,-0.698886555,132.8531478,-67.37142643,-47.43693533,0.0194682711,-12.01549135,
40595555,-0.7019361334,131.9677508,-66.83498583,-52.27371483,0.02126136245,-12.04987911,
40666666,-0.7099779465,131.1377639,-66.64435674,-57.72813546,0.01671915371,-12.02136109,
40737777,-0.7092661231,130.484126,-68.11507547,-54.22217291,0.01917725475,-12.05957025,
40808888,-0.7147525394,129.8281343,-67.87233633,-50.97081868,0.01954966669,-12.07159256,
40880000,-0.7203693971,129.2014403,-67.14930826,-58.23790306,0.01870529798,-12.06851098,
40951111,-0.7257483341,128.5829031,-67.35788431,-52.09416058,0.01835449518,-12.06654829,
41022222,-0.7322193316,127.9204541,-66.9452117,-54.73659562,0.01756715009,-12.07156256,
41093333,-0.7389038471,127.2493676,-67.67081023,-58.26552586,0.01751735689,-12.08706108,
41164444,-0.7438471191,126.5494137,-67.19649058,-54.37901769,0.01690560513,-12.10276164,
41235555,-0.7490334597,125.857447,-67.73861193,-54.49688414,0.01636145415,-12.12575478,
41306666,-0.7562675201,125.149258,-67.01818048,-53.83375962,0.01604990845,-12.14174034,
41377777,-0.7616742914,124.4196409,-66.58618079,-58.75504549,0.01358715354,-12.15958971,
41448888,-0.766526015,123.7446698,-66.62225127,-63.76017471,0.01623445131,-12.18753714,
41520000,-0.7725592919,123.0751348,-65.43033505,-60.50289609,0.01526903394,-12.21194187,
41591111,-0.781142265,122.3715794,-65.56816492,-61.20076381,0.01646443618,-12.22032286,
41662222,-0.786833268,121.6619992,-65.07871694,-59.60032563,0.01591774211,-12.24524265,
41733333,-0.8223159706,121.1239884,-65.41177745,-79.21626463,0.01493675035,-12.27962647,
41804444,-0.80131069,120.2552109,-64.33462338,-67.18349582,0.01587825897,-12.2812077,
41875555,-0.8098402091,119.538246,-64.74381799,-68.17840695,0.01611390154,-12.304161,
41946666,-0.8182864037,118.7885556,-64.88598516,-66.58572671,0.01604638196,-12.33800293,
42017777,-0.8248938205,118.0216191,-64.04458994,-70.58330159,0.015951848,-12.35107141,
42088888,-0.8325325765,117.2578037,-63.99877522,-69.15236133,0.01549195611,-12.37436206,
42160000,-0.8416609678,116.5991344,-63.705589,-69.5463019,0.01425662569,-12.40245866,
42231111,-0.8514183514,116.0616949,-63.47224568,-70.83781103,0.01570443694,-12.42202498,
42302222,-0.8619539018,115.5300382,-63.60982011,-72.29648421,0.01573878192,-12.44254584,
42373333,-0.8714733026,114.9419884,-63.7686541,-71.72381172,0.01634868621,-12.46118051,
42444444,-0.8819602145,114.3364439,-63.78246722,-75.97806892,0.01636168388,-12.4945837,
42515555,-0.8923666158,113.7197936,-63.37025507,-74.09875889,0.01535888782,-12.51849629,
42586666,-0.9024154603,113.0833204,-63.30075931,-73.21806237,0.01564007738,-12.53431864,
42657777,-0.9109881592,112.4149471,-63.31979399,-75.80152967,0.01587883311,-12.55828626,
42728888,-0.9216776674,111.7411712,-63.02952654,-78.41171089,0.01573416742,-12.58721999,
42800000,-0.9321517901,111.1404296,-63.21383358,-76.20263238,0.01500609007,-12.60713528,
42871111,-0.9439421046,110.5327714,-62.9561939,-79.46852941,0.01500512609,-12.62581625,
42942222,-0.9554420256,109.9115211,-63.34844283,-80.33330874,0.01517880103,-12.6520066,
43013333,-0.9671419499,109.26688,-62.98691181,-82.09105373,0.01433163855,-12.67186365,
43084444,-0.9799010961,108.6284998,-62.82647468,-82.25026196,0.01533150899,-12.69923717,
43155555,-0.9907234563,107.9972322,-62.84247511,-84.05516705,0.01561462004,-12.727763,
43226666,-1.002060044,107.3582808,-63.04043588,-85.53663801,0.01480064835,-12.75778303,
43297777,-1.013895207,106.7349422,-62.8704314,-87.71981349,0.014985244,-12.78205436,
43368888,-1.02503924,106.1078834,-63.30097557,-90.34219721,0.01652311726,-12.82501634,
43440000,-1.038720229,105.4821075,-62.85992117,-88.75261922,0.01936459007,-12.91053904,
43511111,-1.049366407,104.8330783,-62.73411785,-91.00840364,0.02193200181,-13.02543341,
43582222,-1.061673719,104.155033,-62.62439398,-94.45197997,0.02210272859,-13.039275,
43653333,-1.073888011,103.5185548,-62.85827845,-97.09224647,0.01723528324,-12.93588232,
43724444,-1.088408207,102.9534229,-62.7288155,-97.77928309,0.01489339707,-12.92624069,
43795555,-1.101889139,102.4480695,-62.3235462,-98.1405299,0.01497279986,-12.92886572,
43866666,-1.113671632,101.9564014,-62.71873916,-98.83318987,0.01464366942,-12.94934633,
43937777,-1.126564014,101.4422424,-62.82326519,-99.47278509,0.01395214072,-12.96868498,
44008888,-1.139717654,100.9048823,-62.56260283,-102.3692604,0.01380946745,-12.98806162,
44080000,-1.149747702,100.3558192,-62.76989493,-104.2697529,0.01349161647,-13.00719734,
44151111,-1.163179659,99.80241568,-62.46985896,-104.8232073,0.01359061952,-13.02582961,
44222222,-1.176112913,99.24397674,-62.63421943,-105.9344729,0.01319869613,-13.04223699,
44293333,-1.188051572,98.68857608,-62.53605595,-108.0375823,0.01318131833,-13.06714011,
44364444,-1.199592914,98.12958417,-62.24931025,-110.5656634,0.01320379147,-13.08637467,
44435555,-1.213249845,97.57837088,-62.28064088,-111.9811988,0.01327115905,-13.10306368,
44506666,-1.226148002,97.01192823,-62.32472465,-114.9922319,0.013273498,-13.12481499,
44577777,-1.237016945,96.46434843,-62.06935659,-114.8817279,0.01268433638,-13.15650607,
44648888,-1.248654074,95.92056365,-62.15774131,-114.1820835,0.01334280806,-13.17347862,
44720000,-1.262379043,95.38416915,-62.16085712,-116.495422,0.01332951052,-13.19411046,
44791111,-1.273454825,94.84872312,-62.20569374,-120.0548094,0.01384005978,-13.2111907,
44862222,-1.283466977,94.31201501,-62.01824543,-119.7045571,0.01303733605,-13.23962473,
44933333,-1.295298108,93.77946504,-62.02687399,-120.2153103,0.01351814729,-13.2670078,
45004444,-1.307788992,93.25946219,-62.06855561,-122.8018902,0.01385478897,-13.30032045,
45075555,-1.319811525,92.72706555,-62.17591233,-123.658543,0.01425741975,-13.3250596,
45146666,-1.331245539,92.19932921,-62.05845717,-125.9347059,0.01650941462,-13.35784767,
45217777,-1.342185127,91.67989766,-62.03852758,-126.3523595,0.01801467358,-13.40646659,
45288888,-1.354511291,91.16472113,-62.36867264,-126.8189312,0.02083189823,-13.47642667,
45360000,-1.365487833,90.63709741,-62.37263827,-129.9377585,0.02327977885,-13.54260281,
45431111,-1.377569162,90.10716103,-62.15933793,-132.7684593,0.02281659859,-13.56834846,
45502222,-1.389117927,89.57661434,-62.588921,-131.8138677,0.0203673619,-13.56162856,
45573333,-1.399263747,89.04333444,-62.55429405,-136.9881803,0.01869062721,-13.55686192,
45644444,-1.409517834,88.52373215,-62.78703505,-136.2796171,0.01689079933,-13.55481413,
45715555,-1.419265919,87.99338164,-62.70822277,-138.2675457,0.01605758409,-13.55992953,
45786666,-1.431563454,87.55717176,-62.44017047,-140.7564005,0.01480006803,-13.55738963,
45857777,-1.443151716,87.12751571,-62.94980509,-140.0981692,0.01445454673,-13.58021516,
45928888,-1.455294233,86.65407937,-63.16487281,-143.500621,0.01367529376,-13.59252736,
