Frequency,S11_Magnitude,S11_Phase,S12_Magnitude,S12_Phase,S22_Magnitude,S22_Phase,
30000000,-0.5930729619,-112.4522611,-59.56452169,163.8188261,-0.01426751344,-9.005068688,
30071111,-0.5395558984,-113.3306824,-80.53210665,-144.1570773,0.04048332621,-8.769785546,
30142222,-0.5346408829,-114.0555561,-80.61213076,-159.0818727,0.03935293327,-8.785954044,
30213333,-0.5306701143,-114.8016384,-82.42104485,-148.3706819,0.0400844351,-8.794597665,
30284444,-0.5268569574,-115.5367219,-79.58817637,-149.5490653,0.03944927786,-8.80455177,
30355555,-0.523259052,-116.2700316,-78.67631369,-154.2800042,0.03837728334,-8.83136913,
30426666,-0.5196880274,-117.0048702,-80.74815837,-155.615964,0.03995525,-8.839104583,
30497777,-0.5158142115,-117.746902,-79.41680735,-152.5781798,0.03870134754,-8.854200477,
30568888,-0.5128821775,-118.4865347,-80.78526952,-154.1636981,0.03899699281,-8.876882036,
30640000,-0.5103518869,-119.2489729,-77.47524268,-133.1873149,0.03971625112,-8.891607775,
30711111,-0.5095106302,-120.0015706,-80.2909364,-133.8218004,0.03787654062,-8.908077216,
30782222,-0.5073723482,-120.7554042,-81.80221888,-150.8098978,0.0380673817,-8.933344842,
30853333,-0.5034900405,-121.5163544,-80.08217102,-123.4920934,0.03694135339,-8.954660028,
30924444,-0.4869428022,-122.3630485,-74.18375387,-139.6394039,0.04450710204,-8.959743996,
30995555,-0.497299658,-123.0525756,-85.3464532,-113.3631035,0.03731261283,-9.029365182,
31066666,-0.4789186025,-123.8941117,-72.32559186,65.04662878,0.08407695855,-9.300086573,
31137777,-0.4995731304,-124.557031,-87.80008075,-93.84194913,0.02617710831,-9.088050496,
31208888,-0.4898602099,-125.3312601,-87.91016863,-105.7176225,0.036473257,-9.07842246,
31280000,-0.4888395834,-126.1154167,-90.54012095,-135.9348585,0.03713757239,-9.11084622,
31351111,-0.4857585608,-126.8805683,-91.81690203,175.7170356,0.0374453394,-9.106877575,
31422222,-0.4835795599,-127.6371615,-103.6112727,171.8641536,0.03618799226,-9.13826022,
31493333,-0.4813849955,-128.4137634,-87.10561346,173.7661465,0.03776364953,-9.171739546,
31564444,-0.4807666884,-129.1861655,-83.68405765,148.5343294,0.03769496667,-9.190512917,
31635555,-0.479999063,-129.962609,-88.09774663,164.5870269,0.0386686738,-9.211027482,
31706666,-0.478546483,-130.7415073,-86.37430857,154.1604339,0.03860659266,-9.246017642,
31777777,-0.4784158685,-131.5182529,-84.97223909,165.1082782,0.0400875882,-9.246724214,
31848888,-0.4784976935,-132.293891,-82.08078369,163.6105702,0.0391778413,-9.266153659,
31920000,-0.478530015,-133.0879788,-82.28685641,-170.6888654,0.03683370608,-9.26908615,
31991111,-0.4777545102,-133.8888872,-82.0513102,-148.1121701,0.03794260455,-9.311185343,
32062222,-0.4783506664,-134.6645188,-84.88327453,-174.4682207,0.03651004247,-9.313376132,
32133333,-0.4788648043,-135.4530516,-85.32872479,-140.9913017,0.03606849111,-9.336753536,
32204444,-0.4790025288,-136.2369517,-83.49134951,-104.7455891,0.03879276659,-9.373774204,
32275555,-0.4775327482,-137.0466731,-90.53913907,133.8708853,0.03868853084,-9.375748143,
32346666,-0.4785132548,-137.8418737,-87.57108187,131.120321,0.03812915273,-9.394831714,
32417777,-0.4792447736,-138.6412608,-83.06975426,125.6533843,0.03712363662,-9.427166486,
32488888,-0.4789934493,-139.4384517,-80.91244257,141.9936126,0.03550866472,-9.460040675,
32560000,-0.4796649444,-140.2490491,-81.20311013,174.7916144,0.03494423476,-9.47692913,
32631111,-0.4801323627,-141.0521593,-82.1267743,156.078075,0.03406497101,-9.493468401,
32702222,-0.4808073177,-141.8642309,-80.79019399,-179.4569067,0.03516410044,-9.510436223,
32773333,-0.4823197605,-142.6656543,-81.03948447,163.2328025,0.0346826595,-9.541237117,
32844444,-0.4837369194,-143.4717269,-81.18231094,-179.1929155,0.03370007436,-9.574830107,
32915555,-0.4846651552,-144.2847543,-79.60172329,-164.5222746,0.03366095334,-9.595380517,
32986666,-0.4857274111,-145.0893184,-85.0225645,165.9064036,0.0333402496,-9.603683849,
33057777,-0.4864501466,-145.9135884,-85.28899408,148.5756519,0.03599526464,-9.62651768,
33128888,-0.4885164569,-146.7179776,-80.10406499,-176.3094369,0.03378776176,-9.654330566,
33200000,-0.4881811429,-147.5595574,-86.53123538,161.371299,0.03311197762,-9.684501552,
33271111,-0.4910355657,-148.3497737,-84.12858561,171.6705148,0.03349727265,-9.712517726,
33342222,-0.4923446291,-149.1683529,-82.86969213,176.1171486,0.03285626527,-9.731232044,
33413333,-0.4940633562,-149.9796893,-87.05967086,156.3508734,0.03176439002,-9.743883385,
33484444,-0.4954522745,-150.8078584,-92.04300905,140.0679245,0.03164491927,-9.764428315,
33555555,-0.494506344,-151.6488359,-84.43484289,169.5554101,0.03223732758,-9.784081363,
33626666,-0.495980612,-152.4741217,-89.59627165,174.6593758,0.03234087423,-9.804949168,
33697777,-0.4972143781,-153.2809718,-81.35061724,143.3912319,0.03364495543,-9.828600991,
33768888,-0.4995457103,-154.0991361,-86.52929734,118.1121098,0.03427370424,-9.854239533,
33840000,-0.5013028779,-154.9215208,-83.20202846,121.0597759,0.03466804146,-9.875677393,
33911111,-0.5029914245,-155.7332591,-88.16533944,128.1436867,0.03123015325,-9.90124875,
33982222,-0.5048713781,-156.5531189,-81.4824731,98.36628903,0.03057687659,-9.93183828,
34053333,-0.5072075589,-157.3725785,-82.69940025,121.4142109,0.03274700273,-9.940872779,
34124444,-0.5082162995,-158.1846358,-81.09725185,131.4709514,0.03330133995,-9.957373812,
34195555,-0.5111735253,-159.0020857,-81.30865454,126.8628609,0.03445663359,-9.976629298,
34266666,-0.5127919244,-159.8223428,-80.36350776,127.738296,0.03600335878,-10.011198,
34337777,-0.5152749466,-160.6297837,-78.72765739,125.9856181,0.03264401801,-10.02032094,
34408888,-0.5172116017,-161.4554344,-79.49801607,130.4819659,0.03343116648,-10.02821731,
34480000,-0.5190620128,-162.2708246,-79.99369716,130.0808634,0.03223357422,-10.04783145,
34551111,-0.5207381913,-163.0872447,-78.61294357,140.6566215,0.03222154954,-10.07748137,
34622222,-0.5229914477,-163.9089579,-78.79291509,140.1101256,0.03139936751,-10.10941525,
34693333,-0.525177723,-164.7353075,-77.15908878,147.007192,0.02937965515,-10.1099674,
34764444,-0.5278173517,-165.5559915,-77.52750864,152.4490344,0.02776891362,-10.13882922,
34835555,-0.5298631084,-166.3871634,-76.50367751,150.7442456,0.0277657996,-10.17154521,
34906666,-0.5328002294,-167.2160209,-77.29386378,140.1023705,0.02947422021,-10.17347693,
34977777,-0.5345521809,-168.0469669,-77.90213668,148.9336374,0.0281332601,-10.19742442,
35048888,-0.5370329081,-168.8799796,-77.18969204,147.6948344,0.02707820249,-10.22621101,
35120000,-0.5383567081,-169.7124575,-77.25904875,146.7732844,0.02620855964,-10.2559329,
35191111,-0.5405804956,-170.5578545,-82.29766476,154.1190924,0.02617255736,-10.27641084,
35262222,-0.5409818377,-171.4147869,-80.2080224,162.3032291,0.02646935968,-10.30941772,
35333333,-0.5422349304,-172.2897001,-78.79015914,165.5733966,0.02663101536,-10.33540451,
35404444,-0.5427033503,-173.1596598,-79.80226877,170.2899677,0.02620091147,-10.34332425,
35475555,-0.5462068533,-173.9713108,-80.68670381,177.4167578,0.02583096646,-10.37235381,
35546666,-0.5488134536,-174.7595831,-81.22081456,177.1658561,0.02632385631,-10.39364342,
35617777,-0.5514685856,-175.5477296,-83.6799847,-172.3415877,0.02309019157,-10.42724125,
35688888,-0.5529935143,-176.3377362,-81.44899771,155.7165424,0.02384744758,-10.45002841,
35760000,-0.5561911487,-177.1383594,-80.78327425,135.1828573,0.02521412574,-10.46228742,
35831111,-0.5584923298,-177.9489717,-80.65231502,167.3856354,0.02502864848,-10.48250042,
35902222,-0.5611648317,-178.7536562,-79.31343522,173.9804293,0.02546311279,-10.49841306,
35973333,-0.5625752193,-179.5630935,-80.18010948,-173.3136626,0.02635339486,-10.52156426,
36044444,-0.5638121257,179.6223857,-79.17085655,-172.6648497,0.0259342349,-10.55536343,
36115555,-0.5668066364,178.8070793,-79.9436037,-151.3900392,0.026147929,-10.58012128,
36186666,-0.5686632931,177.9951949,-82.98757586,-165.1686504,0.02661086333,-10.59283049,
36257777,-0.571849215,177.1979321,-88.87648461,-132.0392902,0.02810956392,-10.61009749,
36328888,-0.573359047,176.3815052,-83.19872752,-132.8739608,0.02764137158,-10.63252823,
36400000,-0.5755728731,175.5633267,-82.03373375,-128.9580241,0.02594535038,-10.65508775,
36471111,-0.5768623986,174.7601269,-83.48769362,-145.8596739,0.02772412852,-10.67133528,
36542222,-0.5770840004,173.9674259,-87.34689847,-87.36862055,0.02749280556,-10.68905114,
36613333,-0.579631076,173.15966,-85.93537568,-158.4688998,0.02730029421,-10.71667905,
36684444,-0.5810332119,172.356571,-82.43764223,-143.2197132,0.02684050769,-10.73856432,
36755555,-0.5832213951,171.5601713,-82.28803216,-150.266901,0.02491994498,-10.76227186,
36826666,-0.5844249658,170.7612179,-88.12998603,-143.4312461,0.02329596266,-10.77939179,
36897777,-0.5857873784,169.956188,-89.65499276,-98.77308746,0.02396402596,-10.82480761,
36968888,-0.5878763632,169.1668124,-90.77777445,-96.94840987,0.02604388975,-10.83651817,
37040000,-0.6258739164,168.3992827,-72.85607217,-108.4471559,0.01244875583,-10.94524944,
37111111,-0.5907817718,167.5728674,-91.42715489,-173.5489199,0.02543767627,-10.87656953,
37182222,-0.5935767528,166.7851161,-91.94395348,-129.4778794,0.02559503902,-10.90174329,
37253333,-0.5948304504,165.9983259,-90.92465503,-106.487055,0.02462177843,-10.92567525,
37324444,-0.5965159167,165.2143401,-91.40240945,-176.9691992,0.0241916869,-10.94827575,
37395555,-0.5971819166,164.4232072,-94.43003993,-105.7575813,0.02375499455,-10.97252614,
37466666,-0.5995483258,163.6357416,-94.06286336,-90.56825531,0.0233461606,-11.0048654,
37537777,-0.5999871905,162.8522225,-83.76128804,-110.2989976,0.02524298615,-11.0859649,
37608888,-0.602060805,162.0592518,-92.18970276,-108.8777554,0.02570072978,-11.14230584,
37680000,-0.6021418904,161.2678527,-103.4503036,18.41722397,0.02709466296,-11.1800638,
37751111,-0.6040687896,160.4842332,-106.9469671,-91.2958168,0.0268307032,-11.23667501,
37822222,-0.6047606368,159.6963653,-98.96305445,-27.50431,0.02704143785,-11.24132955,
37893333,-0.6059860644,158.9091591,-85.2676206,-115.8833453,0.02708825518,-11.21519864,
37964444,-0.6072862318,158.1269838,-87.47703719,-118.3513558,0.02587423963,-11.21148819,
38035555,-0.6084327908,157.3336276,-86.75246536,-110.7454777,0.02379988988,-11.20288521,
38106666,-0.6094931543,156.5573191,-85.25804189,-96.22135519,0.02360573834,-11.20650187,
38177777,-0.6111661412,155.7790186,-89.92720331,-104.6329506,0.02237606756,-11.21453628,
38248888,-0.6119055892,154.982653,-87.13950263,-36.99742067,0.02229663922,-11.22437802,
38320000,-0.6128000081,154.1911898,-89.29645589,-89.71229751,0.02238628115,-11.24988405,
38391111,-0.6132565982,153.4055802,-91.53492587,-123.7120144,0.0213763434,-11.2660226,
38462222,-0.6135554079,152.6343732,-87.33874225,-58.50159622,0.02192423117,-11.2859971,
38533333,-0.6136499742,151.856378,-87.45209328,-110.9528131,0.02102975486,-11.31407085,
38604444,-0.6144844611,151.0687139,-87.94201523,-68.00935543,0.02094025325,-11.3415722,
38675555,-0.6152402545,150.2879857,-84.96628967,-52.163502,0.02074452748,-11.34773197,
38746666,-0.6162194518,149.5186659,-87.51927841,-53.886619,0.02046191677,-11.37000297,
38817777,-0.6183630984,148.7446628,-88.46926007,-64.7024286,0.02043408709,-11.38324584,
38888888,-0.6189938472,147.9674756,-82.52666588,-92.99593044,0.02120526451,-11.41300143,
38960000,-0.6184326172,147.2005871,-81.08245533,-72.74145525,0.02056890057,-11.44038096,
39031111,-0.6206278105,146.4243479,-83.54877968,-69.73867852,0.02266232982,-11.46196989,
39102222,-0.6226584454,145.6479728,-79.57190418,-85.85744048,0.02210437579,-11.49172239,
39173333,-0.623123942,144.882045,-82.30272049,-81.39513316,0.02097214542,-11.51868571,
39244444,-0.6243005601,144.1134239,-80.66328415,-81.62021854,0.02154830121,-11.52758602,
39315555,-0.6255307778,143.3592155,-85.31512861,-59.90964361,0.02089902884,-11.55642469,
39386666,-0.6268131632,142.5916471,-77.91483662,-76.10391828,0.02134142565,-11.57018988,
39457777,-0.6273209517,141.8304312,-81.56628645,-75.79266685,0.02155271384,-11.59098209,
39528888,-0.6287050544,141.0859787,-80.01460784,-75.37635073,0.02063970336,-11.6121907,
39600000,-0.6303056537,140.331008,-78.99598252,-70.12250383,0.02318872342,-11.65201697,
39671111,-0.6318298184,139.5655746,-79.1257948,-84.5384331,0.0202669584,-11.66753512,
39742222,-0.6333923382,138.8021411,-80.30135669,-78.60424317,0.01987000635,-11.6976538,
39813333,-0.6349702952,138.0572986,-82.05632511,-98.58964413,0.01974052284,-11.71361304,
39884444,-0.6378622305,137.3136909,-77.88103232,-89.29641346,0.020034632,-11.74066009,
39955555,-0.6397015341,136.5782535,-78.31794289,-71.99725688,0.02022630977,-11.76346397,
40026666,-0.642592006,135.8330837,-76.18405006,-63.49716393,0.01990510901,-11.78112298,
40097777,-0.6431777791,135.0946022,-76.98703188,-70.43741409,0.02019767424,-11.8013782,
40168888,-0.6459497755,134.35412,-80.33400067,-77.84698028,0.01984067421,-11.83395394,
40240000,-0.6475793892,133.6216885,-78.60669286,-87.91049661,0.02021912444,-11.84747678,
40311111,-0.6496982916,132.9027975,-77.46574429,-72.07700318,0.02051387924,-11.87597168,
40382222,-0.6527482058,132.175016,-79.08060177,-82.23952854,0.02079640644,-11.91968141,
40453333,-0.6551255791,131.4379424,-76.30573595,-77.57433054,0.02078051016,-11.98518549,
40524444,-0.6576673938,130.7052922,-77.20431354,-69.77341815,0.02246381394,-12.04868691,
40595555,-0.6609812562,129.9862267,-76.69050366,-77.77884871,0.02506002454,-12.15336345,
40666666,-0.6661855832,129.1995532,-75.24572145,-78.38893438,0.02283444345,-12.07927676,
40737777,-0.6637448845,128.5613359,-75.77848367,-84.46293342,0.02377120445,-12.08495565,
40808888,-0.6664292211,127.8638311,-76.02668129,-70.37556325,0.0221538851,-12.05316626,
40880000,-0.6706482576,127.1615381,-74.5080916,-76.72861879,0.0207984109,-12.03660146,
40951111,-0.6744705419,126.4645228,-75.90788021,-70.75041147,0.02066952141,-12.04582325,
41022222,-0.6787893296,125.7525223,-75.0049738,-67.14661948,0.0206536738,-12.0649391,
41093333,-0.6825674982,125.0603936,-76.35013581,-83.73883987,0.01890054506,-12.08348198,
41164444,-0.6861092346,124.3598581,-75.13779513,-77.0972823,0.0189959622,-12.10163783,
41235555,-0.6892585662,123.6739841,-76.08808532,-76.07581394,0.01871274166,-12.12884786,
41306666,-0.6924154127,122.9755314,-75.40487585,-71.17756764,0.01882477103,-12.14714807,
41377777,-0.6978911517,122.2730019,-75.29596438,-63.7558091,0.01550442881,-12.14522441,
41448888,-0.6993685958,121.6192177,-74.78667207,-74.85931323,0.01922310784,-12.18451097,
41520000,-0.7031820436,120.9452706,-72.65654555,-80.26146857,0.01859414831,-12.20453907,
41591111,-0.7078458525,120.2748764,-71.81488352,-78.5706545,0.01921842718,-12.22744159,
41662222,-0.7127562192,119.5916261,-71.67040445,-77.02699434,0.01846662264,-12.2511858,
41733333,-0.731345644,118.9852908,-79.95934529,-111.08305,0.02371180994,-12.33230011,
41804444,-0.7218162996,118.257777,-70.30186286,-78.72310882,0.01744206156,-12.29650748,
41875555,-0.7269275512,117.5834661,-71.78417028,-78.63173874,0.01844579278,-12.31652866,
41946666,-0.7325406069,116.9170518,-71.66754826,-84.25997879,0.01841669029,-12.34217433,
42017777,-0.7369978109,116.2576354,-71.17963737,-83.7243581,0.0180456277,-12.36073143,
42088888,-0.7431718007,115.5941607,-70.46705412,-89.86809849,0.01789009646,-12.37838037,
42160000,-0.7503399059,114.9388597,-69.6177978,-84.01326356,0.0168338443,-12.40299276,
42231111,-0.7551048801,114.2890187,-69.66511279,-84.37879879,0.01771932247,-12.43146616,
42302222,-0.7611472403,113.6387525,-69.16213312,-89.07742977,0.01760764589,-12.44591377,
42373333,-0.7682611704,112.9546175,-69.26595659,-91.78988348,0.01779499064,-12.45885979,
42444444,-0.7737717991,112.1227606,-68.38408821,-98.87724326,0.018234209,-12.48737894,
42515555,-0.7813883695,111.5412494,-68.56020573,-96.75668235,0.01765408655,-12.51817212,
42586666,-0.7877623319,110.9130243,-67.88975541,-93.95832365,0.01836140666,-12.53923993,
42657777,-0.7926858352,110.1077765,-68.05283719,-96.39325048,0.0182834037,-12.5623255,
42728888,-0.8000000294,109.5682026,-67.63126212,-95.53426646,0.01808548079,-12.59046981,
42800000,-0.805786327,108.9689558,-67.88272621,-91.30491165,0.01731071947,-12.60293431,
42871111,-0.8142005045,108.3310873,-66.98346627,-95.47699958,0.01774761651,-12.6338007,
42942222,-0.8238879211,107.697628,-67.77149664,-91.71076795,0.01875352031,-12.65846064,
43013333,-0.8320520335,107.038122,-67.37591455,-95.33741432,0.01673507905,-12.68420623,
43084444,-0.8414005649,106.3903696,-66.90905682,-96.38751908,0.0174697275,-12.72146071,
43155555,-0.8495013092,105.7351193,-67.05043889,-96.34550283,0.02076557813,-12.78225942,
43226666,-0.8573448442,105.0803624,-66.73848404,-105.2887487,0.02624543575,-12.95041624,
43297777,-0.8683687288,104.5199548,-66.34119026,-105.4599958,0.02047679911,-12.81337964,
43368888,-0.87826184,103.8918359,-66.62991905,-107.8994726,0.01894216659,-12.80321322,
43440000,-0.8897887991,103.2738816,-66.14506334,-103.7277869,0.01739335276,-12.82189939,
43511111,-0.8974982834,102.632514,-65.34515051,-102.4593251,0.0165696284,-12.84401978,
43582222,-0.909232976,102.0144217,-64.95401757,-107.1804499,0.0158329028,-12.85214704,
43653333,-0.9198866074,101.3967949,-65.25364274,-109.0638347,0.01524069989,-12.87510332,
43724444,-0.9334089144,100.7817719,-65.17634855,-111.0961424,0.01552289045,-12.90605504,
43795555,-0.9447872587,100.172557,-64.72271805,-109.1844232,0.01550621098,-12.91476979,
43866666,-0.9566355938,99.56854259,-64.64836695,-111.1305206,0.01627052752,-12.93996207,
43937777,-0.9688862964,98.98158308,-64.40106813,-112.7726238,0.01543399507,-12.96757074,
44008888,-0.9826412722,98.39953948,-64.27375346,-115.672066,0.01526919388,-12.98411235,
44080000,-0.9945028676,97.84400236,-64.20327798,-116.9305109,0.01534236005,-13.00218045,
44151111,-1.008400251,97.29511612,-63.69786676,-115.1688489,0.01501984679,-13.02742446,
44222222,-1.022656033,96.75050553,-63.84307674,-118.9433342,0.01502642258,-13.04364195,
44293333,-1.036592494,96.22613318,-63.70603078,-118.856272,0.01513953044,-13.0663149,
44364444,-1.049429669,95.70421502,-63.22947767,-122.7279215,0.01559557243,-13.08704862,
44435555,-1.063372509,95.1865928,-63.27076353,-124.0775454,0.01568831491,-13.10298906,
44506666,-1.077603333,94.66000367,-62.93090312,-124.5491128,0.01667723811,-13.12341612,
44577777,-1.091478284,94.12911175,-62.59958515,-126.457386,0.01629308968,-13.1534677,
44648888,-1.104319698,93.60152233,-62.93030191,-128.2343187,0.01593790275,-13.18136069,
44720000,-1.118245408,93.08041469,-62.72975443,-129.9451052,0.01642708135,-13.21163917,
44791111,-1.132069765,92.55924621,-62.68950201,-132.0263456,0.01716871291,-13.23582221,
44862222,-1.144829912,92.0209372,-62.27023247,-133.7680163,0.01737530281,-13.26397068,
44933333,-1.157019344,91.50682883,-62.18579666,-133.6400518,0.0194482052,-13.30517015,
45004444,-1.171128287,90.98082949,-62.24852367,-135.1388994,0.02145348109,-13.37796146,
45075555,-1.185068858,90.46322801,-61.8932648,-137.5502597,0.02360071844,-13.46170171,
45146666,-1.196354078,89.88131647,-61.7968586,-139.7631239,0.02501888787,-13.49005655,
45217777,-1.209718233,89.376239,-61.81395983,-140.0587533,0.02501506649,-13.48393112,
45288888,-1.222381793,88.91965758,-62.02150224,-142.2569812,0.02295290588,-13.4772468,
45360000,-1.234618352,88.44634102,-61.87216439,-144.9693314,0.02130449603,-13.47002563,
45431111,-1.247005888,87.96770876,-61.53565222,-148.0312196,0.01900542577,-13.46985198,
45502222,-1.258499433,87.46596148,-61.57504745,-146.1483087,0.01768762378,-13.47647668,
45573333,-1.269115988,86.9667846,-61.19769432,-150.9964367,0.01666865432,-13.49095735,
45644444,-1.279386762,86.47175238,-61.30003249,-152.1303983,0.01540969441,-13.49931175,
45715555,-1.289776803,85.95186695,-60.94461376,-153.8457722,0.01565390248,-13.51833013,
45786666,-1.29975089,85.42940589,-60.67798799,-155.2464804,0.01554742675,-13.54359478,
45857777,-1.309152945,84.98910161,-60.78348608,-157.190213,0.01634715795,-13.57197623,
45928888,-1.320162667,84.57104826,-61.1490042,-158.9587243,0.01554625592,-13.60293032,
