Frequency,S11_Magnitude,S11_Phase,S12_Magnitude,S12_Phase,S22_Magnitude,S22_Phase,
30000000,-0.6164794644,-113.2781382,-64.58875276,131.0713647,0.04089384271,-8.989018507,
30071111,-0.5097327516,-113.9441162,-74.25237606,9.442607062,0.04024373242,-8.747681572,
30142222,-0.5054122087,-114.6831122,-75.17505664,15.05500169,0.04007063253,-8.763607982,
30213333,-0.50406311,-115.4162586,-72.44905826,2.688164902,0.0404613792,-8.773207521,
30284444,-0.5021380767,-116.1563832,-74.0872326,2.215877957,0.04111706481,-8.781587746,
30355555,-0.4996888698,-116.8923818,-73.11758073,2.429914145,0.04076545304,-8.810825536,
30426666,-0.4969887829,-117.6295576,-72.57026922,6.810672728,0.04203821557,-8.822159226,
30497777,-0.4950164256,-118.3698538,-72.74858191,-0.1354844136,0.04070905764,-8.843394048,
30568888,-0.4934321456,-119.1172329,-72.03990796,5.506946805,0.04037913076,-8.864620635,
30640000,-0.490919544,-119.8727156,-72.75028308,9.185792555,0.04007093954,-8.87342794,
30711111,-0.4908799712,-120.6226748,-72.09987055,11.38347986,0.03884698418,-8.904673632,
30782222,-0.4890773187,-121.3846059,-72.15554055,16.23556722,0.03955962565,-8.922672142,
30853333,-0.4870901285,-122.157716,-71.55449173,16.39872619,0.03863707659,-8.961003279,
30924444,-0.4906597337,-123.0306176,-66.92929547,-40.12682059,0.04586823817,-9.05126699,
30995555,-0.4813776619,-123.6862328,-71.11363878,18.29010056,0.03846204326,-9.016022187,
31066666,-0.4656865154,-124.4611119,-65.20374117,29.88345873,0.05176799392,-9.239286879,
31137777,-0.4802862697,-125.1959897,-70.86485004,12.39467638,0.03134602841,-9.102606246,
31208888,-0.4785597366,-125.9738477,-70.84890847,16.81677843,0.03794822037,-9.077356118,
31280000,-0.4788884224,-126.7473123,-71.20181377,10.13787145,0.03888686185,-9.097499115,
31351111,-0.4762824189,-127.5256309,-71.7477201,13.56698058,0.03891177798,-9.115267965,
31422222,-0.474512573,-128.2997246,-71.36821081,16.08594266,0.03859754111,-9.13624764,
31493333,-0.4730405882,-129.0760358,-71.1193897,13.2761288,0.03936945318,-9.1582309,
31564444,-0.4728081698,-129.8308034,-69.99883044,13.00389551,0.03989081965,-9.166875047,
31635555,-0.4740583482,-130.6018929,-70.91121035,9.849577084,0.0403574484,-9.200499055,
31706666,-0.4736844126,-131.3883181,-70.15437574,10.87583628,0.04107829724,-9.235799898,
31777777,-0.4736909646,-132.1682142,-70.16291332,12.68971152,0.04126369922,-9.248439863,
31848888,-0.4730973311,-132.9484717,-70.55613664,8.617649203,0.04122744156,-9.272494452,
31920000,-0.4739260652,-133.7310036,-68.96808887,6.907905861,0.03944438767,-9.265896446,
31991111,-0.4737370345,-134.5178009,-69.25777111,9.493787714,0.03916184321,-9.301096452,
32062222,-0.474188868,-135.3019967,-68.9646742,13.51055159,0.0383774777,-9.308050266,
32133333,-0.4745317842,-136.0971643,-67.89014978,12.75078553,0.03698797338,-9.329469569,
32204444,-0.476143096,-136.8844571,-68.40576493,8.369430372,0.0376981739,-9.356203087,
32275555,-0.4744330909,-137.6692489,-68.55792924,9.144792714,0.03957054886,-9.382769989,
32346666,-0.4764950343,-138.4586114,-67.46181174,12.2463423,0.03775460731,-9.388791628,
32417777,-0.4771028917,-139.2522759,-67.04532335,15.64646429,0.03896732973,-9.41241783,
32488888,-0.4789248923,-140.0321638,-66.96261765,15.32237549,0.03804186853,-9.442631871,
32560000,-0.4815065717,-140.8465013,-67.70719522,14.54368266,0.03857583291,-9.472869645,
32631111,-0.482334409,-141.6439064,-66.74705111,13.73283284,0.03641744429,-9.501764341,
32702222,-0.4829949207,-142.465026,-67.2264017,14.84101235,0.03548973384,-9.51794893,
32773333,-0.4854932471,-143.2372978,-66.75761413,14.4177985,0.03492456679,-9.528692514,
32844444,-0.4881741604,-144.0347406,-67.28668716,13.30746492,0.03579842379,-9.554667394,
32915555,-0.488661874,-144.8441006,-67.80821099,14.92535563,0.03501027328,-9.57438036,
32986666,-0.4902726517,-145.640346,-67.2173621,17.03058802,0.03674176572,-9.588145884,
33057777,-0.4924150644,-146.4594708,-66.99838389,16.48492758,0.03672567417,-9.621830986,
33128888,-0.4946205185,-147.2603574,-68.01475282,16.55356965,0.0357420688,-9.641435595,
33200000,-0.4918090471,-148.1238917,-69.36509333,5.732967391,0.03562014554,-9.655083702,
33271111,-0.4979950316,-148.8988204,-67.30251481,13.6299624,0.03600378457,-9.692983825,
33342222,-0.4997711987,-149.717214,-67.84129575,13.26607968,0.03619225069,-9.716430174,
33413333,-0.5006539762,-150.5287367,-68.18840106,8.057154356,0.03466671941,-9.738045454,
33484444,-0.5030689808,-151.3519674,-67.96573491,8.860800413,0.03426735094,-9.75919806,
33555555,-0.5045231602,-152.1696133,-67.83683193,6.003877559,0.03405585317,-9.785884808,
33626666,-0.5071971846,-152.9895533,-67.28599031,3.219837291,0.03377896411,-9.800569379,
33697777,-0.508410199,-153.807132,-67.70527361,4.415599293,0.03440235092,-9.824540496,
33768888,-0.5110622219,-154.6221663,-67.23473347,4.384120082,0.03435088439,-9.845724342,
33840000,-0.5133349148,-155.4386743,-67.72451046,4.427088429,0.03450053004,-9.876214475,
33911111,-0.5155340505,-156.2583251,-67.02093738,5.81627347,0.03409332094,-9.889301813,
33982222,-0.5168934403,-157.081931,-66.1512983,6.591496625,0.03447989394,-9.906063226,
34053333,-0.5187770553,-157.9079936,-67.17456306,5.946460961,0.03497663493,-9.918590505,
34124444,-0.5209199253,-158.7444119,-66.91142331,9.864499897,0.03458481168,-9.94240026,
34195555,-0.5236631987,-159.5647777,-66.88719014,9.3283408,0.03633064144,-9.951146705,
34266666,-0.5254971497,-160.3822761,-66.82929128,7.756420483,0.03566236422,-9.974792315,
34337777,-0.528002627,-161.2112837,-67.09164712,7.306089833,0.03488972807,-9.993519289,
34408888,-0.529423217,-162.0276554,-67.3610825,8.102138784,0.03430902013,-10.01137396,
34480000,-0.5325716878,-162.8570604,-66.88787925,9.178987026,0.0337527316,-10.03843397,
34551111,-0.5346995035,-163.6733936,-67.66581707,6.678887368,0.03263709309,-10.06651986,
34622222,-0.53888036,-164.5032227,-67.10554016,6.475731917,0.03055376432,-10.11058358,
34693333,-0.5406164158,-165.3249147,-67.53885703,4.537838051,0.02970525699,-10.111234,
34764444,-0.5427881937,-166.1496133,-67.4887055,3.225391743,0.02818503959,-10.13927758,
34835555,-0.5441016308,-166.980954,-67.65088511,1.123860093,0.02822127091,-10.15387477,
34906666,-0.5472823367,-167.807623,-67.11031904,0.1974798952,0.02944494581,-10.18242586,
34977777,-0.5499095474,-168.6470532,-67.4144643,-2.511139393,0.03071436258,-10.19060783,
35048888,-0.5528790013,-169.4743776,-67.73287364,-3.035814854,0.02831108386,-10.22065896,
35120000,-0.5556685039,-170.2916944,-67.74654557,-4.268268322,0.02633706928,-10.24651756,
35191111,-0.557380176,-171.1293955,-67.09046305,-7.41907775,0.02738784551,-10.27181033,
35262222,-0.5584815988,-171.94869,-67.36220712,-6.977014442,0.02771078904,-10.29817189,
35333333,-0.5607575566,-172.7661624,-67.46076193,-9.572278733,0.02767164127,-10.327164,
35404444,-0.5638153545,-173.576894,-67.34616933,-14.6227114,0.02851495566,-10.33555717,
35475555,-0.5665745792,-174.3864417,-66.99842427,-13.89340483,0.02847245,-10.35670927,
35546666,-0.5682941044,-175.2004046,-66.66002871,-12.86213442,0.0265765307,-10.38134559,
35617777,-0.571307667,-176.0099641,-66.51964709,-19.66110476,0.02854420686,-10.41057918,
35688888,-0.5731556709,-176.8210335,-66.50736355,-13.93029473,0.02939035502,-10.43114832,
35760000,-0.5762419919,-177.6355246,-66.33444821,-13.23398756,0.02984338193,-10.44370868,
35831111,-0.578456585,-178.4618215,-65.71469057,-17.00246556,0.02927804987,-10.45972902,
35902222,-0.581435349,-179.2699967,-65.59344801,-16.46202251,0.02740740326,-10.47731622,
35973333,-0.5829388953,179.9185655,-65.56727593,-17.46019064,0.02681598522,-10.50837241,
36044444,-0.584580599,179.1080444,-65.11889564,-18.87302975,0.02636431688,-10.54137164,
36115555,-0.5875550519,178.303416,-64.78501196,-17.87508234,0.02595248078,-10.56288498,
36186666,-0.5897084697,177.4895307,-65.10272082,-17.64919382,0.02759619104,-10.58581697,
36257777,-0.5911618601,176.6851434,-64.61891271,-16.87093413,0.02789554578,-10.58926255,
36328888,-0.5937491736,175.8894385,-64.56489537,-15.31055699,0.02860369714,-10.61222332,
36400000,-0.595535436,175.0735686,-64.506282,-15.22009919,0.02748758565,-10.64782441,
36471111,-0.5981763067,174.2698385,-64.53351135,-15.87131159,0.02761090178,-10.65338502,
36542222,-0.5999867156,173.4661564,-64.31977096,-16.25681465,0.02807816577,-10.67339806,
36613333,-0.602135153,172.6658748,-64.89244376,-15.07707171,0.02862561546,-10.70493306,
36684444,-0.6034214185,171.8621046,-64.97945967,-17.74144441,0.02814057423,-10.71602118,
36755555,-0.6056385069,171.0603109,-64.97349696,-18.86312509,0.02649309545,-10.73789933,
36826666,-0.6068305334,170.2588683,-64.85450887,-14.74868638,0.02745444431,-10.76233205,
36897777,-0.6087417328,169.4543334,-64.1704685,-18.90543377,0.02619553858,-10.7995715,
36968888,-0.6101842554,168.6599988,-64.27051672,-18.76776125,0.026985188,-10.81505985,
37040000,-0.6390624186,167.9219155,-65.27920934,-10.06081991,0.01195614783,-10.88170406,
37111111,-0.6129310141,167.0782449,-64.63209412,-15.04783093,0.0260986559,-10.85088213,
37182222,-0.6156293984,166.2839972,-64.64754017,-16.42140271,0.02585587808,-10.88468314,
37253333,-0.6178909142,165.4988141,-63.6509029,-16.12202397,0.02604579018,-10.91300467,
37324444,-0.6195839217,164.7104121,-64.22742426,-17.28801839,0.02657517332,-10.93378061,
37395555,-0.6212323874,163.9153889,-63.58797686,-17.03485393,0.02574511873,-10.96730136,
37466666,-0.6222349975,163.0995104,-63.87692952,-13.20168392,0.02598833129,-11.00839429,
37537777,-0.6200401589,162.2289019,-63.91641835,-19.52498223,0.02530712727,-11.02585713,
37608888,-0.617833353,161.3568388,-63.76082741,-18.43981823,0.0249973689,-11.03866265,
37680000,-0.6152597498,160.5119633,-63.91432558,-15.54374477,0.02485072588,-11.05319222,
37751111,-0.6170074148,159.6826267,-64.28489825,-15.21545682,0.02474415519,-11.0803856,
37822222,-0.6173943548,158.8598474,-64.25426426,-16.04290829,0.02419816536,-11.10781517,
37893333,-0.6166131918,158.0380162,-64.69836214,-15.34057174,0.02649284971,-11.12950852,
37964444,-0.616863246,157.2259889,-64.42512904,-17.84483096,0.02511217208,-11.16337803,
38035555,-0.6171080878,156.4091605,-64.81750605,-19.1515533,0.0249645175,-11.18346608,
38106666,-0.6179414707,155.6020486,-64.59734642,-19.42371554,0.02487122037,-11.21460644,
38177777,-0.6178734632,154.7995896,-65.22778754,-14.8206215,0.02490933664,-11.25082083,
38248888,-0.6173787318,153.9890906,-65.0908653,-13.32056857,0.02533720296,-11.28854469,
38320000,-0.618604084,153.1899194,-65.46301882,-14.52032467,0.025725981,-11.32531706,
38391111,-0.6202363702,152.4209377,-65.2404018,-14.81673361,0.02518242821,-11.35247429,
38462222,-0.6231661565,151.6627997,-64.48954994,-17.82293789,0.02551368653,-11.36258359,
38533333,-0.6245580186,150.9136074,-63.98311254,-17.8870109,0.02456035828,-11.37988338,
38604444,-0.6275279065,150.1472462,-63.97437917,-23.48948566,0.02422303985,-11.39461188,
38675555,-0.6297860041,149.3734538,-63.98675151,-25.62091862,0.02391523114,-11.40220307,
38746666,-0.6311317323,148.608464,-64.13635253,-24.78153833,0.02446420339,-11.41483131,
38817777,-0.6324924104,147.8318145,-63.7295297,-24.74475885,0.02439859018,-11.42032689,
38888888,-0.6337670577,147.0520327,-63.80472049,-26.44622856,0.02557608937,-11.43984024,
38960000,-0.6361166876,146.2712644,-63.71536838,-25.19859049,0.02349937431,-11.45196029,
39031111,-0.6363706893,145.487488,-63.89122593,-25.48614739,0.02322945831,-11.47485421,
39102222,-0.6398388406,144.7027738,-63.41094452,-28.97004982,0.02256346159,-11.49005122,
39173333,-0.6405579596,143.9319342,-63.50185692,-29.18043434,0.02148828467,-11.50703611,
39244444,-0.6422692517,143.152395,-63.33820787,-29.42496813,0.02329340207,-11.52895214,
39315555,-0.6444181433,142.3649883,-63.43446456,-29.9840869,0.02294696361,-11.56012705,
39386666,-0.646608654,141.5852481,-63.30234267,-29.16052967,0.02253431365,-11.58253849,
39457777,-0.6489196663,140.8114656,-63.19444539,-29.43950126,0.02284263,-11.59466007,
39528888,-0.651289137,140.0505976,-62.85760539,-29.16937118,0.02297126335,-11.62487519,
39600000,-0.653730759,139.2956876,-63.19232226,-32.84905167,0.0226261661,-11.63938348,
39671111,-0.656407955,138.5414888,-62.91859926,-32.55892139,0.02255348937,-11.66618443,
39742222,-0.6592433773,137.8043011,-63.10133107,-32.14575695,0.02183492164,-11.68567303,
39813333,-0.6635287755,137.0677871,-63.5806205,-32.58374592,0.02172751475,-11.71226351,
39884444,-0.6665006358,136.335337,-62.93055978,-35.53271818,0.02266220862,-11.74466429,
39955555,-0.6693408813,135.606562,-62.70037726,-37.21453889,0.02179877494,-11.76391848,
40026666,-0.6741687337,134.8789707,-62.49570509,-35.11187116,0.02151358092,-11.78672011,
40097777,-0.6761003797,134.1441443,-62.85422664,-36.74649471,0.02150491915,-11.80308468,
40168888,-0.6799562927,133.4068534,-63.12504918,-36.45725592,0.0211874572,-11.82994282,
40240000,-0.6841649137,132.6807085,-63.11042893,-34.35068027,0.02141562536,-11.85058798,
40311111,-0.6879731194,131.933656,-62.7045236,-34.72037554,0.02222339729,-11.86962208,
40382222,-0.6922121541,131.19962,-62.70165599,-35.8670712,0.02192245351,-11.89727008,
40453333,-0.695633185,130.4455441,-62.64534169,-36.64048356,0.02124295356,-11.9266867,
40524444,-0.6990394064,129.706341,-62.3992783,-33.51096355,0.02274753457,-11.93931707,
40595555,-0.7042899552,128.958258,-62.4273409,-39.30909679,0.02296269176,-11.9633751,
40666666,-0.7177590198,128.2183905,-61.91754762,-38.10343535,0.02217377421,-11.98620556,
40737777,-0.7123792603,127.4964692,-62.54669371,-41.69032067,0.02189111932,-12.0138574,
40808888,-0.7175357392,126.798388,-62.72257984,-38.68045919,0.02257492094,-12.03267956,
40880000,-0.7238397154,126.119581,-62.43294938,-40.78821626,0.02209940627,-12.03444599,
40951111,-0.7289767155,125.4340788,-62.25215723,-39.49716487,0.02180953954,-12.05088764,
41022222,-0.734686124,124.7600101,-62.3161422,-40.54642839,0.02109980394,-12.06330116,
41093333,-0.7407887842,124.1023886,-62.78561368,-42.58049669,0.02010600164,-12.08392981,
41164444,-0.7463491724,123.4438932,-62.58864768,-41.97162806,0.02026456184,-12.09863465,
41235555,-0.7535851193,122.7768312,-63.01332427,-40.86907646,0.02021311017,-12.11992821,
41306666,-0.7592376552,122.1178588,-62.84090577,-39.81790517,0.0201239033,-12.13054192,
41377777,-0.7609545649,121.3679305,-62.82578832,-41.95928413,0.02638269826,-12.19951121,
41448888,-0.7731339853,120.7665223,-62.54549074,-41.68116062,0.01963362448,-12.1798845,
41520000,-0.7795049111,120.1122872,-62.27111166,-44.7292202,0.01911133489,-12.20305978,
41591111,-0.7884272758,119.4470584,-62.4671148,-44.27573252,0.01954242729,-12.21474023,
41662222,-0.7964746217,118.7563534,-61.98883937,-43.67784373,0.01945675421,-12.23615463,
41733333,-0.8011627373,118.0143539,-61.38616796,-40.70909124,0.03216723716,-12.34871425,
41804444,-0.8115506618,117.4009645,-61.51173797,-49.5784548,0.01921183165,-12.27631329,
41875555,-0.8185130484,116.7234612,-61.97204992,-48.03634647,0.01950635398,-12.29023748,
41946666,-0.8285367039,116.048552,-61.78091587,-50.14557416,0.01893428544,-12.32280768,
42017777,-0.8372832035,115.3357907,-61.83593182,-50.70082015,0.01912338744,-12.33685869,
42088888,-0.8454041862,114.4217286,-61.77527046,-50.89984115,0.01908750593,-12.35825995,
42160000,-0.8564262753,113.9069536,-61.22776891,-52.47737903,0.01815403051,-12.39249994,
42231111,-0.8647590169,113.3594927,-61.33392571,-52.70756398,0.01930158398,-12.41746943,
42302222,-0.8755335679,112.7304686,-61.60841507,-55.34627779,0.01879563257,-12.43964943,
42373333,-0.8861608019,112.0848004,-61.47503883,-56.18390488,0.01925037567,-12.45562224,
42444444,-0.8974426985,111.4324116,-61.46700335,-59.32200069,0.01927100508,-12.47767075,
42515555,-0.9086101188,110.7560785,-61.55452705,-60.70702633,0.01852791026,-12.50575312,
42586666,-0.9201514102,110.0732449,-61.17204754,-60.21087258,0.01885076538,-12.52456491,
42657777,-0.930325605,109.39169,-61.30758623,-61.67164511,0.01935968559,-12.54847365,
42728888,-0.9428086914,108.7434122,-61.19335987,-62.34647849,0.02011308062,-12.57666811,
42800000,-0.9540835201,108.0983707,-61.09241039,-63.29208263,0.01839822409,-12.58678215,
42871111,-0.9668805894,107.4688916,-60.92882992,-65.39289922,0.01813881613,-12.61497648,
42942222,-0.9799072169,106.8442574,-61.06324162,-65.90170038,0.01786089159,-12.63814545,
43013333,-0.9933941982,106.1991093,-60.96927029,-68.55392064,0.01747779205,-12.65163599,
43084444,-1.007924576,105.5641774,-60.80248591,-69.10620084,0.01815602843,-12.68125047,
43155555,-1.021834026,104.948235,-60.64925214,-69.51743772,0.01886370124,-12.70232103,
43226666,-1.034751202,104.3205812,-60.50793373,-71.71356706,0.01857000075,-12.72219471,
43297777,-1.049762058,103.7148466,-60.40044936,-73.89213103,0.01860794189,-12.73957354,
43368888,-1.064971556,103.0863879,-60.43027903,-73.26708782,0.0188625166,-12.77208123,
43440000,-1.080231645,102.4823614,-60.28080361,-73.19543845,0.01930391801,-12.80526908,
43511111,-1.093972332,101.8554297,-60.05657516,-74.91649733,0.02023689416,-12.84499628,
43582222,-1.109343498,101.2445974,-60.10624132,-76.04700432,0.02459466531,-12.93128848,
43653333,-1.124837699,100.6164717,-60.13327663,-76.0861512,0.0258972639,-13.05684317,
43724444,-1.141341675,100.0542718,-60.19798613,-74.44395971,0.02339653005,-13.03499297,
43795555,-1.157095143,99.59124177,-60.04930467,-76.03139874,0.02086957899,-12.97012097,
43866666,-1.171452665,99.03824459,-60.05543753,-76.29719661,0.01887836298,-12.94935266,
43937777,-1.186892483,98.45247564,-59.89410924,-78.227727,0.01730316858,-12.95768446,
44008888,-1.20201014,97.8779762,-60.01522432,-79.66418977,0.01673891139,-12.96156668,
44080000,-1.217049547,97.31926427,-59.99976988,-78.47436617,0.01642632763,-12.98043714,
44151111,-1.232987984,96.76332054,-60.1149299,-79.57319007,0.01694880338,-13.00212383,
44222222,-1.248726892,96.19828109,-60.19467721,-80.6718762,0.01618548363,-13.02076713,
44293333,-1.263098515,95.65718255,-60.3580898,-81.59132959,0.01710030606,-13.04518895,
44364444,-1.277364556,95.11288508,-60.24545689,-81.74863786,0.01679522641,-13.07364989,
44435555,-1.293029203,94.57920995,-60.38978941,-81.93867361,0.016338215,-13.08731892,
44506666,-1.307905618,94.04646749,-60.65309775,-82.82175129,0.01626389838,-13.11267469,
44577777,-1.321273696,93.51389213,-60.32050651,-84.11313308,0.01571619032,-13.14002441,
44648888,-1.335497034,93.00270647,-60.68918141,-82.8457432,0.01586263843,-13.15937127,
44720000,-1.350550713,92.4868762,-60.76141215,-84.26154949,0.01573203526,-13.18426492,
44791111,-1.364451486,91.97946521,-60.89108052,-86.06686994,0.01597682731,-13.20163987,
44862222,-1.377757128,91.46392994,-61.05025936,-87.86106236,0.01566524105,-13.2125403,
44933333,-1.390974027,90.96369817,-61.14911265,-85.37820189,0.01543562809,-13.23710826,
45004444,-1.404912274,90.45500144,-61.37096559,-87.35122573,0.01517287819,-13.27038661,
45075555,-1.417453808,89.95597548,-61.52174087,-89.06308541,0.01550201727,-13.28292457,
45146666,-1.430773874,89.45086645,-61.61250907,-89.9950705,0.0164301712,-13.30821853,
45217777,-1.443480312,88.96836725,-61.60055984,-91.04600851,0.01650050162,-13.33415194,
45288888,-1.456425345,88.470025,-62.14567033,-91.65800806,0.01910563196,-13.38505126,
45360000,-1.469191522,87.96439359,-62.83008723,-93.00324809,0.02299720517,-13.45513077,
45431111,-1.483125857,87.45904617,-63.32605399,-96.25592372,0.02535560028,-13.53794928,
45502222,-1.494991786,86.95685382,-63.07647271,-96.03435963,0.02414471647,-13.57733671,
45573333,-1.50700566,86.48399447,-63.16452092,-98.75824124,0.02222503463,-13.58000833,
45644444,-1.519257578,86.04534238,-63.24051726,-99.66245557,0.01998925203,-13.57109364,
45715555,-1.532193935,85.61159442,-62.89041196,-100.3336289,0.019018023,-13.56446009,
45786666,-1.545163463,85.1794094,-63.45391958,-102.6552719,0.01783599801,-13.56897033,
45857777,-1.557731829,84.741339,-63.75328542,-101.9589472,0.01720250643,-13.5783238,
45928888,-1.570581612,84.28007422,-64.64239163,-102.084073,0.01642780984,-13.58845569,
