Frequency,S11_Magnitude,S11_Phase,S12_Magnitude,S12_Phase,S22_Magnitude,S22_Phase,
30000000,-0.57980433,-111.0907641,-59.65191457,-132.6588137,-0.002111845903,-8.854189561,
30071111,-0.506887482,-111.8314046,-60.67630008,-147.846183,0.03801099603,-8.776015751,
30142222,-0.5091223253,-112.5531037,-60.64971963,-149.990052,0.03820844716,-8.790208141,
30213333,-0.5128495949,-113.2554673,-61.02771814,-149.5682992,0.03826777052,-8.798541169,
30284444,-0.517145339,-113.9640137,-60.62352552,-150.0127998,0.03772654476,-8.794955381,
30355555,-0.520670737,-114.6721065,-60.83346131,-148.6264859,0.03676784689,-8.828207986,
30426666,-0.5236029187,-115.3800114,-60.78424323,-148.8294946,0.03702552978,-8.831628085,
30497777,-0.5269262443,-116.0917601,-60.84369959,-150.6705321,0.0355947314,-8.856429078,
30568888,-0.5311768326,-116.8127436,-60.8980031,-150.6137534,0.03621456724,-8.884041516,
30640000,-0.5343366089,-117.5351451,-60.89143397,-150.5521913,0.03586367378,-8.897335179,
30711111,-0.5380817059,-118.2426472,-60.7432435,-151.489144,0.03528742112,-8.919568156,
30782222,-0.5422746016,-118.9653075,-60.91695005,-153.5651014,0.03569512773,-8.939171097,
30853333,-0.5451498075,-119.6891176,-60.95585991,-153.155049,0.03416956829,-8.958367322,
30924444,-0.5419758206,-120.5348812,-61.74027787,-165.9584065,0.04480878668,-8.973217338,
30995555,-0.5516037788,-121.130842,-61.02864443,-154.7621811,0.0340651966,-9.031767866,
31066666,-0.5907671867,-121.6420087,-63.46628572,-152.1180794,0.04579004065,-9.044243202,
31137777,-0.5621791677,-122.5887321,-61.01282011,-154.0757625,0.03368930721,-9.094816311,
31208888,-0.5615364818,-123.2953055,-60.56973935,-157.4395706,0.0342793142,-9.084213183,
31280000,-0.5653574652,-124.0234573,-60.13991844,-157.2696458,0.03438857664,-9.094021491,
31351111,-0.5667507576,-124.7540579,-60.04786342,-158.0419624,0.03498150178,-9.113163337,
31422222,-0.5693471164,-125.4853525,-59.88058573,-157.4169189,0.03479524332,-9.142470575,
31493333,-0.571055203,-126.2256236,-59.58383193,-158.8274167,0.03614920939,-9.174694511,
31564444,-0.5735875233,-126.9653629,-59.72037896,-159.3425297,0.03549638895,-9.20275732,
31635555,-0.5772387232,-127.6896634,-59.76790059,-157.8809518,0.03655524462,-9.220678977,
31706666,-0.5789757583,-128.423292,-59.62103398,-159.6827342,0.03671630412,-9.254319948,
31777777,-0.581487081,-129.155726,-59.50221017,-159.5824064,0.0379442978,-9.251649079,
31848888,-0.584148923,-129.9029841,-59.28367962,-158.8042522,0.03791994067,-9.271016342,
31920000,-0.5867499445,-130.6276429,-59.32534164,-159.7784264,0.03675038671,-9.279253482,
31991111,-0.5897509887,-131.3552911,-58.8339183,-159.8040084,0.03588251423,-9.309752829,
32062222,-0.5919792823,-132.0926751,-58.51735881,-162.1694676,0.0356491066,-9.30827949,
32133333,-0.5949370377,-132.840883,-58.59309924,-161.1887879,0.0341554988,-9.321766295,
32204444,-0.5984433088,-133.5867513,-58.34302554,-160.9355567,0.03420655086,-9.357521795,
32275555,-0.5967186967,-134.3268175,-58.31947867,-161.8270652,0.0349750915,-9.388671237,
32346666,-0.5996885436,-135.0839872,-58.48352265,-161.6892039,0.0345282718,-9.397228803,
32417777,-0.600655754,-135.8276828,-58.56992214,-163.7155421,0.03548513178,-9.433503888,
32488888,-0.6017886944,-136.5750478,-58.30766956,-163.135186,0.03497276643,-9.460793601,
32560000,-0.6026300538,-137.3433906,-58.28770936,-163.8968921,0.03501575765,-9.479007606,
32631111,-0.6023792736,-138.0890836,-58.47810602,-164.4266362,0.03538064421,-9.516309538,
32702222,-0.6025552091,-138.8530123,-57.99641004,-164.7188517,0.03402297277,-9.529838708,
32773333,-0.6033111011,-139.5931673,-58.2811467,-164.8241746,0.03252143304,-9.556522094,
32844444,-0.6045966598,-140.3525804,-58.07422276,-164.9550108,0.032437508,-9.575091281,
32915555,-0.6042021883,-141.1085944,-57.84235598,-165.9375638,0.03307977536,-9.600497049,
32986666,-0.6044759416,-141.8597969,-57.92231088,-166.2920063,0.03308860769,-9.620782467,
33057777,-0.6036191098,-142.6266879,-57.98648594,-168.2166005,0.03221738276,-9.647972311,
33128888,-0.6030361441,-143.3867726,-57.47469382,-167.9509322,0.03208667183,-9.664672676,
33200000,-0.6009665278,-144.1632934,-57.29115308,-168.4653152,0.03557055986,-9.714142329,
33271111,-0.6023185286,-144.9393552,-57.78761948,-168.0034874,0.03164773712,-9.711904182,
33342222,-0.6009982547,-145.7162542,-57.5870754,-169.0301842,0.03121911282,-9.731730331,
33413333,-0.600349678,-146.4871512,-57.47251641,-169.3676368,0.03194161767,-9.750148376,
33484444,-0.6000996172,-147.2748065,-57.50958897,-170.0616948,0.03139890972,-9.773421008,
33555555,-0.5978797928,-148.0698091,-57.38317708,-170.6436285,0.03048199551,-9.802535568,
33626666,-0.5973762311,-148.8772398,-57.49497514,-170.2122838,0.02995671415,-9.820921181,
33697777,-0.594902455,-149.6787221,-57.254938,-171.1159302,0.03040097382,-9.837959898,
33768888,-0.5937555506,-150.4952821,-57.28561618,-171.9333752,0.0313672518,-9.862102524,
33840000,-0.5937507078,-151.2558382,-57.11248607,-172.0889705,0.03164917406,-9.882598406,
33911111,-0.5934898364,-152.0403245,-57.09322844,-172.2315548,0.03166905508,-9.89613971,
33982222,-0.5920283928,-152.8483615,-57.23149391,-172.564578,0.03142271859,-9.91703441,
34053333,-0.5906883489,-153.6615721,-57.1281812,-173.437219,0.03244378008,-9.934288961,
34124444,-0.5883334659,-154.4910978,-56.92036552,-173.719832,0.03218099148,-9.957747073,
34195555,-0.5869823667,-155.2981787,-56.88862852,-173.0883612,0.03375097395,-9.969399303,
34266666,-0.5859405409,-156.1090792,-56.91355345,-174.0943979,0.03332351627,-10.00247989,
34337777,-0.5855189701,-156.94337,-56.97440898,-174.6701261,0.03124406241,-10.00901259,
34408888,-0.5846479905,-157.7720048,-56.82042221,-175.3173921,0.0319625307,-10.02864249,
34480000,-0.5843929015,-158.5954584,-56.72614134,-174.6281185,0.03049160589,-10.05301169,
34551111,-0.5833644287,-159.4182583,-56.7531585,-175.4270743,0.03002348391,-10.07857452,
34622222,-0.5853398396,-160.2433082,-56.74853789,-175.7756185,0.02950037432,-10.11309253,
34693333,-0.5846744508,-161.0680226,-56.64239436,-176.1085491,0.02826293611,-10.1161239,
34764444,-0.5857419183,-161.8935676,-56.70275056,-176.5149569,0.02727543321,-10.13425894,
34835555,-0.5861818996,-162.7261031,-56.82699251,-175.9267369,0.02627880342,-10.16123292,
34906666,-0.58711033,-163.5537021,-56.75439512,-176.8624334,0.02589282932,-10.17814367,
34977777,-0.5877339794,-164.3840936,-56.90868217,-177.9846145,0.02556635221,-10.20693574,
35048888,-0.5892583909,-165.2184454,-56.74149743,-178.2443993,0.02576204612,-10.23347546,
35120000,-0.5902821872,-166.0457309,-56.54783112,-178.6584258,0.02469754833,-10.2520317,
35191111,-0.5921826431,-166.8865269,-56.85503337,-178.7754788,0.02436887358,-10.27906261,
35262222,-0.5927844267,-167.7230759,-56.78022878,-179.2857072,0.02412490344,-10.31416583,
35333333,-0.5955824876,-168.5492198,-56.62263825,-179.7040627,0.02284973096,-10.34117853,
35404444,-0.5966851891,-169.393907,-56.63437165,-179.5554942,0.02384335989,-10.3530008,
35475555,-0.5984143649,-170.2169418,-56.47204052,179.8109818,0.02441391435,-10.38122922,
35546666,-0.598298703,-171.0520889,-56.56284951,177.983173,0.02411436487,-10.39506087,
35617777,-0.5995812882,-171.8754667,-56.52157446,178.4929815,0.02325592922,-10.42463259,
35688888,-0.6008925959,-172.6971762,-56.56513137,176.9976398,0.02454501026,-10.43698646,
35760000,-0.6036941795,-173.5293092,-56.58424856,176.0503059,0.02546244837,-10.45312424,
35831111,-0.6056227042,-174.3585591,-56.58493452,175.9741567,0.02447207047,-10.47456197,
35902222,-0.6074363137,-175.1863919,-56.48775142,174.6223137,0.02249175598,-10.50201903,
35973333,-0.6085251011,-176.0130098,-56.50790447,175.0017155,0.0236652849,-10.52852013,
36044444,-0.6105255561,-176.8301641,-56.45499336,174.0012152,0.02356252984,-10.54895372,
36115555,-0.6123833472,-177.6511689,-56.35259023,173.9994525,0.02257693713,-10.56481698,
36186666,-0.6142943026,-178.4894508,-56.37041288,172.9420448,0.02377107249,-10.59724673,
36257777,-0.615590088,-179.3122926,-56.327376,172.5748227,0.02472820717,-10.60082081,
36328888,-0.6181816011,179.861995,-56.36600373,172.0167293,0.02502012193,-10.62335589,
36400000,-0.6195401822,179.0381968,-56.32934828,171.7380108,0.02476581782,-10.65001934,
36471111,-0.6220183024,178.2135929,-56.1583048,171.6170858,0.02519243562,-10.67345181,
36542222,-0.6232074233,177.3927322,-56.24762452,171.0771719,0.02439209149,-10.6921351,
36613333,-0.6261322792,176.568364,-56.12572971,170.948449,0.02549909866,-10.7186304,
36684444,-0.6284940543,175.7483443,-55.96853838,170.7513083,0.02487584352,-10.72189883,
36755555,-0.6314871941,174.9211416,-55.90245682,170.3798901,0.02463304688,-10.74949306,
36826666,-0.633298863,174.0995243,-56.06054323,169.1315345,0.02425533067,-10.76650287,
36897777,-0.6345882386,173.2693382,-56.14345016,169.6061095,0.0234771283,-10.80039403,
36968888,-0.6368753608,172.4504733,-56.12683203,168.895017,0.02362108573,-10.81261678,
37040000,-0.648808015,171.643113,-56.09755979,169.6032684,0.01492518431,-10.87918257,
37111111,-0.6391584722,170.7836878,-56.08482776,168.0185973,0.02322314239,-10.86911237,
37182222,-0.6414454425,169.9531411,-56.03528256,167.7039449,0.0237413439,-10.88471399,
37253333,-0.6423925317,169.0971291,-56.07225804,166.8102278,0.02314606819,-10.91837111,
37324444,-0.6435813347,168.2523673,-55.95833315,165.8401081,0.02273613091,-10.94086018,
37395555,-0.6442232316,167.3614456,-55.91209202,166.4217682,0.02222332463,-10.97551756,
37466666,-0.6446836942,166.4992141,-55.7949731,165.4115625,0.02110134676,-11.0013729,
37537777,-0.6433586267,165.598075,-55.69056014,166.1755309,0.02189272028,-11.03838569,
37608888,-0.6430596909,164.7220829,-55.85773064,165.1654612,0.02282722521,-11.07986161,
37680000,-0.6416074358,163.857703,-55.78027106,167.6091081,0.02298126286,-11.13726354,
37751111,-0.6455312909,163.0487572,-55.94320386,166.9073859,0.02362545759,-11.18112912,
37822222,-0.6473874589,162.2481534,-56.25310994,167.3488063,0.02336439411,-11.23885591,
37893333,-0.65033673,161.4277694,-56.10637467,164.5543856,0.02464367292,-11.26786381,
37964444,-0.6511125088,160.5814996,-55.74959935,161.5476173,0.02526242923,-11.27090134,
38035555,-0.653302817,159.7676177,-55.61386899,160.107423,0.02351120437,-11.25212637,
38106666,-0.6580716269,158.9871355,-55.61134227,160.6002529,0.02256283258,-11.24113703,
38177777,-0.6602571552,158.2231459,-55.43373805,160.6222777,0.02087990692,-11.23567305,
38248888,-0.6643942719,157.4356288,-55.63300248,159.0209591,0.02166488551,-11.24320208,
38320000,-0.6685184994,156.6491947,-55.46924375,159.7524786,0.02262224901,-11.25726561,
38391111,-0.672134933,155.8491428,-55.45696583,158.3719933,0.02100784459,-11.27253156,
38462222,-0.6760197386,155.0513662,-55.46950637,158.9789873,0.02131209846,-11.2936816,
38533333,-0.6786691241,154.2194057,-55.21145472,157.4497198,0.02123819842,-11.30817452,
38604444,-0.6824702615,153.3979389,-55.33216244,157.9441291,0.02086777744,-11.33393797,
38675555,-0.6839809487,152.5636469,-55.4049635,157.8731122,0.0199089036,-11.34988801,
38746666,-0.6866842285,151.725737,-55.24621657,156.0085014,0.02004662847,-11.3734804,
38817777,-0.6904229497,150.883125,-55.14087384,156.2699857,0.02081981876,-11.38152919,
38888888,-0.6931768899,150.0373108,-55.10386287,155.992265,0.02088788811,-11.40807283,
38960000,-0.6963729111,149.195388,-55.18127583,154.5976591,0.02046133143,-11.42354813,
39031111,-0.7003108685,148.3313875,-54.98002256,154.7836133,0.01879037774,-11.45707857,
39102222,-0.7037681179,147.4471505,-55.0940022,154.9028081,0.01987807294,-11.48251949,
39173333,-0.7068108723,146.571847,-55.11186854,153.7467698,0.01981860046,-11.50195888,
39244444,-0.7101525933,145.7068879,-54.91922963,153.8325872,0.02061048312,-11.52102312,
39315555,-0.7153824864,144.8636346,-54.95506232,153.408188,0.02070400634,-11.55199644,
39386666,-0.7221171989,144.062646,-54.87651224,153.2999445,0.02098524295,-11.57648086,
39457777,-0.7310097763,143.3072108,-54.90635298,152.3983603,0.01967446949,-11.59649629,
39528888,-0.7389514637,142.5661168,-54.81369918,151.8260838,0.01995672627,-11.61550399,
39600000,-0.7476930228,141.8198491,-54.94587217,152.2858432,0.02038976935,-11.64254681,
39671111,-0.7547078373,141.0387828,-54.8237301,152.1207149,0.01924562876,-11.67261397,
39742222,-0.7630267698,140.2700085,-54.71596947,151.5715986,0.01930767354,-11.68926349,
39813333,-0.7712908389,139.4866255,-54.58088424,151.6852256,0.01876371225,-11.71555757,
39884444,-0.7808536458,138.6929036,-54.67043921,152.3313928,0.0187063114,-11.73521041,
39955555,-0.7896351312,137.8873803,-54.6966648,151.50225,0.01763898771,-11.75582838,
40026666,-0.7993495496,137.0700743,-54.79197313,150.253446,0.01789464535,-11.78278147,
40097777,-0.80649522,136.2597221,-54.69684901,150.9635887,0.01824537156,-11.79028499,
40168888,-0.8169137553,135.4515801,-54.51130822,150.5942907,0.01712978631,-11.82004693,
40240000,-0.8263182804,134.6486865,-54.59027186,150.3208482,0.01811256896,-11.85008834,
40311111,-0.8369203429,133.8482867,-54.54983964,149.6546921,0.01849708798,-11.86553987,
40382222,-0.8497210496,133.0412574,-54.55097162,149.4942498,0.01822306391,-11.90007207,
40453333,-0.8630790714,132.2391093,-54.58804176,149.4989777,0.01871181226,-11.93972932,
40524444,-0.8747753303,131.4207222,-54.65262707,148.4218159,0.01939144081,-11.97392925,
40595555,-0.8882663469,130.604452,-54.68741146,149.965522,0.0202611977,-12.01588182,
40666666,-0.9051538846,129.7132683,-54.86162148,147.5232201,0.01377869269,-12.03379111,
40737777,-0.916573714,128.9250484,-54.53359835,152.625511,0.02225681872,-12.15036982,
40808888,-0.9326301934,128.1803937,-54.6769368,150.776855,0.02199941913,-12.15222775,
40880000,-0.9512033785,127.4779092,-54.80069436,150.3395015,0.02195006504,-12.11067381,
40951111,-0.9685352895,126.7579067,-54.783117,147.8872488,0.02024660948,-12.08906607,
41022222,-0.9878800294,126.0177981,-54.83942155,147.4480055,0.01896498765,-12.08529034,
41093333,-1.007509909,125.2679029,-54.95899054,148.2101584,0.01777553059,-12.09523302,
41164444,-1.026780504,124.5102832,-55.09601961,147.5508061,0.01793909742,-12.11018304,
41235555,-1.0479217,123.7596285,-54.66257096,147.3521337,0.01775396922,-12.13565825,
41306666,-1.069368677,123.0119389,-55.16559399,147.1305869,0.01725226305,-12.14973292,
41377777,-1.094627894,122.2419349,-55.11785007,147.608574,0.01411139787,-12.14660407,
41448888,-1.115085876,121.519963,-54.86345643,145.6635189,0.01689337691,-12.19144367,
41520000,-1.138655351,120.788652,-54.7421936,145.1655559,0.01641094947,-12.2157591,
41591111,-1.164941592,120.060139,-54.63627495,145.0022974,0.01651013504,-12.23417801,
41662222,-1.191169315,119.3258107,-54.69783098,144.4557125,0.01670822625,-12.25601082,
41733333,-1.219951424,118.5667273,-54.48564935,145.0870569,0.02792026157,-12.36033816,
41804444,-1.24661071,117.897781,-54.7088118,144.7231424,0.01628904439,-12.29779526,
41875555,-1.275572142,117.1961585,-54.56853387,142.9802658,0.01700983967,-12.31387104,
41946666,-1.306479015,116.4989467,-54.42235976,143.8172881,0.01623705776,-12.34019024,
42017777,-1.336217623,115.8078853,-54.44579869,144.4705188,0.01591744615,-12.35900306,
42088888,-1.36738317,115.1247895,-54.44901914,143.8062361,0.01636564067,-12.37669639,
42160000,-1.399479044,114.4590229,-54.4647459,143.8318707,0.01553706608,-12.40558598,
42231111,-1.433334895,113.7812553,-54.43663317,143.1270216,0.01605804957,-12.43044005,
42302222,-1.465258302,112.9539228,-54.34913059,143.5403685,0.01607523528,-12.44464311,
42373333,-1.498715208,112.3647271,-54.35015825,143.1168099,0.01677499985,-12.46375527,
42444444,-1.534308137,111.8238632,-54.12773515,144.3772263,0.01667093162,-12.48410076,
42515555,-1.568882915,111.2334018,-54.26232035,144.174491,0.01633546477,-12.51825281,
42586666,-1.605010686,110.6474824,-54.29962676,143.9533821,0.01651554167,-12.53665016,
42657777,-1.639502984,110.0634807,-54.21602579,143.8276552,0.01718613803,-12.56728826,
42728888,-1.675694541,109.4935707,-54.31738172,143.9823643,0.01679294841,-12.59462812,
42800000,-1.712241122,108.9417106,-54.26213776,142.5953452,0.01574739426,-12.61300252,
42871111,-1.74763979,108.4068739,-54.1569958,143.1142226,0.01674447712,-12.64223073,
42942222,-1.784822816,107.8545501,-54.25025041,143.1701578,0.0169843751,-12.66041101,
43013333,-1.819943721,107.3210956,-54.19216959,143.0139638,0.01564703904,-12.67945485,
43084444,-1.856962745,106.8131962,-54.1484675,142.9168465,0.01535636218,-12.70506895,
43155555,-1.89141661,106.3203117,-54.14694577,143.8712225,0.01603763724,-12.72365052,
43226666,-1.927461935,105.8324022,-54.12791046,143.5852782,0.01557805053,-12.74680436,
43297777,-1.963145005,105.3478257,-54.04795007,143.2682374,0.01573463387,-12.76783682,
43368888,-1.993568368,104.8889519,-53.91620547,143.1031369,0.01660088955,-12.79816604,
43440000,-2.026931707,104.4422129,-54.02090899,142.8941515,0.0169453283,-12.82940895,
43511111,-2.054717193,104.0012365,-54.01274242,143.1374368,0.01525337962,-12.84149946,
43582222,-2.084954134,103.5667636,-53.90242252,143.8678302,0.01577393582,-12.86550823,
43653333,-2.112996141,103.1369674,-53.80396043,142.9677603,0.01597094361,-12.89444891,
43724444,-2.141078095,102.6848853,-53.84426152,143.7365829,0.01905587571,-12.96638755,
43795555,-2.167148553,102.1735003,-53.86312185,144.1690008,0.02361125412,-13.07401581,
43866666,-2.190751789,101.7516589,-53.80572993,143.8301526,0.02341645961,-13.11254742,
43937777,-2.213396037,101.4758385,-53.53516433,142.9235372,0.02089173302,-13.0534209,
44008888,-2.233579723,101.1578828,-53.52372749,142.9012161,0.01758616677,-13.0354046,
44080000,-2.252108834,100.8164009,-53.45672688,142.1254449,0.01597590528,-13.03413698,
44151111,-2.269964126,100.4784188,-53.4360445,141.5430156,0.0156330381,-13.05007957,
44222222,-2.286494391,100.1262247,-53.34548792,141.4277129,0.01517496715,-13.06698912,
44293333,-2.299351621,99.77523963,-53.29824837,140.4823139,0.01493861055,-13.08659071,
44364444,-2.310168027,99.42629298,-53.27629267,140.6716217,0.01519425517,-13.1039621,
44435555,-2.320404237,99.08772295,-53.13617091,140.1433753,0.01451287239,-13.11905051,
44506666,-2.327835536,98.74677446,-53.01286012,140.2605133,0.014586935,-13.14518931,
44577777,-2.335278601,98.39984079,-53.03317172,140.1809545,0.01389894059,-13.17194889,
44648888,-2.340175499,98.06078717,-52.93886828,139.3672811,0.01341049736,-13.18280757,
44720000,-2.345093506,97.72545443,-52.83880439,139.3822003,0.01415391255,-13.20270386,
44791111,-2.347010862,97.37885678,-52.74940003,138.786882,0.01414849928,-13.23010992,
44862222,-2.346900993,97.03370574,-52.55628189,138.3185595,0.01373131543,-13.2372655,
44933333,-2.346653816,96.69339476,-52.65512672,138.0360058,0.01392260819,-13.25931433,
45004444,-2.344796908,96.33194438,-52.57093729,137.9091714,0.01393258644,-13.28687934,
45075555,-2.343044631,95.97790263,-52.41922317,137.2634476,0.0139344406,-13.30159217,
45146666,-2.339415636,95.62380507,-52.2549923,137.4813032,0.01492343381,-13.32769979,
45217777,-2.334892027,95.26196776,-52.29785303,136.8132795,0.01453431409,-13.34702081,
45288888,-2.329457935,94.89209024,-52.30030298,136.6719633,0.01490602513,-13.38143204,
45360000,-2.322238156,94.52341368,-52.11110478,136.5946034,0.0157721186,-13.41214582,
45431111,-2.316788196,94.1267369,-51.9514806,136.4977693,0.01742363287,-13.45120632,
45502222,-2.308756014,93.71385419,-52.06479237,136.6844758,0.01903620082,-13.52001699,
45573333,-2.300664247,93.28589088,-51.85352005,136.1652346,0.02226838629,-13.61555778,
45644444,-2.291169979,92.93507413,-51.86107073,135.3648069,0.02252369743,-13.67918409,
45715555,-2.28266042,92.57625292,-51.74206253,135.1739736,0.02135193917,-13.66583102,
45786666,-2.273329804,92.21941296,-51.56716336,134.2917832,0.01849464129,-13.62114608,
45857777,-2.263279753,91.85414867,-51.54639477,133.7982257,0.0161853402,-13.60638613,
45928888,-2.253577047,91.46914358,-51.41532765,132.9892606,0.01527180451,-13.60813383,
46000000,-2.233923954,91.01129951,-54.97665056,108.5439586,0.02668795698,-13.64933506,
